# Frequency, Real(S21), Imag(S21), Real(S11), Imag(S11), Amp(S21), Amp(S11)
4.000000000000000000e+09,3.699042528698533942e-05,1.409678447889660294e-04,-7.188282588830914310e-01,6.798054899580953554e-03,1.457402649488399372e-04,7.188604032211778350e-01
4.080000000000000000e+09,2.223600887547880942e-06,1.453518822822274180e-04,-7.187430936891696653e-01,6.949253579504317650e-03,1.453688896700170948e-04,7.187766877488381834e-01
4.160000000000000477e+09,2.110912678320979768e-06,1.463563350653075777e-04,-7.187536222400889852e-01,7.108390213443273493e-03,1.463715572305086820e-04,7.187887719592419566e-01
4.240000000000000000e+09,1.160311386191042078e-06,1.458850237949737530e-04,-7.187035453533355822e-01,7.266583271816061049e-03,1.458896380493590193e-04,7.187402794722863586e-01
4.320000000000000000e+09,3.549836245912486955e-06,1.445335799813924954e-04,-7.187267073300225295e-01,7.428973703854285793e-03,1.445771665222775565e-04,7.187651003490280743e-01
4.400000000000000000e+09,3.779450900495228996e-06,1.428424636495119167e-04,-7.187205613054004072e-01,7.592835896109384648e-03,1.428924549112771999e-04,7.187606669817812044e-01
4.480000000000000000e+09,3.464339985473593600e-06,1.414722417551433193e-04,-7.187288373322268109e-01,7.760133261390010119e-03,1.415146523818670344e-04,7.187707292879761400e-01
4.560000000000000000e+09,3.840354874586973609e-06,1.409124255283117333e-04,-7.187070367464124532e-01,7.927175912534792368e-03,1.409647473442731508e-04,7.187507528947413293e-01
4.640000000000000000e+09,3.728440992076209459e-06,1.415081130422130831e-04,-7.186995707609714623e-01,8.097949211481814819e-03,1.415572228075952092e-04,7.187451911445643660e-01
4.720000000000000000e+09,3.522958693545290548e-06,1.434026223800046775e-04,-7.187050565197182772e-01,8.272737029434960171e-03,1.434458899495508134e-04,7.187526670872043111e-01
4.800000000000000000e+09,3.463262740034145900e-06,1.463982357530967896e-04,-7.186829570661942279e-01,8.447617343793812142e-03,1.464391942767571150e-04,7.187326032789915775e-01
4.880000000000000000e+09,3.406006592786310283e-06,1.503749118225088761e-04,-7.186736699954560104e-01,8.626958814555501717e-03,1.504134800692325609e-04,7.187254471375877918e-01
4.960000000000000000e+09,3.442267429352216168e-06,1.549746094795464730e-04,-7.186636142618915146e-01,8.809654717744931293e-03,1.550128342699181759e-04,7.187176082998180116e-01
5.040000000000000000e+09,3.582631426882152288e-06,1.598551018066901737e-04,-7.186526813594577012e-01,8.996011946491758171e-03,1.598952432737389489e-04,7.187089846774421531e-01
5.120000000000000000e+09,3.820530768882723428e-06,1.647062421565109399e-04,-7.186407389050453176e-01,9.186379618752720660e-03,1.647505467689719155e-04,7.186994512203896956e-01
5.200000000000000000e+09,4.136174213162798722e-06,1.692866948926664578e-04,-7.186276231079795629e-01,9.381156259665728026e-03,1.693372168331710016e-04,7.186888525548400519e-01
5.280000000000000000e+09,4.502082254376699118e-06,1.734410199277720875e-04,-7.186131279780459957e-01,9.580799061640953712e-03,1.734994413195933101e-04,7.186769924055249614e-01
5.360000000000000000e+09,4.888744099028103150e-06,1.770988806546968893e-04,-7.185969894287922433e-01,9.785835600093086006e-03,1.771663437225376599e-04,7.186636179705466754e-01
5.440000000000000000e+09,5.269219949056521381e-06,1.802608462297781305e-04,-7.185788611170909057e-01,9.996878143072228384e-03,1.803378422914814672e-04,7.186483960998889531e-01
5.520000000000000000e+09,5.621951037730642860e-06,1.829763921552322284e-04,-7.185582765511339121e-01,1.021463964744398316e-02,1.830627390257667201e-04,7.186308758070883984e-01
5.600000000000000000e+09,5.931657745551287824e-06,1.853196128763570649e-04,-7.185345880313634970e-01,1.043994714234949307e-02,1.854145179867348143e-04,7.186104276266357394e-01
5.680000000000000000e+09,6.188629796365237652e-06,1.873670457416392330e-04,-7.185068677671271331e-01,1.067373797992711600e-02,1.874692213903551353e-04,7.185861449478357921e-01
5.760000000000000000e+09,6.387098725775828544e-06,1.891803715987738885e-04,-7.184737581643418913e-01,1.091699730695929599e-02,1.892881613529567061e-04,7.185566936581924136e-01
5.840000000000000954e+09,6.523451434185916214e-06,1.907950299432727202e-04,-7.184333061090534267e-01,1.117054871281012753e-02,1.909065186673009127e-04,7.185201434095846995e-01
5.920000000000000000e+09,6.594936805716713278e-06,1.922139643244664140e-04,-7.183829685808044152e-01,1.143464389825102692e-02,1.923270684869881925e-04,7.184739665624975125e-01
6.000000000000000000e+09,6.598680029390476581e-06,1.934043974537830136e-04,-7.183200151773054820e-01,1.170861009948959836e-02,1.935169334518071376e-04,7.184154339619842622e-01
6.080000000000000000e+09,6.529563733032785013e-06,1.942952222746780020e-04,-7.182420698838770656e-01,1.199095440260792775e-02,1.944049088920088734e-04,7.183421565929160035e-01
6.160000000000000000e+09,6.374671433323721761e-06,1.947738544994620199e-04,-7.181473273271581359e-01,1.227975135535897162e-02,1.948781435473471318e-04,7.182523066725855498e-01
6.239999999999999046e+09,6.102646206493048486e-06,1.946829977416219106e-04,-7.180344871638816295e-01,1.257292784800963410e-02,1.947786228013381955e-04,7.181445559714073612e-01
6.320000000000000000e+09,5.647333169945752579e-06,1.938184788158021725e-04,-7.179026332413389611e-01,1.286838635383321175e-02,1.939007351775746306e-04,7.180179567268495378e-01
6.400000000000000954e+09,4.885786560486795167e-06,1.919298302077518815e-04,-7.177511427592946358e-01,1.316404547256417625e-02,1.919920066927034805e-04,7.178718513951338753e-01
6.480000000000000000e+09,3.611396233558655550e-06,1.887257111567649257e-04,-7.175796285960692744e-01,1.345785021196050160e-02,1.887602612691093766e-04,7.177058151557643706e-01
6.560000000000000000e+09,1.503520670126211193e-06,1.838866863947344744e-04,-7.173879036135791809e-01,1.374777293085437287e-02,1.838928329425617463e-04,7.175196202973437298e-01
6.640000000000000000e+09,-1.904113578393218983e-06,1.770888153066352971e-04,-7.171759582685897083e-01,1.403181208157846041e-02,1.770990518191077406e-04,7.173132139231527260e-01
6.720000000000000000e+09,-7.253402413045167236e-06,1.680336025691315496e-04,-7.169439463540832058e-01,1.430799096763613401e-02,1.681900812739158479e-04,7.170867038366396384e-01
6.799999999999999046e+09,-1.538598327641236153e-05,1.565057767867894935e-04,-7.166921760111447659e-01,1.457435712890702700e-02,1.572602513320464515e-04,7.168403497580968509e-01
6.880000000000000000e+09,-2.735795338097251868e-05,1.424258735013570810e-04,-7.164211044166922671e-01,1.482898252072344623e-02,1.450296075145348772e-04,7.165745582814345704e-01
6.960000000000000954e+09,-4.443959532262747045e-05,1.259298590357519493e-04,-7.161313352869715931e-01,1.506996456154565019e-02,1.335410312570756370e-04,7.162898807129605139e-01
7.039999999999999046e+09,-6.809575902843497124e-05,1.074531240490094163e-04,-7.158236186823199176e-01,1.529542819247911925e-02,1.272132314877288505e-04,7.159870132809970089e-01
7.120000000000000000e+09,-9.994216817885623045e-05,8.782089142210543881e-05,-7.154988527818365585e-01,1.550352917399692651e-02,1.330449020085475208e-04,7.156667993898928604e-01
7.200000000000000000e+09,-1.416737901261870634e-04,6.833822580371574072e-05,-7.151580873400448235e-01,1.569245888970263389e-02,1.572945514463820629e-04,7.153302336360991553e-01
7.280000000000000000e+09,-1.949626801013628892e-04,5.087197682842703288e-05,-7.148025285521405481e-01,1.586045101951095299e-02,2.014904579843382489e-04,7.149784673198739116e-01
7.359999999999999046e+09,-2.613242052890930238e-04,3.791623549651354638e-05,-7.144335449414200845e-01,1.600579040567961034e-02,2.640605634777808087e-04,7.146128150712626192e-01
7.440000000000000000e+09,-3.419528313779173780e-04,3.263201589103566138e-05,-7.140526738670565088e-01,1.612682446572493919e-02,3.435063134041166106e-04,7.142347621924048928e-01
7.520000000000000000e+09,-4.375310342839232574e-04,3.885139474881074478e-05,-7.136616281196420664e-01,1.622197746841734858e-02,4.392525888773879351e-04,7.138459721840307859e-01
7.599999999999999046e+09,-5.480176223611060455e-04,6.103782910179384423e-05,-7.132623019780482965e-01,1.628976788935710546e-02,5.514063211460126139e-04,7.134482938243763561e-01
7.680000000000000000e+09,-6.724245768975608889e-04,1.041935545426600929e-04,-7.128567760199175929e-01,1.632882898311788580e-02,6.804491960639663488e-04,7.130437670812858064e-01
7.760000000000000954e+09,-8.085943682438702287e-04,1.737078140998076902e-04,-7.124473198921543737e-01,1.633793262507132402e-02,8.270424759557618369e-04,7.126346270452869058e-01
7.840000000000000000e+09,-9.529921532720610038e-04,2.751410715929136861e-04,-7.120363921782889571e-01,1.631601623843946872e-02,9.919156483670454969e-04,7.122233049909045821e-01
7.919999999999999046e+09,-1.100529409970225567e-03,4.139429852045319307e-04,-7.116266364652948928e-01,1.626221248667808483e-02,1.175803460281288782e-03,7.118124256304261266e-01
8.000000000000000000e+09,-1.244437174978516199e-03,5.951055320920638388e-04,-7.112208726997562014e-01,1.617588127916971819e-02,1.379410916585441845e-03,7.114047996035454124e-01
8.080000000000000000e+09,-1.376207649320137973e-03,8.227562621844193656e-04,-7.108220829584723788e-01,1.605664324034137072e-02,1.603394948542291327e-03,7.110034102685928170e-01
8.159999999999999046e+09,-1.485623160249693875e-03,1.099701114209176642e-03,-7.104333908529049113e-01,1.590441372366365597e-02,1.848355678667715869e-03,7.106113939521725431e-01
8.240000000000000000e+09,-1.560890017139434077e-03,1.426931481401956048e-03,-7.100580338451618623e-01,1.571943620127531221e-02,2.114831222159707907e-03,7.102320128680084110e-01
8.320000000000000954e+09,-1.588892933409977734e-03,1.803114894072854356e-03,-7.096993286663361156e-01,1.550231285943526847e-02,2.403290260261444974e-03,7.098686208119358021e-01
8.400000000000000000e+09,-1.555582491658293737e-03,2.224094603319884747e-03,-7.093606279633913880e-01,1.525403291984015093e-02,2.714117479563193241e-03,7.095246197454577741e-01
8.480000000000000000e+09,-1.446503528210920340e-03,2.682427738494577805e-03,-7.090452713633643711e-01,1.497599323706107557e-02,3.047587739405015986e-03,7.092034103246990240e-01
8.560000000000000000e+09,-1.247467393739222583e-03,3.166997342585266099e-03,-7.087565287595466446e-01,1.467001299972073812e-02,3.403828295667198859e-03,7.089083342299581370e-01
8.640000000000000000e+09,-9.453639779753290374e-04,3.662737110030696904e-03,-7.084975387398171343e-01,1.433833856856745435e-02,3.782770966903674283e-03,7.086426111611447975e-01
8.720000000000000000e+09,-5.291018427773996544e-04,4.150511238761381283e-03,-7.082712433147775322e-01,1.398363756289554109e-02,4.184099939427233204e-03,7.084092716969133674e-01
8.800000000000000000e+09,9.344731820045600328e-06,4.607193633664449783e-03,-7.080803211328522417e-01,1.360898093474885613e-02,4.607203110574898883e-03,7.082110882623100512e-01
8.880000000000000000e+09,6.738138339583412892e-04,5.005991139581495233e-03,-7.079271218035095847e-01,1.321781223825588270e-02,5.051135750739834882e-03,7.080505069169620302e-01
8.959999999999998093e+09,1.462804074518107237e-03,5.317053427517957204e-03,-7.078136041772485898e-01,1.281390401432966862e-02,5.514603604204678343e-03,7.079295829349662172e-01
9.040000000000000000e+09,2.368352436704640115e-03,5.508407052991199856e-03,-7.077412815119294986e-01,1.240130193194894336e-02,5.995968772924689487e-03,7.078499232505118810e-01
9.120000000000000000e+09,3.375017804474787688e-03,5.547241955342862609e-03,-7.077111764110735059e-01,1.198425804531615992e-02,6.493276406532985309e-03,7.078126388091995347e-01
9.200000000000000000e+09,4.459063545111271315e-03,5.401563811011254532e-03,-7.077237880467941444e-01,1.156715537004771033e-02,7.004294347310565175e-03,7.078183094909727968e-01
9.280000000000000000e+09,5.587949560327373950e-03,5.042203885736243341e-03,-7.077790736587591391e-01,1.115442656966019429e-02,7.526553016759834035e-03,7.078669637307204443e-01
9.360000000000000000e+09,6.720258622115856881e-03,4.445147930262095641e-03,-7.078764455811829004e-01,1.075047005572520725e-02,8.057370294955786688e-03,7.079580741930050491e-01
9.440000000000000000e+09,7.806190264821745439e-03,3.594106282418001869e-03,-7.080147841501900352e-01,1.035956714005358513e-02,8.593847009338387646e-03,7.080905699178385859e-01
9.520000000000000000e+09,8.788753649075308969e-03,2.483198870302447125e-03,-7.081924659354709162e-01,9.985803798809946702e-03,9.132823623261641932e-03,7.082628643980082295e-01
9.600000000000000000e+09,9.605772927097308914e-03,1.119572998811161702e-03,-7.084074058233440496e-01,9.633000443257495882e-03,9.670797135015429466e-03,7.084728980863698178e-01
9.680000000000000000e+09,1.019277934932469321e-02,-4.742874037308825413e-04,-7.086571106025064681e-01,9.304652513305256001e-03,1.020380808352243027e-02,7.087181929130128566e-01
9.760000000000000000e+09,1.048679791384534918e-02,-2.258856590439767015e-03,-7.089387411703715891e-01,9.003884084255680750e-03,1.072731856439456885e-02,7.089959158280347840e-01
9.840000000000000000e+09,1.043094034534332130e-02,-4.176800463480504454e-03,-7.092491800270883662e-01,8.733415644400615782e-03,1.123611047470796272e-02,7.093029479128893922e-01
9.920000000000000000e+09,9.979591564213970145e-03,-6.153492229068043169e-03,-7.095851005291625713e-01,8.495546558699678188e-03,1.172423619694397921e-02,7.096359554055253760e-01
1.000000000000000000e+10,9.103832363930631361e-03,-8.099116175709644705e-03,-7.099430346620068111e-01,8.292151539018211351e-03,1.218505012456626638e-02,7.099914592741559671e-01
1.008000000000000000e+10,7.796593778659897944e-03,-9.912567062280200694e-03,-7.103194362266954665e-01,8.124689882716990691e-03,1.261133856153424070e-02,7.103659001297153441e-01
1.016000000000000000e+10,6.076915578608524382e-03,-1.148718387617116490e-02,-7.107107371102714399e-01,7.994225457627358519e-03,1.299554909784506745e-02,7.107556960619398900e-01
1.024000000000000000e+10,3.992616685491959250e-03,-1.271812338048303875e-02,-7.111133948128360860e-01,7.901455076166821051e-03,1.333010316233367021e-02,7.111572915147232887e-01
1.032000000000000000e+10,1.620714828306556035e-03,-1.351089830020112126e-02,-7.115239302053060211e-01,7.846742646697249871e-03,1.360775842793626039e-02,7.115671961417057156e-01
1.040000000000000000e+10,-9.349156701067148304e-04,-1.379032331159291830e-02,-7.119389551899312218e-01,7.830156528781866826e-03,1.382197830805974650e-02,7.119820133038446963e-01
1.048000000000000000e+10,-3.548878004665894075e-03,-1.350888248325855800e-02,-7.123551905205023349e-01,7.851507745889864387e-03,1.396726319070745043e-02,7.123984584734760483e-01
1.056000000000000000e+10,-6.082419981642441312e-03,-1.265342107254762913e-02,-7.127694744584570641e-01,7.910386961343685366e-03,1.403940517515879678e-02,7.128133682400065174e-01
1.064000000000000000e+10,-8.393835153666824589e-03,-1.124912362956255289e-02,-7.131787633743302823e-01,8.006198737263112500e-03,1.403564216628920558e-02,7.132237010548370115e-01
1.072000000000000000e+10,-1.035008961654553666e-02,-9.359992311369424306e-03,-7.135801252925991767e-01,8.138191764120440014e-03,1.395470569877482227e-02,7.136265307412492653e-01
1.080000000000000000e+10,-1.183837934411062325e-02,-7.085461588612736172e-03,-7.139707275160384059e-01,8.305484277904166823e-03,1.379677467449445631e-02,7.140190339331800029e-01
1.088000000000000000e+10,-1.277623204581536907e-02,-4.553311570363758817e-03,-7.143478191658227949e-01,8.507083978964446319e-03,1.356336062874271761e-02,7.143984723001528536e-01
1.096000000000000000e+10,-1.311890713491321164e-02,-1.909571371119690199e-03,-7.147087093839444849e-01,8.741901911861426483e-03,1.325715607646966998e-02,7.147621703184214859e-01
1.104000000000000000e+10,-1.286319574496844198e-02,6.934678699352600246e-04,-7.150507417072806682e-01,9.008759528910810846e-03,1.288187495902699646e-02,7.151074890982347387e-01
1.112000000000000191e+10,-1.204721252539600260e-02,3.109767534239491447e-03,-7.153712651209208628e-01,9.306387956553753907e-03,1.244210527800935703e-02,7.154317967615814178e-01
1.120000000000000000e+10,-1.074630302049899358e-02,5.211197566187097951e-03,-7.156676023934539499e-01,9.633418137540100332e-03,1.194318251900305418e-02,7.157324359427952309e-01
1.128000000000000000e+10,-9.065665912129041229e-03,6.897133326743487905e-03,-7.159370166572800454e-01,9.988359995913740838e-03,1.139108188703839494e-02,7.160066893231755714e-01
1.135999999999999809e+10,-7.130633196419885501e-03,8.101127211710350273e-03,-7.161766778230964636e-01,1.036956862302008085e-02,1.079232096827180062e-02,7.162517447177039198e-01
1.143999999999999809e+10,-5.075727492158231199e-03,8.794198952137651307e-03,-7.163836311037441451e-01,1.077519448815261564e-02,1.015386353977784477e-02,7.164646618847596571e-01
1.152000000000000000e+10,-3.033626820108470921e-03,8.984695932545357783e-03,-7.165547716324522920e-01,1.120311577384492351e-02,9.483019175556830008e-03,7.166423449338434892e-01
1.160000000000000000e+10,-1.125046264600766850e-03,8.715021117187124466e-03,-7.166868301785671580e-01,1.165084954139147984e-02,8.787338742219378412e-03,7.167815251849327662e-01
1.168000000000000191e+10,5.496600872264990195e-04,8.055781616885384494e-03,-7.167763775048694441e-01,1.211544042389299178e-02,8.074511977230471385e-03,7.168787618877183743e-01
1.176000000000000000e+10,1.916617341359683376e-03,7.098065896269587817e-03,-7.168198571992191459e-01,1.259332637205059016e-02,7.352275940209674135e-03,7.169304705089761809e-01
1.184000000000000000e+10,2.932129687163430223e-03,5.923098208653567419e-03,-7.165755808588979425e-01,1.306711423457241825e-02,6.609120735143232325e-03,7.166947136387196160e-01
1.191999999999999809e+10,3.634066264567803461e-03,4.648362146347027012e-03,-7.167542509281228380e-01,1.357076089011351704e-02,5.900314250856621319e-03,7.168827113096473136e-01
1.200000000000000000e+10,3.884710409325663628e-03,3.465500718558753128e-03,-7.166383773736092477e-01,1.405870840209883649e-02,5.205830403946559194e-03,7.167762630044433037e-01
1.208000000000000000e+10,3.879235954745407708e-03,2.324169410871381250e-03,-7.164633548203326319e-01,1.453643979504069643e-02,4.522193609634569261e-03,7.166108057253397501e-01
1.216000000000000000e+10,3.626260715641561709e-03,1.342221327884440731e-03,-7.162274599605626957e-01,1.499504865724374941e-02,3.866694307911232049e-03,7.163844120901797785e-01
1.224000000000000191e+10,3.197444494207597396e-03,5.615223944546738483e-04,-7.159304179849032002e-01,1.542433714414127160e-02,3.246376240211936316e-03,7.160965532470983108e-01
1.232000000000000000e+10,2.667966442928476362e-03,-9.912248067757249703e-07,-7.155739642751847152e-01,1.581301302629829764e-02,2.667966627062460898e-03,7.157486637985943645e-01
1.239999999999999809e+10,2.123666338999418562e-03,-3.727672804129378552e-04,-7.150854997934859014e-01,1.614713174726254558e-02,2.156134078564143994e-03,7.152677833361174020e-01
1.247999999999999809e+10,1.597195574034075954e-03,-5.354421945824770985e-04,-7.146027266431211888e-01,1.638302057167769291e-02,1.684556928528490238e-03,7.147905009783183106e-01
1.256000000000000000e+10,1.140627393667761544e-03,-5.544513989662776254e-04,-7.142071348438717715e-01,1.661689513301285379e-02,1.268245719488527660e-03,7.144004147995394183e-01
1.264000000000000000e+10,7.578300539154505817e-04,-4.604223527654854875e-04,-7.136882978402889766e-01,1.672891894341960867e-02,8.867328422606212670e-04,7.138843346111360955e-01
1.272000000000000000e+10,4.963086953768287022e-04,-3.289366292400173466e-04,-7.131635657572408249e-01,1.675148493176406572e-02,5.954171874933023457e-04,7.133602762777035977e-01
1.280000000000000191e+10,3.258924115160937059e-04,-1.818943684187483527e-04,-7.126514494215084872e-01,1.668376891644890794e-02,3.732176645688549854e-04,7.128467131914366650e-01
1.288000000000000000e+10,2.271174564383048912e-04,-4.572874091074658007e-05,-7.121705456702759340e-01,1.653002632417563053e-02,2.316753261879380766e-04,7.123623571544025479e-01
