# Frequency, Real(S21), Imag(S21), Real(S11), Imag(S11), Amp(S21), Amp(S11)
4.000000000000000000e+09,3.793591293708733190e-05,1.405023984702803491e-04,-7.188499066751808941e-01,6.802326196424121792e-03,1.455336987308152768e-04,7.188820904491910468e-01
4.080000000000000000e+09,2.201975516033996476e-06,1.453649880170388559e-04,-7.187430671429516638e-01,6.949985066138522280e-03,1.453816647220929981e-04,7.187766682763688797e-01
4.160000000000000477e+09,2.092303013553908394e-06,1.463698975755716282e-04,-7.187535920830613323e-01,7.109160648936010615e-03,1.463848511567500074e-04,7.187887494232475527e-01
4.240000000000000000e+09,1.144355290786454658e-06,1.458984458311291671e-04,-7.187035146219387105e-01,7.267376462509675394e-03,1.459029336407273382e-04,7.187402567621874461e-01
4.320000000000000000e+09,3.536210128628089773e-06,1.445489342543673490e-04,-7.187266726814171003e-01,7.429808278528259036e-03,1.445921822788051960e-04,7.187650743287103960e-01
4.400000000000000000e+09,3.767094594186536541e-06,1.428587719889022134e-04,-7.187205233753204414e-01,7.593708681498769104e-03,1.429084312973125559e-04,7.187606382742686151e-01
4.480000000000000000e+09,3.452224677329305450e-06,1.414895980825765331e-04,-7.187287958882859762e-01,7.761054933142482425e-03,1.415317074750100236e-04,7.187706977977752487e-01
4.560000000000000000e+09,3.827545669436448712e-06,1.409307490566403848e-04,-7.187069911473650263e-01,7.928131881222625840e-03,1.409827157332322299e-04,7.187507178425804888e-01
4.640000000000000000e+09,3.714290175509446055e-06,1.415277634874702827e-04,-7.186995206728241659e-01,8.098950541725770738e-03,1.415764944800979822e-04,7.187451523420693711e-01
4.720000000000000000e+09,3.507303226608551161e-06,1.434231385590086123e-04,-7.187050032879090944e-01,8.273797008439600850e-03,1.434660163594150958e-04,7.187526260599054195e-01
4.800000000000000000e+09,3.446313353419235557e-06,1.464192627086763007e-04,-7.186828963646930690e-01,8.448718082590190789e-03,1.464598155395612996e-04,7.187325555200509974e-01
4.880000000000000000e+09,3.425088616199403238e-06,1.504430588659128997e-04,-7.186854308113397316e-01,8.629535030360345124e-03,1.504820427591324031e-04,7.187372380330110389e-01
4.960000000000000000e+09,3.425133913153441844e-06,1.549969686611155301e-04,-7.186635401718080018e-01,8.810868315840504270e-03,1.550348084671886422e-04,7.187175490919607279e-01
5.040000000000000000e+09,3.567121035274052723e-06,1.598779833198776183e-04,-7.186525992360778270e-01,8.997287869311953665e-03,1.599177723172485999e-04,7.187089185322345086e-01
5.120000000000000000e+09,3.807917190455002268e-06,1.647295597169934442e-04,-7.186406476394658904e-01,9.187722353280110624e-03,1.647735660774624143e-04,7.186993771262863984e-01
5.200000000000000000e+09,4.127682039492360828e-06,1.693103684122975936e-04,-7.186275213766324388e-01,9.382570795738480116e-03,1.693606761055443174e-04,7.186887692977116382e-01
5.280000000000000000e+09,4.498821197587209556e-06,1.734649675810930654e-04,-7.186130141828244167e-01,9.582290976767413732e-03,1.735232963324450175e-04,7.186768985109286412e-01
5.360000000000000000e+09,4.891683193437924948e-06,1.771230217386033268e-04,-7.185968616136585441e-01,9.787411164153120985e-03,1.771905567299756267e-04,7.186635116229956877e-01
5.440000000000000000e+09,5.279203810010590719e-06,1.802850934184393517e-04,-7.185787168490022081e-01,9.998544446119481469e-03,1.803623710804530057e-04,7.186482750270813957e-01
5.520000000000000000e+09,5.639741257249726094e-06,1.830006567873571966e-04,-7.185581127447148164e-01,1.021640475287739075e-02,1.830875393522257949e-04,7.186307371086495532e-01
5.600000000000000000e+09,5.957985478516037469e-06,1.853438152293702338e-04,-7.185344006826107632e-01,1.044182026185823918e-02,1.854395519697487412e-04,7.186102675127177264e-01
5.680000000000000000e+09,6.224244463189231063e-06,1.873911349526729739e-04,-7.185066515402726006e-01,1.067572964677136402e-02,1.874944763932752151e-04,7.185859583314342380e-01
5.760000000000000000e+09,6.432798449641941961e-06,1.892043668488643283e-04,-7.184735057555615700e-01,1.091911946242423229e-02,1.893136902882972883e-04,7.185564735234953870e-01
5.840000000000000954e+09,6.580099148338649476e-06,1.908190770928572212e-04,-7.184330073563320873e-01,1.117281450080052918e-02,1.909324956296642572e-04,7.185198799218660559e-01
5.920000000000000000e+09,6.663454604271502746e-06,1.922384474895668435e-04,-7.183826095441455672e-01,1.143706686871174757e-02,1.923538986359832868e-04,7.184736461374318095e-01
6.000000000000000000e+09,6.680050294327413921e-06,1.934301111224369049e-04,-7.183195777390358749e-01,1.171120286238916917e-02,1.935454235076950499e-04,7.184150388429175749e-01
6.080000000000000000e+09,6.624874284810193981e-06,1.943236274222577466e-04,-7.182415321219001170e-01,1.199372732371459249e-02,1.944365221192612711e-04,7.183416651983441925e-01
6.160000000000000000e+09,6.485261384240799691e-06,1.948074318217126854e-04,-7.181466642806415557e-01,1.228271172844607080e-02,1.949153511352893966e-04,7.182516943417652788e-01
6.239999999999999046e+09,6.230424583712140002e-06,1.947256818481408319e-04,-7.180336716015227605e-01,1.257607947282083846e-02,1.948253303903696367e-04,7.181437957181486809e-01
6.320000000000000000e+09,5.795343349490208285e-06,1.938761418092922804e-04,-7.179016363240001697e-01,1.287172931724440104e-02,1.939627396367541844e-04,7.180170198904016754e-01
6.400000000000000954e+09,5.059105417406181986e-06,1.920107223108787249e-04,-7.177499346149172066e-01,1.316757602935335336e-02,1.920773594934338253e-04,7.178707082046228427e-01
6.480000000000000000e+09,3.818410265893289429e-06,1.888407687379317786e-04,-7.175781788390988014e-01,1.346156072010598961e-02,1.888793694252808176e-04,7.177044352399243321e-01
6.560000000000000000e+09,1.757627050711000716e-06,1.840495316828924684e-04,-7.173861818342757157e-01,1.375165182489261444e-02,1.840579239411914891e-04,7.175179731649051762e-01
6.640000000000000000e+09,-1.582423479681483347e-06,1.773143226576170451e-04,-7.171739345007188682e-01,1.403584388476294964e-02,1.773213836050197706e-04,7.173112694226955188e-01
6.720000000000000000e+09,-6.833997974986741482e-06,1.683405265109799199e-04,-7.169415915307472131e-01,1.431215633886098390e-02,1.684791868282728205e-04,7.170844326058882778e-01
6.799999999999999046e+09,-1.482660101062178710e-05,1.569089061610857386e-04,-7.166894624066200148e-01,1.457863295069094199e-02,1.576078453954516247e-04,7.168377236609420056e-01
6.880000000000000000e+09,-2.660149746211399420e-05,1.429366146931431759e-04,-7.164180060779226089e-01,1.483334202746193486e-02,1.453909057924976638e-04,7.165715508366000686e-01
6.960000000000000954e+09,-4.341193620700941301e-05,1.265506855255800543e-04,-7.161278284476013667e-01,1.507437750346168545e-02,1.337896565965983429e-04,7.162864675073751242e-01
7.039999999999999046e+09,-6.670430241789197475e-05,1.081715439733782691e-04,-7.158196821603890481e-01,1.529986105113863813e-02,1.270848019498873748e-04,7.159831723695638805e-01
7.120000000000000000e+09,-9.807574616748656162e-05,8.860197244640393387e-05,-7.154944683528443594e-01,1.550794540506426206e-02,1.321709556131852117e-04,7.156625116730691571e-01
7.200000000000000000e+09,-1.392044530370206625e-04,6.911592839270553159e-05,-7.151532400839406556e-01,1.569681921972626223e-02,1.554184393916040153e-04,7.153254832145820030e-01
7.280000000000000000e+09,-1.917500242508251966e-04,5.153940514992085085e-05,-7.147972071653628801e-01,1.586471377052737358e-02,1.985557404947027452e-04,7.149732418170791082e-01
7.359999999999999046e+09,-2.572228567408382511e-04,3.831539536054039607e-05,-7.144277420116267319e-01,1.600991185839220968e-02,2.600608920071457194e-04,7.146071059215300947e-01
7.440000000000000000e+09,-3.368236332559914649e-04,3.254395231733236320e-05,-7.140463861012623648e-01,1.613075925473371822e-02,3.383921818721577100e-04,7.142285648855044577e-01
7.520000000000000000e+09,-4.312563430563909990e-04,3.798780088279987135e-05,-7.136548565237712527e-01,1.622567899317184370e-02,4.329262136233874071e-04,7.138392864635246804e-01
7.599999999999999046e+09,-5.405209311433098723e-04,5.903497637638525052e-05,-7.132550519838336545e-01,1.629318874215963941e-02,5.437352346866911393e-04,7.134411238356315188e-01
7.680000000000000000e+09,-6.636943514666386081e-04,1.006103648749544699e-04,-7.128490575483344971e-01,1.633192139253891381e-02,6.712768711113123715e-04,7.130361214580371865e-01
7.760000000000000954e+09,-7.987115995325162060e-04,1.680294692395325248e-04,-7.124391473661223495e-01,1.634064887691842952e-02,8.161949042726924369e-04,7.126265189462753780e-01
7.840000000000000000e+09,-9.421606829705555901e-04,2.667898209332292964e-04,-7.120277844829623337e-01,1.631830907524845636e-02,9.792055765206447281e-04,7.122147520845037993e-01
7.919999999999999046e+09,-1.089107545972178674e-03,4.022977862272617087e-04,-7.116176168548293823e-01,1.626403548655050088e-02,1.161033485949865751e-03,7.118034500256756880e-01
8.000000000000000000e+09,-1.232968584200363300e-03,5.795317498558797461e-04,-7.112114686748461923e-01,1.617718918773499229e-02,1.362376078297056117e-03,7.113954277507323898e-01
8.080000000000000000e+09,-1.365448907858310672e-03,8.026465414361744991e-04,-7.108123261187105912e-01,1.605739224570442575e-02,1.583885156964009869e-03,7.109936728326241573e-01
8.159999999999999046e+09,-1.476564816710781991e-03,1.074527908464467749e-03,-7.104233167465211496e-01,1.590456167308260116e-02,1.826158230826991670e-03,7.106013256806806844e-01
8.240000000000000000e+09,-1.554767577574825074e-03,1.396310864612766581e-03,-7.100476819224964542e-01,1.571894266079609109e-02,2.089733535863733463e-03,7.102216525577660367e-01
8.320000000000000954e+09,-1.587183857888295815e-03,1.766880597331271004e-03,-7.096887418510012813e-01,1.550113964058992717e-02,2.375083081487231514e-03,7.098580109009224870e-01
8.400000000000000000e+09,-1.559985032693598324e-03,2.182379762649640838e-03,-7.093498531282662611e-01,1.525214352830069064e-02,2.682598503438550410e-03,7.095138067827156947e-01
8.480000000000000000e+09,-1.458893586074303406e-03,2.635751012449913909e-03,-7.090343590519543326e-01,1.497335334695091766e-02,3.012565998467002255e-03,7.091924447050097502e-01
8.560000000000000000e+09,-1.269829748900992749e-03,3.116348250999736308e-03,-7.087455334181174127e-01,1.466659042455841291e-02,3.365129122738542543e-03,7.088972704241521816e-01
8.640000000000000000e+09,-9.796952751884467278e-04,3.609654250188385101e-03,-7.084865189800361174e-01,1.433410337584853887e-02,3.740241521363244729e-03,7.086315079757874447e-01
8.720000000000000000e+09,-5.772839204892846708e-04,4.097145525799202742e-03,-7.082602622675874260e-01,1.397856230661041754e-02,4.137615035794402034e-03,7.083981926229847570e-01
8.800000000000000000e+09,-5.429926394392970389e-05,4.556347488903870167e-03,-7.080694468885220250e-01,1.360304100038649960e-02,4.556671027154084522e-03,7.082001019072756698e-01
8.880000000000000000e+09,5.935497924177626653e-04,4.961123559441843120e-03,-7.079164279167776685e-01,1.321098638600576129e-02,4.996503610338740714e-03,7.080396875004546509e-01
8.959999999999998093e+09,1.365417864553485940e-03,5.282240465121251088e-03,-7.078031701684375232e-01,1.280617513237338433e-02,5.455862010370696180e-03,7.079190107787832753e-01
9.040000000000000000e+09,2.254212469733612480e-03,5.488247436977868737e-03,-7.077311933287590007e-01,1.239265804458102721e-02,5.933155466376779930e-03,7.078396852282012874e-01
9.120000000000000000e+09,3.245576083815357015e-03,5.546698801395938405e-03,-7.077015267611853622e-01,1.197469358270594579e-02,6.426478951124119793e-03,7.078028286652381373e-01
9.200000000000000000e+09,4.317050263206835894e-03,5.425735792974089276e-03,-7.077146765297646080e-01,1.155667269913349116e-02,6.933652130747141630e-03,7.078090279584630107e-01
9.280000000000000000e+09,5.437528350128303586e-03,5.096023092413269617e-03,-7.077706066082359859e-01,1.114303775573018303e-02,7.452259114983746623e-03,7.078583183582827232e-01
9.360000000000000000e+09,6.567118259380829576e-03,4.533007123863875241e-03,-7.078687355318696861e-01,1.073819880598043779e-02,7.979673916752095739e-03,7.079501787958563108e-01
9.440000000000000000e+09,7.657546464792731530e-03,3.719425602622380110e-03,-7.080079488510716557e-01,1.034645085452531692e-02,8.513057304746780851e-03,7.080835435748996654e-01
9.520000000000000000e+09,8.653234353518153218e-03,2.647950869112133867e-03,-7.081866268612474480e-01,9.971895624744965547e-03,9.049315365381982099e-03,7.082568299476275087e-01
9.600000000000000000e+09,9.493163010827650183e-03,1.323794978106814608e-03,-7.084026861149950172e-01,9.618371208422547142e-03,9.585018366920697655e-03,7.084679800524813498e-01
9.680000000000000000e+09,1.011360672729381092e-02,-2.329536635079322354e-04,-7.086536324722608748e-01,9.289392396323460643e-03,1.011628926255593065e-02,7.087145148980814602e-01
9.760000000000000000e+09,1.045175368562793056e-02,-1.985547710344993597e-03,-7.089366227533012710e-01,8.988103875345885077e-03,1.063868200554435491e-02,7.089935973562319083e-01
9.840000000000000000e+09,1.049721472243487531e-02,-4.215266140437657662e-03,-7.092485317806944689e-01,8.717247447124541401e-03,1.131193995579996350e-02,7.093021008259634552e-01
9.920000000000000000e+09,1.006171063861738962e-02,-5.843797217306179528e-03,-7.095860212793354549e-01,8.479143774979918530e-03,1.163563435710583856e-02,7.096366799103569489e-01
1.000000000000000000e+10,9.255155107621579336e-03,-7.790959347766572562e-03,-7.099456074501532266e-01,8.275688033624569936e-03,1.209780738913813006e-02,7.099938397973583060e-01
1.008000000000000000e+10,8.008961940923299549e-03,-9.628446929847789618e-03,-7.103330815600193970e-01,8.033367560188003215e-03,1.252399543484638937e-02,7.103785059761522636e-01
1.016000000000000000e+10,6.371305624858034089e-03,-1.123308798001765654e-02,-7.107167794776206859e-01,7.978234277904236796e-03,1.291417054758704948e-02,7.107615583676666349e-01
1.024000000000000000e+10,4.351858713074360958e-03,-1.251850335801271003e-02,-7.111212036044467499e-01,7.886025414951512019e-03,1.325336185966174800e-02,7.111649285592493985e-01
1.032000000000000000e+10,2.033610100975498727e-03,-1.338321065556593095e-02,-7.115334874353939076e-01,7.832103602650446889e-03,1.353683484031784588e-02,7.115765915126891494e-01
1.040000000000000000e+10,-4.845832620237156777e-04,-1.374951020453340535e-02,-7.119502111220075147e-01,7.816540248073752806e-03,1.375804680186841836e-02,7.119931189401488281e-01
1.048000000000000000e+10,-3.081727534286340248e-03,-1.356582795035039639e-02,-7.123680629967459321e-01,7.839144035145764050e-03,1.391146047595602508e-02,7.124111940143413868e-01
1.056000000000000000e+10,-5.622349836618947307e-03,-1.281357388110518879e-02,-7.127838494570304384e-01,7.899497873410901011e-03,1.399280148118560961e-02,7.128276215982617403e-01
1.064000000000000000e+10,-7.966442532300201107e-03,-1.151146709827130521e-02,-7.131944967339146624e-01,7.996993369810643029e-03,1.399921717007863303e-02,7.132393301511762429e-01
1.072000000000000000e+10,-9.980754004289788678e-03,-9.716520970569731547e-03,-7.135970455526696732e-01,8.130861685266398825e-03,1.392932985701997133e-02,7.136433663485171053e-01
1.080000000000000000e+10,-1.155018958914798624e-02,-7.521276855297652497e-03,-7.139886396622686648e-01,8.300199789280175364e-03,1.378319574987233072e-02,7.140368834194202874e-01
1.088000000000000000e+10,-1.258797361794072520e-02,-5.047378096453878672e-03,-7.143665089970699933e-01,8.503991484416344518e-03,1.356219397643810762e-02,7.144171239883797542e-01
1.096000000000000000e+10,-1.304333314892362414e-02,-2.436094759261281210e-03,-7.147279481958855873e-01,8.741122482874402397e-03,1.326887701766468752e-02,7.147813981592981980e-01
1.104000000000000000e+10,-1.290578015516071625e-02,1.631607919012852993e-04,-7.150702909502458793e-01,9.010388716420160427e-03,1.290681149073441732e-02,7.151270573153348797e-01
1.112000000000000191e+10,-1.220553026192615007e-02,2.605027459204878326e-03,-7.153908806921348562e-01,9.310496790802470085e-03,1.248043016237847767e-02,7.154514641315369294e-01
1.120000000000000000e+10,-1.101010959435710923e-02,4.759750261881849631e-03,-7.156870382969775513e-01,9.640055174568376919e-03,1.199490457799639274e-02,7.157519594454967438e-01
1.128000000000000000e+10,-9.417670077848494525e-03,6.522903951898730013e-03,-7.159560277725401933e-01,9.997554258775633376e-03,1.145603708360351525e-02,7.160258269050017166e-01
1.135999999999999809e+10,-7.547882608337906640e-03,7.822399995738790746e-03,-7.161950215667964859e-01,1.038133310642961812e-02,1.087016437606092879e-02,7.162702569520326135e-01
1.143999999999999809e+10,-5.531467928999418172e-03,8.622279178343773831e-03,-7.164010679246343161e-01,1.078953029488911690e-02,1.024406343590519158e-02,7.164823124736163784e-01
1.152000000000000000e+10,-3.499455802258826485e-03,8.923185257599218143e-03,-7.165710640585987168e-01,1.122001630575736146e-02,9.584853992283814961e-03,7.166588997647164172e-01
1.160000000000000000e+10,-1.573162852830406900e-03,8.759756155479202916e-03,-7.167017403480652193e-01,1.167030477386996230e-02,8.899897149123762313e-03,7.167967498750678068e-01
1.168000000000000191e+10,1.443073370445318096e-04,8.195425541295535410e-03,-7.167896629519900920e-01,1.213744093736603309e-02,8.196695944735543637e-03,7.168924175825377443e-01
1.176000000000000000e+10,1.574466578524209067e-03,7.315288201571843937e-03,-7.168312645882255474e-01,1.261786676829733909e-02,7.482806056483486991e-03,7.169423076182190879e-01
1.184000000000000000e+10,2.667404085129186208e-03,6.217759647797235778e-03,-7.168229159388230798e-01,1.310726524785481642e-02,6.765765262787312717e-03,7.169427405430049971e-01
1.191999999999999809e+10,3.403178591112532812e-03,5.005770524148018923e-03,-7.167610527388723618e-01,1.360039059678844718e-02,6.053045767498856089e-03,7.168900734057640500e-01
1.200000000000000000e+10,3.798447579109573598e-03,3.678805067031265790e-03,-7.166775406080331257e-01,1.412063092400099584e-02,5.287892844267770912e-03,7.168166358488555767e-01
1.208000000000000000e+10,3.864278481244234204e-03,2.622223021584355745e-03,-7.164641369243959224e-01,1.457119750591054190e-02,4.669978774634230868e-03,7.166122935699441587e-01
1.216000000000000000e+10,3.678291740307781423e-03,1.607072505853666001e-03,-7.162245314238382399e-01,1.503236322798071067e-02,4.014039382702569783e-03,7.163822662221019932e-01
1.224000000000000191e+10,3.300284417271306600e-03,7.798302753300307127e-04,-7.159231810925573702e-01,1.546415334932466773e-02,3.391166833584734804e-03,7.160901767686093100e-01
1.232000000000000000e+10,2.842136394107899408e-03,-4.855818561565596134e-04,-7.155617014879096516e-01,1.585519306394296904e-02,2.883319098147324542e-03,7.157373371449663457e-01
1.239999999999999809e+10,2.326586627073660637e-03,-2.888108444509497261e-04,-7.149801470210362941e-01,1.607216735332380950e-02,2.344443865216325543e-03,7.151607687769624411e-01
1.247999999999999809e+10,1.725575867642168641e-03,-4.585816897251465771e-04,-7.146782488443841341e-01,1.646660008411203122e-02,1.785471713900893325e-03,7.148679236681455551e-01
1.256000000000000000e+10,1.271547826084485581e-03,-5.595954902380072780e-04,-7.139938339112346100e-01,1.659354051414456410e-02,1.389237555897081602e-03,7.141866285853146756e-01
1.264000000000000000e+10,8.669671354846254265e-04,-4.729443888888902646e-04,-7.136465475452281604e-01,1.677540015682803254e-02,9.875770395224377392e-04,7.138436865824655531e-01
1.272000000000000000e+10,5.792360710637852904e-04,-3.597327389080474101e-04,-7.131119725127301745e-01,1.679618871482667364e-02,6.818519410133668662e-04,7.133097484938369925e-01
1.280000000000000191e+10,3.837792753558894564e-04,-2.203310793940392912e-04,-7.125893468552745302e-01,1.672475333687185178e-02,4.425294529628893015e-04,7.127855881159536056e-01
1.288000000000000000e+10,2.642543754545683765e-04,-8.379402537811913914e-05,-7.120976975028040501e-01,1.656497589718703908e-02,2.772215966261518789e-04,7.122903405320538672e-01
