# Frequency, Real(S21), Imag(S21), Real(S11), Imag(S11), Amp(S21), Amp(S11)
4.000000000000000000e+09,3.793422302105203798e-05,1.405026619386512757e-04,-7.188499070848239914e-01,6.802398135200722444e-03,1.455335125943775249e-04,7.188820915395305322e-01
4.080000000000000000e+09,2.199809614637792548e-06,1.453663053526865940e-04,-7.187430643917930295e-01,6.950060179149990941e-03,1.453829491179456390e-04,7.187766662516243965e-01
4.160000000000000477e+09,2.090439836410750851e-06,1.463712618523380559e-04,-7.187535889526318611e-01,7.109239739969917642e-03,1.463861886755555978e-04,7.187887470752233332e-01
4.240000000000000000e+09,1.142758897494738994e-06,1.458997982456254768e-04,-7.187035114573724348e-01,7.267457913421311415e-03,1.459042735015394544e-04,7.187402544213596922e-01
4.320000000000000000e+09,3.534846025759817358e-06,1.445504829742889430e-04,-7.187266690949121184e-01,7.429893959646331932e-03,1.445936971811912126e-04,7.187650716280798990e-01
4.400000000000000000e+09,3.765857713480576890e-06,1.428604191537940821e-04,-7.187205194506880446e-01,7.593798279424661922e-03,1.429100452911408181e-04,7.187606352964632794e-01
4.480000000000000000e+09,2.990746530166812325e-05,1.417911064991784521e-04,-7.187287915904001512e-01,7.761149522149563343e-03,1.449109187157125484e-04,7.187706945214877852e-01
4.560000000000000000e+09,3.826262954647104565e-06,1.409326052404549204e-04,-7.187069864328677893e-01,7.928230005124757909e-03,1.409845364146721251e-04,7.187507142107258939e-01
4.640000000000000000e+09,3.712892617822705592e-06,1.415293710785292254e-04,-7.186995154961421939e-01,8.099053314930899222e-03,1.415780648599051313e-04,7.187451483237905503e-01
4.720000000000000000e+09,3.505734862130218393e-06,1.434252204818634285e-04,-7.187049977700487036e-01,8.273905768734195892e-03,1.434680593274847678e-04,7.187526217943942530e-01
4.800000000000000000e+09,3.444614864708228964e-06,1.464213993175631054e-04,-7.186828900956456767e-01,8.448831044507195201e-03,1.464619116005230878e-04,7.187325505793156211e-01
4.880000000000000000e+09,3.423332619857346169e-06,1.504453052498957544e-04,-7.186854241986497804e-01,8.629654797970827060e-03,1.504842486041661884e-04,7.187372328588003123e-01
4.960000000000000000e+09,3.423416148332619927e-06,1.549992448674072053e-04,-7.186635325253094564e-01,8.810992845255209704e-03,1.550370461779736219e-04,7.187175429726727627e-01
5.040000000000000000e+09,3.565565539422186885e-06,1.598803150903148091e-04,-7.186525907633208865e-01,8.997418786970532226e-03,1.599200688187516416e-04,7.187089116990698079e-01
5.120000000000000000e+09,3.806651437114811327e-06,1.647319386510615459e-04,-7.186406382265492221e-01,9.187860119304093465e-03,1.647759151299145084e-04,7.186993694753278650e-01
5.200000000000000000e+09,4.126828762001417898e-06,1.693127867787336022e-04,-7.186275108876154505e-01,9.382715921954666929e-03,1.693630729598745628e-04,7.186887607042439230e-01
5.280000000000000000e+09,4.498491464950541809e-06,1.734674178055070268e-04,-7.186130024536208083e-01,9.582444035256119930e-03,1.735257371849218604e-04,7.186768888235494090e-01
5.360000000000000000e+09,4.891973995518471120e-06,1.771254959709169874e-04,-7.185968484433329362e-01,9.787572798129855201e-03,1.771930380475377452e-04,7.186635006551878035e-01
5.440000000000000000e+09,5.280199660920628997e-06,1.802875836246144604e-04,-7.185787019877596382e-01,9.998715383010465391e-03,1.803648893705799450e-04,7.186482625455403728e-01
5.520000000000000000e+09,5.641518252376121421e-06,1.830031541389469363e-04,-7.185580958757781245e-01,1.021658582001738931e-02,1.830900902643151302e-04,7.186307228155791593e-01
5.600000000000000000e+09,5.960616597212751923e-06,1.853463124362000913e-04,-7.185343813949234271e-01,1.044201240461147331e-02,1.854421324400592358e-04,7.186102510190370829e-01
5.680000000000000000e+09,6.227804329062748030e-06,1.873936266633388420e-04,-7.185066292861408410e-01,1.067593394618612281e-02,1.874970849394728923e-04,7.185859391149781450e-01
5.760000000000000000e+09,6.437366748946708033e-06,1.892068548482319734e-04,-7.184734797852895261e-01,1.091933714445889048e-02,1.893163321328098360e-04,7.185564508641316683e-01
5.840000000000000954e+09,6.585761683322680307e-06,1.908215757490399505e-04,-7.184329766268509054e-01,1.117304691519320492e-02,1.909351880306406866e-04,7.185198528101268689e-01
5.920000000000000000e+09,6.670303078522294758e-06,1.922409948994302173e-04,-7.183825726243491250e-01,1.143731540770548047e-02,1.923566818779168415e-04,7.184736131787399227e-01
6.000000000000000000e+09,6.688182254752100012e-06,1.934327860441057009e-04,-7.183195327682517783e-01,1.171146882263628120e-02,1.935483776699188684e-04,7.184149982136948109e-01
6.080000000000000000e+09,6.634397471894894750e-06,1.943265746205232651e-04,-7.182414768475507971e-01,1.199401177227771460e-02,1.944397923100127368e-04,7.183416146810265301e-01
6.160000000000000000e+09,6.496308216425252159e-06,1.948108972992851806e-04,-7.181465961362182293e-01,1.228301541782597650e-02,1.949191825526554959e-04,7.182516314007167946e-01
6.239999999999999046e+09,6.243183488899111105e-06,1.947300565057559127e-04,-7.180335877850331228e-01,1.257640279578555939e-02,1.948301112426181205e-04,7.181437175765924552e-01
6.320000000000000000e+09,5.810114968387681633e-06,1.938820069900066753e-04,-7.179015338658870649e-01,1.287207228581081428e-02,1.939690441034828548e-04,7.180169235971562980e-01
6.400000000000000954e+09,5.076390991016713910e-06,1.920188977180804996e-04,-7.177498104367650011e-01,1.316793825949841984e-02,1.920859881052242035e-04,7.178705906916775792e-01
6.480000000000000000e+09,3.839038435460328299e-06,1.888523396818695603e-04,-7.175780298075941088e-01,1.346194142548040422e-02,1.888913561268095245e-04,7.177042933754065324e-01
6.560000000000000000e+09,1.782921405980679441e-06,1.840658510018852462e-04,-7.173860048114490962e-01,1.375204981320548442e-02,1.840744857762425548e-04,7.175178038023846128e-01
6.640000000000000000e+09,-1.550435369596179364e-06,1.773369629861323209e-04,-7.171737263922702832e-01,1.403625755778063755e-02,1.773437404899878757e-04,7.173110694486760641e-01
6.720000000000000000e+09,-6.792342472450299735e-06,1.683711642465017934e-04,-7.169413493338274712e-01,1.431258369755518921e-02,1.685081151339173130e-04,7.170841989869172206e-01
6.799999999999999046e+09,-1.477109700073552618e-05,1.569491132075952666e-04,-7.166891832555504216e-01,1.457907160291654208e-02,1.576426637787362874e-04,7.168374534888023453e-01
6.880000000000000000e+09,-2.652649896789258067e-05,1.429875358639558745e-04,-7.164176872895980930e-01,1.483378920068077235e-02,1.454272689695425497e-04,7.165712413734077746e-01
6.960000000000000954e+09,-4.331011095548057918e-05,1.266126000210014853e-04,-7.161274675647406607e-01,1.507483006165359976e-02,1.338152315510238979e-04,7.162861162287570416e-01
7.039999999999999046e+09,-6.656649001686923005e-05,1.082432262261475022e-04,-7.158192769935763922e-01,1.530031551584729553e-02,1.270735756048868689e-04,7.159827770068851738e-01
7.120000000000000000e+09,-9.789094226122284988e-05,8.868002744827123364e-05,-7.154940170204728833e-01,1.550839797951718627e-02,1.320862742491293288e-04,7.156620702538201151e-01
7.200000000000000000e+09,-1.389599850964735731e-04,6.919387642815162361e-05,-7.151527410485658542e-01,1.569726582116532515e-02,1.552342423345006632e-04,7.153249940995614065e-01
7.280000000000000000e+09,-1.914319744434459544e-04,5.160673851126176760e-05,-7.147966592678025588e-01,1.586515006196495894e-02,1.982661249409134387e-04,7.149727037355340098e-01
7.359999999999999046e+09,-2.575673068805379041e-04,4.125678125892488952e-05,-7.143664779605088944e-01,1.628850771265551514e-02,2.608506077691596231e-04,7.145521536719398048e-01
7.440000000000000000e+09,-3.363157128384100525e-04,3.253741597154477007e-05,-7.140457386596273937e-01,1.613116109128821113e-02,3.378859898547337238e-04,7.142279266845604768e-01
7.520000000000000000e+09,-4.306348071143182481e-04,3.790514244062225544e-05,-7.136541592872919226e-01,1.622605637796212946e-02,4.322998229491078147e-04,7.138385979853094643e-01
7.599999999999999046e+09,-5.397780390949436262e-04,5.884033186526161589e-05,-7.132543055567318602e-01,1.629353673029803815e-02,5.429756128438888206e-04,7.134403855504658498e-01
7.680000000000000000e+09,-6.628287236062362000e-04,1.002602131649465425e-04,-7.128482630142608523e-01,1.633223499559627312e-02,6.703685756219132695e-04,7.130353343154882673e-01
7.760000000000000954e+09,-7.977309305597242960e-04,1.674729703742936122e-04,-7.124383062879894313e-01,1.634092311514093870e-02,8.151207477286250176e-04,7.126256843776780370e-01
7.840000000000000000e+09,-9.410847290972658690e-04,2.659698650907815765e-04,-7.120268989031275364e-01,1.631853901994858094e-02,9.779470519800561711e-04,7.122138720056989669e-01
7.919999999999999046e+09,-1.087971248120685099e-03,4.011529000465484645e-04,-7.116166892854548509e-01,1.626421630002701513e-02,1.159571078439367497e-03,7.118025268299105202e-01
8.000000000000000000e+09,-1.231825119873049615e-03,5.779989998800365465e-04,-7.112105020900256758e-01,1.617731616346025289e-02,1.360689519990719749e-03,7.113944643033138782e-01
8.080000000000000000e+09,-1.364372427770723121e-03,8.006655318930515136e-04,-7.108113239356291801e-01,1.605746084078222072e-02,1.581953670504468445e-03,7.109926724543476073e-01
8.159999999999999046e+09,-1.475652551202359837e-03,1.072045925060583242e-03,-7.104222828130486445e-01,1.590456753626304925e-02,1.823960777349401983e-03,7.106002921374426906e-01
8.240000000000000000e+09,-1.554140962902792952e-03,1.393289131747196732e-03,-7.100466205011325416e-01,1.571888165611377147e-02,2.087249083654674122e-03,7.102205900462181809e-01
8.320000000000000954e+09,-1.586988297856244340e-03,1.763301550422482870e-03,-7.096876576080256571e-01,1.550100786382207878e-02,2.372290921294222758e-03,7.098569240388942214e-01
8.400000000000000000e+09,-1.560387892803041885e-03,2.178255089396235241e-03,-7.093487511267831946e-01,1.525193732209806537e-02,2.679478607954711641e-03,7.095127006031705097e-01
8.480000000000000000e+09,-1.460080032085053032e-03,2.631130140921071874e-03,-7.090332447518945536e-01,1.497306931382523520e-02,3.009099453085063713e-03,7.091913246565249018e-01
8.560000000000000000e+09,-1.271996078904952948e-03,3.111326781676598211e-03,-7.087444126854844928e-01,1.466622543971682693e-02,3.361298613204074300e-03,7.088961423802085937e-01
8.640000000000000000e+09,-9.830394816769958202e-04,3.604381724788844645e-03,-7.084853981042945614e-01,1.433365460639615847e-02,3.736031884302860873e-03,7.086303782518613703e-01
8.720000000000000000e+09,-5.819933300686207060e-04,4.091831747975995144e-03,-7.082591479846598315e-01,1.397802723754882140e-02,4.133013826493767140e-03,7.083970679988801367e-01
8.800000000000000000e+09,-6.053529747685729070e-05,4.551266530242199966e-03,-7.080683464201097399e-01,1.360241747211540439e-02,4.551669095128015215e-03,7.081989896654712346e-01
8.880000000000000000e+09,5.856694806919307376e-04,4.956614454415368860e-03,-7.079153490012044525e-01,1.321027265305912968e-02,4.991095630253273262e-03,7.080385954558305883e-01
8.959999999999998093e+09,1.355839322955903516e-03,5.278703571349899724e-03,-7.078021211018170611e-01,1.280536993494468465e-02,5.450046941435983047e-03,7.079179473183330185e-01
9.040000000000000000e+09,2.242966574258927620e-03,5.486135435533755385e-03,-7.077301829939058875e-01,1.239176070862900436e-02,5.926936904528508354e-03,7.078386593384451420e-01
9.120000000000000000e+09,3.232799599467163151e-03,5.546501460126829555e-03,-7.077005646497348534e-01,1.197370413962407266e-02,6.419865395590790454e-03,7.078018499526381735e-01
9.200000000000000000e+09,4.303005194808877734e-03,5.427957801139399359e-03,-7.077137727396614064e-01,1.155559202997456965e-02,6.926657173377519933e-03,7.078081066451332726e-01
9.280000000000000000e+09,5.441006406590347295e-03,5.112707291198384171e-03,-7.077658055203681631e-01,1.111382825590579923e-02,7.466212330360710858e-03,7.078530586515802137e-01
9.360000000000000000e+09,6.551894850131468641e-03,4.541487744030763517e-03,-7.078679809284829094e-01,1.073694256635617655e-02,7.971978239832375537e-03,7.079494052257125913e-01
9.440000000000000000e+09,7.642714732363092150e-03,3.731601468270109509e-03,-7.080072860356180220e-01,1.034511284700743994e-02,8.505053674038483280e-03,7.080828612806122635e-01
9.520000000000000000e+09,8.639639156125032346e-03,2.664028354810532660e-03,-7.081860676844338176e-01,9.970481889999920772e-03,9.041040417080512676e-03,7.082562509229693992e-01
9.600000000000000000e+09,9.481765567064790595e-03,1.343792522247983477e-03,-7.084022424740284984e-01,9.616889531293743368e-03,9.576515891054798377e-03,7.084675163382505581e-01
9.680000000000000000e+09,1.010544487704492095e-02,-2.092512339123223791e-04,-7.086533160502008766e-01,9.287852446783298813e-03,1.010761110460267273e-02,7.087141783201597045e-01
9.760000000000000000e+09,1.044788580407206985e-02,-1.958627549493344167e-03,-7.089364447136480285e-01,8.986517316459007726e-03,1.062988897649288708e-02,7.089933992194189516e-01
9.840000000000000000e+09,1.049869111542148063e-02,-4.186210326046884908e-03,-7.092485024143421191e-01,8.715627984877226744e-03,1.130251618140542570e-02,7.093020515606576204e-01
9.920000000000000000e+09,1.006931645041283033e-02,-5.813099309403450300e-03,-7.095861496238832222e-01,8.477507136890714487e-03,1.162683350528170845e-02,7.096367886921477464e-01
1.000000000000000000e+10,9.269576039823673730e-03,-7.760291049258184227e-03,-7.099459008941092497e-01,8.274051869800375103e-03,1.208913384520453674e-02,7.099941141521474153e-01
1.008000000000000000e+10,8.030516196709108767e-03,-9.599425433110601175e-03,-7.103335667830781297e-01,8.031748815119655813e-03,1.251551673050130091e-02,7.103789728643430390e-01
1.016000000000000000e+10,6.399911022452106461e-03,-1.120747574200896615e-02,-7.107174167416132615e-01,7.976658680864475229e-03,1.290605956917227973e-02,7.107621779073384216e-01
1.024000000000000000e+10,4.386954990871786732e-03,-1.249812681002276590e-02,-7.111220144456519288e-01,7.884512465775751072e-03,1.324569922092996670e-02,7.111657225753115208e-01
1.032000000000000000e+10,2.074134339833357682e-03,-1.336980670618278730e-02,-7.115344690772229530e-01,7.830675902372024808e-03,1.352973631008255045e-02,7.115775573822530342e-01
1.040000000000000000e+10,-4.401905834051386777e-04,-1.374458058771372247e-02,-7.119513576575922098e-01,7.815220563173162077e-03,1.375162765936728884e-02,7.119942509198651237e-01
1.048000000000000000e+10,-3.035466052290479357e-03,-1.357048713647256155e-02,-7.123693653386833358e-01,7.837954769313291298e-03,1.390583241937623851e-02,7.124124831921492262e-01
1.056000000000000000e+10,-5.576552857449481454e-03,-1.282841205589830419e-02,-7.127852954194767721e-01,7.898460541142867872e-03,1.398806983281985702e-02,7.128290559770630308e-01
1.064000000000000000e+10,-7.923625251852417506e-03,-1.153644578350507613e-02,-7.131960712105271938e-01,7.996128097071677002e-03,1.399547850012800888e-02,7.132408948277405569e-01
1.072000000000000000e+10,-9.943427805404980030e-03,-9.750917176634244996e-03,-7.135987308127578199e-01,8.130186764295698962e-03,1.392667018015726794e-02,7.136450438098769222e-01
1.080000000000000000e+10,-1.152065952771406943e-02,-7.563687041551141362e-03,-7.139904157291948605e-01,8.299731331783346752e-03,1.378168921489806437e-02,7.140386539210102912e-01
1.088000000000000000e+10,-1.256813999512777086e-02,-5.095786647653919796e-03,-7.143683540830511047e-01,8.503743172017609597e-03,1.356190194978338162e-02,7.144189659879299770e-01
1.096000000000000000e+10,-1.303098982946726547e-02,-2.478451271827959452e-03,-7.148235524167571020e-01,8.733312921189709602e-03,1.326459259240572904e-02,7.148768997836562056e-01
1.104000000000000000e+10,-1.290860443118548376e-02,1.105521571190568953e-04,-7.150722037771500839e-01,9.010611511476314395e-03,1.290907781912655448e-02,7.151289727975792543e-01
1.112000000000000191e+10,-1.221984067565190860e-02,2.554609211694524977e-03,-7.153927908781029243e-01,9.310965530593191819e-03,1.248401114877711882e-02,7.154533802558158406e-01
1.120000000000000000e+10,-1.103498361597314223e-02,4.714277271899856153e-03,-7.156889212231497543e-01,9.640773723114089491e-03,1.199980306509849416e-02,7.157538518789375859e-01
1.128000000000000000e+10,-9.451483513711245524e-03,6.484781193118243844e-03,-7.159578589661577119e-01,9.998524522834513484e-03,1.146223921110423906e-02,7.160276714681063082e-01
1.135999999999999809e+10,-7.588438863674863699e-03,7.793498639244824874e-03,-7.161967768565706827e-01,1.038255538501608143e-02,1.087763877997619498e-02,7.162720297736492325e-01
1.143999999999999809e+10,-5.576174914506598634e-03,8.603799975863990826e-03,-7.164027234824790202e-01,1.079100367461930006e-02,1.025276063808425696e-02,7.164839900328680011e-01
1.152000000000000000e+10,-3.545533455732985222e-03,8.915580552986537843e-03,-7.165725962995770359e-01,1.122173905964982642e-02,9.594706044611977028e-03,7.166604587913577573e-01
1.160000000000000000e+10,-1.617862243407839533e-03,8.762716074931049468e-03,-7.167031256895308733e-01,1.167227476978720431e-02,8.910817653195450549e-03,7.167981671094345586e-01
1.168000000000000191e+10,1.034925348282723315e-04,8.207927839963121905e-03,-7.167908774044328135e-01,1.213965600953065618e-02,8.208580274980982472e-03,7.168936693668359617e-01
1.176000000000000000e+10,1.539614074807122215e-03,7.335706240699511535e-03,-7.168322831544940987e-01,1.262032502935640614e-02,7.495531838981270463e-03,7.169433692951845405e-01
1.184000000000000000e+10,2.640017736897282488e-03,6.244018294150117075e-03,-7.168237117895782662e-01,1.310996528981995049e-02,6.779193027847310593e-03,7.169435856283872255e-01
1.191999999999999809e+10,3.384095801540718505e-03,5.035536198005602544e-03,-7.167615961357137744e-01,1.360333150105023058e-02,6.067019795206724138e-03,7.168906725037951233e-01
1.200000000000000000e+10,3.780054764247824453e-03,3.809091791243561249e-03,-7.166426322822246897e-01,1.409407924761347033e-02,5.366376272200054989e-03,7.167812117196110666e-01
1.208000000000000000e+10,3.861551952903778846e-03,2.652005048776397665e-03,-7.164640674589525249e-01,1.457461740484057057e-02,4.684518573312575727e-03,7.166122936653570585e-01
1.216000000000000000e+10,3.682376301461155743e-03,1.633862078589105307e-03,-7.162240878714477565e-01,1.503601865989883518e-02,4.028573012546037696e-03,7.163818994812949370e-01
1.224000000000000191e+10,3.309649244320509581e-03,8.022313296851342652e-04,-7.159223061183933590e-01,1.546803653048452881e-02,3.405488691327530730e-03,7.160893858674257650e-01
1.232000000000000000e+10,2.854785645554336424e-03,-4.686503381983147653e-04,-7.155603265688907921e-01,1.585928808025395889e-02,2.892997445826125166e-03,7.157360532890529869e-01
1.239999999999999809e+10,2.341609727686642852e-03,-2.767541801247238795e-04,-7.149779391634468739e-01,1.607630619300607147e-02,2.357907757528530154e-03,7.151586545034750442e-01
1.247999999999999809e+10,1.740197999006207370e-03,-4.518449814500309115e-04,-7.146756222628231070e-01,1.647101176008991530e-02,1.797902378608690500e-03,7.148653994180683702e-01
1.256000000000000000e+10,1.265818663161163721e-03,-5.183289757345150781e-04,-7.141709020530238039e-01,1.666810314299106699e-02,1.367831062336686068e-03,7.143653848008141294e-01
1.264000000000000000e+10,8.781904965188237159e-04,-4.736435655647012371e-04,-7.136422841948765194e-01,1.677981881859518312e-02,9.977759144100550610e-04,7.138395282628062777e-01
1.272000000000000000e+10,5.879271764788825301e-04,-3.624483346935664508e-04,-7.131067553115968405e-01,1.680040742924704747e-02,6.906715284160558268e-04,7.133046320898402959e-01
1.280000000000000191e+10,3.899766741224964259e-04,-2.239938345710908055e-04,-7.125831149626014049e-01,1.672858327352278601e-02,4.497277446250174879e-04,7.127794478154818592e-01
1.288000000000000000e+10,2.683237253914423333e-04,-8.756821493659884591e-05,-7.120904317902745362e-01,1.656819263509139162e-02,2.822513310422548253e-04,7.122831516008596431e-01
