# Frequency, Real(S21), Imag(S21), Real(S11), Imag(S11), Amp(S21), Amp(S11)
4.000000000000000000e+09,3.793507398443263652e-05,1.405025293660486403e-04,-7.188499076466846605e-01,6.802362108381173125e-03,1.455336064160499612e-04,7.188820917604642480e-01
4.080000000000000000e+09,2.200892642260182857e-06,1.453656465461423909e-04,-7.187430657695681457e-01,6.950022577971545767e-03,1.453823067783722891e-04,7.187766672657592837e-01
4.160000000000000477e+09,2.091371480937013139e-06,1.463705795621556417e-04,-7.187535905204568421e-01,7.109200147889006144e-03,1.463855197621424938e-04,7.187887482513838355e-01
4.240000000000000000e+09,1.143557109652367093e-06,1.458991218076069224e-04,-7.187035130417326334e-01,7.267417139484387556e-03,1.459036033382793364e-04,7.187402555933590786e-01
4.320000000000000000e+09,3.535528113279148270e-06,1.445497082989762754e-04,-7.187266708909308965e-01,7.429851068516173974e-03,1.445929394139247701e-04,7.187650729806371874e-01
4.400000000000000000e+09,3.766476183083648698e-06,1.428595952906359403e-04,-7.187205214159945177e-01,7.593753427752376883e-03,1.429092380129501252e-04,7.187606367877977798e-01
4.480000000000000000e+09,3.451618442721611402e-06,1.414904755511978693e-04,-7.187287937428330498e-01,7.761102172568193000e-03,1.415325698967494065e-04,7.187706961625250912e-01
4.560000000000000000e+09,3.826904318014877647e-06,1.409316766417794005e-04,-7.187069887936324841e-01,7.928180885701274425e-03,1.409836255659582349e-04,7.187507160295334430e-01
4.640000000000000000e+09,3.713600438683024083e-06,1.415283915514761693e-04,-7.186995180883009038e-01,8.099001868271549914e-03,1.415771042342869087e-04,7.187451503360688942e-01
4.720000000000000000e+09,3.506519111617313152e-06,1.434241788508895709e-04,-7.187050005334055802e-01,8.273851325760694930e-03,1.434670371734639738e-04,7.187526239308510423e-01
4.800000000000000000e+09,3.445464194261706721e-06,1.464203302416684815e-04,-7.186828932346899235e-01,8.448774497855339460e-03,1.464608627982001037e-04,7.187325530534290907e-01
4.880000000000000000e+09,3.424210741678855478e-06,1.504441812161643193e-04,-7.186854275101536293e-01,8.629594845323216787e-03,1.504831448402296019e-04,7.187372354502351568e-01
4.960000000000000000e+09,3.424275150842097542e-06,1.549981058479534988e-04,-7.186635363539594090e-01,8.810930508448165319e-03,1.550359264066302639e-04,7.187175460368303570e-01
5.040000000000000000e+09,3.566343385613079266e-06,1.598791481905314387e-04,-7.186525950056202872e-01,8.997353252510838229e-03,1.599189195538602175e-04,7.187089151206228488e-01
5.120000000000000000e+09,3.807284422228466369e-06,1.647307481107652613e-04,-7.186406429395209017e-01,9.187791156839666962e-03,1.647747395318958908e-04,7.186993733063009593e-01
5.200000000000000000e+09,4.127255500785594473e-06,1.693115764271188248e-04,-7.186275161393058664e-01,9.382643275317993636e-03,1.693618733664837141e-04,7.186887650070649114e-01
5.280000000000000000e+09,4.498656426765782929e-06,1.734661914110420143e-04,-7.186130083261565993e-01,9.582367418060868530e-03,1.735245154792208191e-04,7.186768936739955649e-01
5.360000000000000000e+09,4.891828687376160442e-06,1.771242575302526775e-04,-7.185968550373367236e-01,9.787491888400704290e-03,1.771917960672838611e-04,7.186635061466642993e-01
5.440000000000000000e+09,5.279701819065558196e-06,1.802863369733055025e-04,-7.185787094282602983e-01,9.998629816615168045e-03,1.803636286798158961e-04,7.186482687948214654e-01
5.520000000000000000e+09,5.640629805584167554e-06,1.830019038488814732e-04,-7.185581043213514763e-01,1.021649518280624142e-02,1.830888131943590518e-04,7.186307299717391572e-01
5.600000000000000000e+09,5.959301104414855178e-06,1.853450622684042000e-04,-7.185343910513393162e-01,1.044191622336020260e-02,1.854408406390882199e-04,7.186102592768452979e-01
5.680000000000000000e+09,6.226024435474167346e-06,1.873923788332865562e-04,-7.185066404275574081e-01,1.067583167974155318e-02,1.874957786859989613e-04,7.185859487358137176e-01
5.760000000000000000e+09,6.435082632312573065e-06,1.892056082592922606e-04,-7.184734927870138899e-01,1.091922817910514001e-02,1.893150086106578538e-04,7.185564622085022224e-01
5.840000000000000954e+09,6.582930464839305123e-06,1.908203243041370584e-04,-7.184329920110187340e-01,1.117293057526671032e-02,1.909338396959557897e-04,7.185198663833480826e-01
5.920000000000000000e+09,6.666878915561633164e-06,1.922397189320447562e-04,-7.183825911073563608e-01,1.143719099623493815e-02,1.923552879687645133e-04,7.184736296789211440e-01
6.000000000000000000e+09,6.684116396271745808e-06,1.934314462326012563e-04,-7.183195552815493379e-01,1.171133569048663815e-02,1.935468982020497719e-04,7.184150185537173661e-01
6.080000000000000000e+09,6.629636067881187525e-06,1.943250986234324666e-04,-7.182415045187978686e-01,1.199386938526186830e-02,1.944381547675232168e-04,7.183416399710217393e-01
6.160000000000000000e+09,6.490785083345338681e-06,1.948091620351511094e-04,-7.181466302502746979e-01,1.228286339909257993e-02,1.949172642529027806e-04,7.182516629100871297e-01
6.239999999999999046e+09,6.236804481428512908e-06,1.947278669692502232e-04,-7.180336297446835436e-01,1.257624094861829918e-02,1.948277185221178450e-04,7.181437566954982366e-01
6.320000000000000000e+09,5.802729837790022619e-06,1.938790721762617306e-04,-7.179015851578757212e-01,1.287190060417700566e-02,1.939658895308618016e-04,7.180169718031423898e-01
6.400000000000000954e+09,5.067749230004820312e-06,1.920148080599591502e-04,-7.177498726023130438e-01,1.316775693576227764e-02,1.920816716830660255e-04,7.178706495207586302e-01
6.480000000000000000e+09,3.828726021130853592e-06,1.888465526386229072e-04,-7.175781044155645771e-01,1.346175085316140760e-02,1.888853609638318685e-04,7.177043643957221608e-01
6.560000000000000000e+09,1.770276819678024988e-06,1.840576905506451251e-04,-7.173860934330694716e-01,1.375185058942062465e-02,1.840662036628542501e-04,7.175178885894026859e-01
6.640000000000000000e+09,-1.566425274926390551e-06,1.773256427775568892e-04,-7.171738305768499133e-01,1.403605048260284614e-02,1.773325612362705269e-04,7.173111695613155758e-01
6.720000000000000000e+09,-6.813163838233606343e-06,1.683558467050028193e-04,-7.169414705850357672e-01,1.431236977206345844e-02,1.684936506852558673e-04,7.170843159441754322e-01
6.799999999999999046e+09,-1.479883920142336219e-05,1.569290123358233770e-04,-7.166893230082997945e-01,1.457885202496842295e-02,1.576252535427194489e-04,7.168375887468939611e-01
6.880000000000000000e+09,-2.656398356076029909e-05,1.429620785780773176e-04,-7.164178468874617955e-01,1.483356535885155779e-02,1.454090820202806123e-04,7.165713963033425449e-01
6.960000000000000954e+09,-4.336100266210112398e-05,1.265816415187447693e-04,-7.161276482381609965e-01,1.507460352633904939e-02,1.338024234513065483e-04,7.162862920945755052e-01
7.039999999999999046e+09,-6.663536615142431310e-05,1.082073882230893394e-04,-7.158194798388899383e-01,1.530008802934672459e-02,1.270791520596386377e-04,7.159829749446035008e-01
7.120000000000000000e+09,-9.798330280919725910e-05,8.864100158511045463e-05,-7.154942429798162307e-01,1.550817144315922227e-02,1.321285540351153584e-04,7.156622912510974821e-01
7.200000000000000000e+09,-1.390821634584502606e-04,6.915489857199866460e-05,-7.151529908917624301e-01,1.569704228001955054e-02,1.553262636799923201e-04,7.153252389771899145e-01
7.280000000000000000e+09,-1.915909269563191846e-04,5.157305907389588321e-05,-7.147969335750304909e-01,1.586493168851099006e-02,1.984108457575371309e-04,7.149729731295775270e-01
7.359999999999999046e+09,-2.577713645275103455e-04,4.123708876402316188e-05,-7.143667859602725878e-01,1.628833298127379398e-02,2.610489874719044826e-04,7.145524576086200730e-01
7.440000000000000000e+09,-3.365695602219952003e-04,3.254063335782724073e-05,-7.140460628050471215e-01,1.613095998292811070e-02,3.381389680107215823e-04,7.142282462052030878e-01
7.520000000000000000e+09,-4.309454411587805827e-04,3.794638841664348594e-05,-7.136545083623199170e-01,1.622586752098328575e-02,4.326128773504121804e-04,7.138389426773191770e-01
7.599999999999999046e+09,-5.401493320407617154e-04,5.893752770566845073e-05,-7.132546792575711336e-01,1.629336260231115108e-02,5.433552549448081347e-04,7.134407551771282385e-01
7.680000000000000000e+09,-6.632613704084632921e-04,1.004351055970994881e-04,-7.128486607973516520e-01,1.633207809482090794e-02,6.708225219179907682e-04,7.130357284003887575e-01
7.760000000000000954e+09,-7.982210927772912749e-04,1.677509652422480395e-04,-7.124387273689777311e-01,1.634078593697095225e-02,8.156575870389970711e-04,7.126261022023866465e-01
7.840000000000000000e+09,-9.416225425196880598e-04,2.663795021828182976e-04,-7.120273422573402122e-01,1.631842403256263119e-02,9.785760326946537236e-04,7.122143126088930076e-01
7.919999999999999046e+09,-1.088539262526561384e-03,4.017249015340292918e-04,-7.116171536522888363e-01,1.626412592712517952e-02,1.160301953189080701e-03,7.118029890105539437e-01
8.000000000000000000e+09,-1.232396773168722807e-03,5.787648208980578123e-04,-7.112109859779945920e-01,1.617725276241299692e-02,1.361532417691859983e-03,7.113949466243980613e-01
8.080000000000000000e+09,-1.364910678043601295e-03,8.016553622152637181e-04,-7.108118256300416382e-01,1.605742668661975722e-02,1.582918974175851097e-03,7.109931732494404466e-01
8.159999999999999046e+09,-1.476108824650451939e-03,1.073286121187850455e-03,-7.104228003830996840e-01,1.590456480775100101e-02,1.825059001825804017e-03,7.106008095167704042e-01
8.240000000000000000e+09,-1.554454588840989675e-03,1.394799089306742509e-03,-7.100471518084677802e-01,1.571891242367593963e-02,2.088490739337795117e-03,7.102211219043689239e-01
8.320000000000000954e+09,-1.587086627015055901e-03,1.765090072134180765e-03,-7.096882003109898918e-01,1.550107408094693155e-02,2.373686357629557330e-03,7.098574680584227581e-01
8.400000000000000000e+09,-1.560187297680733567e-03,2.180316368543783016e-03,-7.093493026854723604e-01,1.525204081777458906e-02,2.681037834642446566e-03,7.095132542591948699e-01
8.480000000000000000e+09,-1.459487984586023586e-03,2.633439517092338138e-03,-7.090338024268785233e-01,1.497321178635494313e-02,3.010831922797169245e-03,7.091918852152193642e-01
8.560000000000000000e+09,-1.270914478864842902e-03,3.113836529010146053e-03,-7.087449735342655766e-01,1.466640844912595748e-02,3.363212978980999537e-03,7.088967068952171102e-01
8.640000000000000000e+09,-9.813693722684235007e-04,3.607017170502820318e-03,-7.084859589724696871e-01,1.433387956575218718e-02,3.738135726953837040e-03,7.086309435556321645e-01
8.720000000000000000e+09,-5.796410670838867199e-04,4.094488108038665114e-03,-7.082597054941007775e-01,1.397829539909166245e-02,4.135313365818870691e-03,7.083976306911639043e-01
8.800000000000000000e+09,-5.742016474800479167e-05,4.553806906393784333e-03,-7.080688969517858755e-01,1.360272990813213810e-02,4.554168905084594876e-03,7.081995460966297173e-01
8.880000000000000000e+09,5.896063502492911645e-04,4.958869484780310810e-03,-7.079158886762088043e-01,1.321063022833988271e-02,4.993798375519343732e-03,7.080391417084626049e-01
8.959999999999998093e+09,1.360624987602912159e-03,5.280473239445570080e-03,-7.078026457646691139e-01,1.280577326884894604e-02,5.452953143883616793e-03,7.079184791912687125e-01
9.040000000000000000e+09,2.248585728335366837e-03,5.487193563106465555e-03,-7.077306881963381091e-01,1.239221012656728169e-02,5.930044770207938860e-03,7.078391723313166572e-01
9.120000000000000000e+09,3.239184047610458098e-03,5.546603311877991958e-03,-7.077010456410122163e-01,1.197419961240253454e-02,6.423170680717583611e-03,7.078023392570411687e-01
9.200000000000000000e+09,4.310024181531046245e-03,5.426851149912374078e-03,-7.077142244676501992e-01,1.155613310235976618e-02,6.930153089844958390e-03,7.078085671466028961e-01
9.280000000000000000e+09,5.430069942611610335e-03,5.098594480775093044e-03,-7.077701889417817860e-01,1.114245346479028446e-02,7.448578741011220236e-03,7.078578915459659004e-01
9.360000000000000000e+09,6.559504455100955908e-03,4.537254269443240402e-03,-7.078683578570188484e-01,1.073757134981558406e-02,7.975824408929160780e-03,7.079497916474620789e-01
9.440000000000000000e+09,7.650129786894421455e-03,3.725521522139617868e-03,-7.080076169723086288e-01,1.034578245288986578e-02,8.509053788069199237e-03,7.080832019652562037e-01
9.520000000000000000e+09,8.646437634838745681e-03,2.655998549703559274e-03,-7.081863467099992482e-01,9.971189280085062875e-03,9.045176176790768047e-03,7.082565398795230838e-01
9.600000000000000000e+09,9.487467251404492138e-03,1.333803314069141946e-03,-7.084024636493774230e-01,9.617630798431749811e-03,9.580765424907058958e-03,7.084677475557249471e-01
9.680000000000000000e+09,1.010953118480798982e-02,-2.210927154929195405e-04,-7.086534735461196277e-01,9.288622740725678562e-03,1.011194851477445304e-02,7.087143458978379940e-01
9.760000000000000000e+09,1.044982779655207784e-02,-1.972078318190198520e-03,-7.089365329627645984e-01,8.987310792058580272e-03,1.063428389082538700e-02,7.089934975192213606e-01
9.840000000000000000e+09,1.049796373403796661e-02,-4.200729991797181109e-03,-7.092485162887516292e-01,8.716437778147347396e-03,1.130722667258248111e-02,7.093020753849067495e-01
9.920000000000000000e+09,1.006552707025960489e-02,-5.828442001331739925e-03,-7.095860846238499775e-01,8.478325375134420153e-03,1.163123258150299509e-02,7.096367334721140896e-01
1.000000000000000000e+10,9.262381493305412231e-03,-7.775621687597874393e-03,-7.099457533462516512e-01,8.274869721789064950e-03,1.209346945901667268e-02,7.099939761457764176e-01
1.008000000000000000e+10,8.019756828094673842e-03,-9.613936207420143570e-03,-7.103333233554264270e-01,8.032557716131861342e-03,1.251975514864868237e-02,7.103787385983816316e-01
1.016000000000000000e+10,6.385627090888606160e-03,-1.122028615114938413e-02,-7.107170973537226821e-01,7.977445945275444400e-03,1.291011443239621810e-02,7.107618673752207350e-01
1.024000000000000000e+10,4.369425561521004739e-03,-1.250832412103826743e-02,-7.111216083382760900e-01,7.885268257812759821e-03,1.324953025788540469e-02,7.111653248725743337e-01
1.032000000000000000e+10,1.763321629475578202e-03,-1.343174332879588234e-02,-7.115339776611487865e-01,7.831388928593955093e-03,1.354699346791121348e-02,7.115770738429162412e-01
1.040000000000000000e+10,-4.623722574973012159e-04,-1.374706421147846649e-02,-7.119507839075536193e-01,7.815879450287733718e-03,1.375483778672126865e-02,7.119936844369910700e-01
1.048000000000000000e+10,-3.058586249272500935e-03,-1.356818061971780051e-02,-7.123687138179428668e-01,7.838548328177225716e-03,1.390864749619906589e-02,7.124118382414229567e-01
1.056000000000000000e+10,-5.599446200873604319e-03,-1.282101931048248988e-02,-7.127845722393467698e-01,7.898978030286635255e-03,1.399043723106046209e-02,7.128283385755307400e-01
1.064000000000000000e+10,-7.945035165581992159e-03,-1.152398465299605407e-02,-7.131952839394843924e-01,7.996559472057204396e-03,1.399734996579077816e-02,7.132401124424452288e-01
1.072000000000000000e+10,-9.962099221645266678e-03,-9.733747440953633909e-03,-7.135978883303968345e-01,8.130522897500753673e-03,1.392800273356437253e-02,7.136442052116644952e-01
1.080000000000000000e+10,-1.153544004579505969e-02,-7.542508534150762535e-03,-7.139895280343437900e-01,8.299964188381523875e-03,1.378244579303214250e-02,7.140377689928127936e-01
1.088000000000000000e+10,-1.257807901394723815e-02,-5.071605209127461739e-03,-7.143674320783557352e-01,8.503865933347299830e-03,1.356205187566943138e-02,7.144180455097957072e-01
1.096000000000000000e+10,-1.303538994249794566e-02,-2.452521034256690408e-03,-7.148225914557637672e-01,8.733330122709782525e-03,1.326409628947438323e-02,7.148759391045176326e-01
1.104000000000000000e+10,-1.290722431653779263e-02,1.368463506794379459e-04,-7.150712483176976386e-01,9.010498740809448973e-03,1.290794973964179762e-02,7.151280159930727409e-01
1.112000000000000191e+10,-1.221271962147896240e-02,2.579816376371609626e-03,-7.153918369510791075e-01,9.310729832104833181e-03,1.248222628735164326e-02,7.154524233422134838e-01
1.120000000000000000e+10,-1.102258061814223589e-02,4.737020420991160975e-03,-7.156879811390047808e-01,9.640413188012878290e-03,1.199735995760451215e-02,7.157529070239673219e-01
1.128000000000000000e+10,-9.434608317109139872e-03,6.503857614839035628e-03,-7.159569449602063429e-01,9.998038220231871692e-03,1.145914473123385742e-02,7.160267507607555038e-01
1.135999999999999809e+10,-7.568187537759053091e-03,7.807971847419270528e-03,-7.161959010125116265e-01,1.038194318843775783e-02,1.087390854186218170e-02,7.162711451479050195e-01
1.143999999999999809e+10,-5.553841603092167685e-03,8.613068071662760561e-03,-7.164018977116234366e-01,1.079026606343738703e-02,1.024841930052307337e-02,7.164831532468401987e-01
1.152000000000000000e+10,-3.522506790464655438e-03,8.919415332952360109e-03,-7.165718323909159304e-01,1.122087692213585494e-02,9.589787483076737257e-03,7.166596814771823976e-01
1.160000000000000000e+10,-1.595515931139256235e-03,8.761270115721258786e-03,-7.167024354297181210e-01,1.167128919771892072e-02,8.905364963164035322e-03,7.167974608928424640e-01
1.168000000000000191e+10,1.239053740489960958e-04,8.201709776837798685e-03,-7.167902727831787502e-01,1.213854811383049438e-02,8.202645658883173443e-03,7.168930460723521580e-01
1.176000000000000000e+10,1.557053894428549537e-03,7.325526979594845084e-03,-7.168317766628004017e-01,1.261909578434202740e-02,7.489176347164424978e-03,7.169428412446569032e-01
1.184000000000000000e+10,2.653731239882727282e-03,6.230913326718209161e-03,-7.168233168314072090e-01,1.310861543353763342e-02,6.772486277476248880e-03,7.169431660541610851e-01
1.191999999999999809e+10,3.393662359086834900e-03,5.020670741058748734e-03,-7.167613275666008255e-01,1.360186153144876502e-02,6.060039512874996516e-03,7.168903760911823353e-01
1.200000000000000000e+10,3.785402681539865987e-03,3.793657150525880147e-03,-7.166425070889191895e-01,1.409248956773296799e-02,5.359207780740110963e-03,7.167810552943683078e-01
1.208000000000000000e+10,3.862942992561691543e-03,2.637115428548193231e-03,-7.164641055769283007e-01,1.457290870616645070e-02,4.677254146106281200e-03,7.166122970255995872e-01
1.216000000000000000e+10,3.680359523395691172e-03,1.620461227767518294e-03,-7.162243131067720370e-01,1.503419265375068904e-02,4.021310832570291517e-03,7.163820863436057840e-01
1.224000000000000191e+10,3.304988059860260868e-03,7.910186026543518725e-04,-7.159227470842602914e-01,1.546609716037421374e-02,3.398331429623092838e-03,7.160897848412920430e-01
1.232000000000000000e+10,2.848476601328149126e-03,-4.771323600164380056e-04,-7.155610174543496349e-01,1.585724335314956865e-02,2.888161047671825889e-03,7.157366987007618420e-01
1.239999999999999809e+10,2.334110448486444080e-03,-2.828039696639742060e-04,-7.149790345142638115e-01,1.607423810518112534e-02,2.351180484563295328e-03,7.151597030912821840e-01
1.247999999999999809e+10,1.732889793904607029e-03,-4.552317810828055908e-04,-7.146769385737680169e-01,1.646880993482989497e-02,1.791687197120796172e-03,7.148666646514179046e-01
1.256000000000000000e+10,1.274015891651585986e-03,-5.375306096917668386e-04,-7.140715107040230825e-01,1.661785745212914292e-02,1.382771003650419463e-03,7.142648497479243686e-01
1.264000000000000000e+10,8.725722750664622902e-04,-4.733068952116874922e-04,-7.136444179586307612e-01,1.677761472431054182e-02,9.926740614469530249e-04,7.138416096301407610e-01
1.272000000000000000e+10,5.835728655686850614e-04,-3.610992665247769458e-04,-7.131093653147529965e-01,1.679830383245507416e-02,6.862579469214025217e-04,7.133071918263949041e-01
1.280000000000000191e+10,3.868687660009456804e-04,-2.221670475635453899e-04,-7.125862314898491201e-01,1.672667446832066737e-02,4.461228968907526068e-04,7.127825186883262054e-01
1.288000000000000000e+10,2.662808605784229002e-04,-8.568225213379144925e-05,-7.120940642981176127e-01,1.656659067389914045e-02,2.797265540507445718e-04,7.122867458651523931e-01
