# Frequency, Real(S21), Imag(S21), Real(S11), Imag(S11), Amp(S21), Amp(S11)
4.000000000000000000e+09,3.698873604656003798e-05,1.409681222598398620e-04,-7.188282581051121944e-01,6.798123579864040998e-03,1.457401045964605048e-04,7.188604030927262523e-01
4.080000000000000000e+09,2.221441096943593456e-06,1.453531864999513083e-04,-7.187430911135063161e-01,6.949325121891948044e-03,1.453701607147657405e-04,7.187766858649824453e-01
4.160000000000000477e+09,2.109053449423002186e-06,1.463576847512903460e-04,-7.187536193181552902e-01,7.108465582766538594e-03,1.463728799751190589e-04,7.187887697828124756e-01
4.240000000000000000e+09,1.158716382225311128e-06,1.458863576348903087e-04,-7.187035423549923419e-01,7.266660847654805161e-03,1.458909591702979840e-04,7.187402772584051691e-01
4.320000000000000000e+09,3.548474792550845036e-06,1.445351045811701918e-04,-7.187267039646496603e-01,7.429055343001316966e-03,1.445786572411127677e-04,7.187650978276411973e-01
4.400000000000000000e+09,3.778216272931960113e-06,1.428440809790755940e-04,-7.187205576200400570e-01,7.592921278292228543e-03,1.428940390252922659e-04,7.187606641985909706e-01
4.480000000000000000e+09,3.463129182173558016e-06,1.414739610046582350e-04,-7.187288333133357021e-01,7.760223448289227041e-03,1.415163414806925235e-04,7.187707262430184096e-01
4.560000000000000000e+09,3.839075244976809190e-06,1.409142387575499852e-04,-7.187070323129459704e-01,7.927269443146230457e-03,1.409665250453326422e-04,7.187507494931092422e-01
4.640000000000000000e+09,3.727029441669062457e-06,1.415100210280040641e-04,-7.186995658894216321e-01,8.098047185673482376e-03,1.415590929605202810e-04,7.187451873771848465e-01
4.720000000000000000e+09,3.521395297368889684e-06,1.434046483689770221e-04,-7.187050513557566855e-01,8.272840768664756900e-03,1.434478769402680121e-04,7.187526631176155423e-01
4.800000000000000000e+09,3.461570556372673690e-06,1.464003107648191322e-04,-7.186829511587048414e-01,8.447725056242399305e-03,1.464412286985887154e-04,7.187325986379156095e-01
4.880000000000000000e+09,3.404254984648614137e-06,1.503770557744998058e-04,-7.186736634734776086e-01,8.627071874648978289e-03,1.504155838183249174e-04,7.187254419731639032e-01
4.960000000000000000e+09,3.440557497185930526e-06,1.549768124401117695e-04,-7.186636070470926452e-01,8.809773485901097045e-03,1.550149987258943340e-04,7.187176025413672953e-01
5.040000000000000000e+09,3.581083943948348033e-06,1.598573542770069663e-04,-7.186526733600889782e-01,8.996136819914358693e-03,1.598974605134744582e-04,7.187089782417396266e-01
5.120000000000000000e+09,3.819272788346166247e-06,1.647085353909871416e-04,-7.186407300126601561e-01,9.186511036558547491e-03,1.647528102196617046e-04,7.186994440085188174e-01
5.200000000000000000e+09,4.135328126139634854e-06,1.692890205185506019e-04,-7.186276131931652600e-01,9.381294710438806833e-03,1.693395211013692622e-04,7.186888444481031035e-01
5.280000000000000000e+09,4.501758857466321259e-06,1.734433694512247260e-04,-7.186131168845063533e-01,9.580945091401803226e-03,1.735017816606066344e-04,7.186769832597323937e-01
5.360000000000000000e+09,4.889040293396635520e-06,1.771012455368812025e-04,-7.185969769652285066e-01,9.785989822546308989e-03,1.771687158775644034e-04,7.186636076081578395e-01
5.440000000000000000e+09,5.270220169107262068e-06,1.802632174932006465e-04,-7.185788470455366506e-01,9.997041252205922726e-03,1.803402417699161782e-04,7.186483842986715054e-01
5.520000000000000000e+09,5.623731499002420884e-06,1.829787606024844873e-04,-7.185582605697836689e-01,1.021481243241088854e-02,1.830651610427123379e-04,7.186308622833439408e-01
5.600000000000000000e+09,5.934291654220366302e-06,1.853219701197602503e-04,-7.185345697485275851e-01,1.044013050456998708e-02,1.854169583034590355e-04,7.186104120096327152e-01
5.680000000000000000e+09,6.192192580534489182e-06,1.873693872079149839e-04,-7.185068466607812399e-01,1.067393295001207824e-02,1.874716792254873046e-04,7.185861267398924168e-01
5.760000000000000000e+09,6.391669853787940490e-06,1.891826987736149317e-04,-7.184737335198890795e-01,1.091720505311442879e-02,1.892906414981684947e-04,7.185566721728915418e-01
5.840000000000000954e+09,6.529117793514352654e-06,1.907973578136780565e-04,-7.184332769322535617e-01,1.117077052031384410e-02,1.909090388846014692e-04,7.185201176846990334e-01
5.920000000000000000e+09,6.601791028848589907e-06,1.922163315513957579e-04,-7.183829335079714440e-01,1.143488109195714419e-02,1.923296694737051862e-04,7.184739352691270620e-01
6.000000000000000000e+09,6.606820975684496179e-06,1.934068841995614124e-04,-7.183199724366725603e-01,1.170886391102755365e-02,1.935196965148180861e-04,7.184153953636496226e-01
6.080000000000000000e+09,6.539100948808343282e-06,1.942979769580961138e-04,-7.182420173325924084e-01,1.199122584356009970e-02,1.944079825810338276e-04,7.183421085800436590e-01
6.160000000000000000e+09,6.385740228458966005e-06,1.947771240876108824e-04,-7.181472625266963616e-01,1.228004113656182283e-02,1.948817737658037829e-04,7.182522468359591183e-01
6.239999999999999046e+09,6.115439278863204819e-06,1.946871800878251062e-04,-7.180344074555979894e-01,1.257323633827626963e-02,1.947832043275875052e-04,7.181444816763058459e-01
6.320000000000000000e+09,5.662158197553883795e-06,1.938241642739261064e-04,-7.179025358113283461e-01,1.286871355984897831e-02,1.939068505544350803e-04,7.180178651767803455e-01
6.400000000000000954e+09,4.903156386720468324e-06,1.919378490437667053e-04,-7.177510246948340944e-01,1.316439102742228071e-02,1.920004657236549855e-04,7.178717396872559275e-01
6.480000000000000000e+09,3.632157878306296027e-06,1.887371637522126011e-04,-7.175794869361639128e-01,1.345821336947525260e-02,1.887721101012606022e-04,7.177056803305004173e-01
6.560000000000000000e+09,1.529027027623227350e-06,1.839029428855716781e-04,-7.173877353966102710e-01,1.374815256380035669e-02,1.839092991820289542e-04,7.175194593851753622e-01
6.640000000000000000e+09,-1.871815536379580923e-06,1.771105114344456732e-04,-7.171757605776384326e-01,1.403220668356984675e-02,1.771204024215537471e-04,7.173130239891958304e-01
6.720000000000000000e+09,-7.211227257628225460e-06,1.680643401851008147e-04,-7.169437163612156771e-01,1.430839865751941907e-02,1.682189770519796409e-04,7.170864820242909277e-01
6.799999999999999046e+09,-1.532968697729006520e-05,1.565461791658020422e-04,-7.166919110198527454e-01,1.457477566041542015e-02,1.572949634102538245e-04,7.168400933310300482e-01
6.880000000000000000e+09,-2.728177447613522669e-05,1.424770752219246209e-04,-7.164208019035739339e-01,1.482940929623523599e-02,1.450655444354746434e-04,7.165742646650347103e-01
6.960000000000000954e+09,-4.433605337655766704e-05,1.259920881652991809e-04,-7.161309929411159292e-01,1.507039664670569053e-02,1.335653095278167477e-04,7.162895475336197304e-01
7.039999999999999046e+09,-6.795551419550152151e-05,1.075250929245957234e-04,-7.158232344438004713e-01,1.529586233900326851e-02,1.271990468439836749e-04,7.159866384048503285e-01
7.120000000000000000e+09,-9.975400961658513715e-05,8.789905408072121759e-05,-7.154984248766671495e-01,1.550396184373544449e-02,1.329552787326299167e-04,7.156663809582253233e-01
7.200000000000000000e+09,-1.414248234426049755e-04,6.841584993271101816e-05,-7.151576143134207308e-01,1.569288628245031972e-02,1.571041349162625479e-04,7.153297700993139774e-01
7.280000000000000000e+09,-1.946387648443220883e-04,5.093819902110817985e-05,-7.148020092969964434e-01,1.586086910571782999e-02,2.011938092974963782e-04,7.149779574670901416e-01
7.359999999999999046e+09,-2.572113391639377399e-04,3.382520638014021360e-05,-7.143215949017753807e-01,1.634493662490148908e-02,2.594259385280610168e-04,7.145085709047079847e-01
7.440000000000000000e+09,-3.414357934241793436e-04,3.262132525763997929e-05,-7.140520603502389374e-01,1.612721111167768340e-02,3.429906002979726202e-04,7.142341575622535021e-01
7.520000000000000000e+09,-4.368986791717195325e-04,3.876196713942106978e-05,-7.136609673741375337e-01,1.622234170761197719e-02,4.386148036244452405e-04,7.138453198865062355e-01
7.599999999999999046e+09,-5.472623763653684152e-04,6.083287099838434117e-05,-7.132615944962927834e-01,1.629010515004435111e-02,5.506330418518091529e-04,7.134475942276303773e-01
7.680000000000000000e+09,-7.244624097377662213e-04,-2.859298867463921142e-04,-7.128560227203999400e-01,1.632913465844360729e-02,7.788463797552478947e-04,7.130430209794083041e-01
7.760000000000000954e+09,-8.075998462304338071e-04,1.731305997088568652e-04,-7.124465221180329433e-01,1.633820211388633051e-02,8.259489791669754341e-04,7.126338356592359924e-01
7.840000000000000000e+09,-9.519031158282420003e-04,2.742934030215747696e-04,-7.120355516920613415e-01,1.631624498218631897e-02,9.906343487203900233e-04,7.122224699654854385e-01
7.919999999999999046e+09,-1.099382427814670935e-03,4.127622365541331641e-04,-7.116257554392045881e-01,1.626239600325304901e-02,1.174314432557503141e-03,7.118115490269775192e-01
8.000000000000000000e+09,-1.243287599836292220e-03,5.935278046842163389e-04,-7.112199537018369933e-01,1.617601519060056850e-02,1.377693474921019325e-03,7.114038838881114879e-01
8.080000000000000000e+09,-1.375132386995278969e-03,8.207205464382330302e-04,-7.108211289373682629e-01,1.605672329816812752e-02,1.601427893196944894e-03,7.110024582987520825e-01
8.159999999999999046e+09,-1.484722776106934096e-03,1.097154630626766660e-03,-7.104324051241023286e-01,1.590443582283815674e-02,1.846117549181643504e-03,7.106104089648979105e-01
8.240000000000000000e+09,-1.560289805363013118e-03,1.423836151529094332e-03,-7.100570201622251609e-01,1.571939629000222369e-02,2.112300561738535143e-03,7.102309985500356859e-01
8.320000000000000954e+09,-1.588742585756348132e-03,1.799454898698133083e-03,-7.096982908785675059e-01,1.550220735764443365e-02,2.400445986945858121e-03,7.098675809676895376e-01
8.400000000000000000e+09,-1.556053857811813068e-03,2.219884604017288536e-03,-7.093595705195335777e-01,1.525385809893139120e-02,2.710939184777854793e-03,7.095235587875567962e-01
8.480000000000000000e+09,-1.447786194957628551e-03,2.677721632222719150e-03,-7.090441989853106808e-01,1.497574563680725834e-02,3.044056176548552532e-03,7.092023329573156065e-01
8.560000000000000000e+09,-1.249761627618536410e-03,3.161896867735891799e-03,-7.087554465478347332e-01,1.466968932347371621e-02,3.399925870966274185e-03,7.089072455519606075e-01
8.640000000000000000e+09,-9.488708078316716605e-04,3.657399716379594948e-03,-7.084964522055202663e-01,1.433793569169352841e-02,3.778482300518115709e-03,7.086415166977646507e-01
8.720000000000000000e+09,-5.340101330739950927e-04,4.145156405433971653e-03,-7.082701584239041726e-01,1.398315255385971546e-02,4.179412452455008760e-03,7.084081774437438472e-01
8.800000000000000000e+09,2.874157542472543462e-06,4.602106715330794504e-03,-7.080792443582657469e-01,1.360841108245950358e-02,4.602107612830710036e-03,7.082100007364777738e-01
8.880000000000000000e+09,6.656667311613717695e-04,5.001523717377017071e-03,-7.079260601873085257e-01,1.321715510859675612e-02,5.045626987051250734e-03,7.080494332188180806e-01
8.959999999999998093e+09,1.452933377956358487e-03,5.313619094582886990e-03,-7.078125653920382954e-01,1.281315752681270841e-02,5.508680720743899632e-03,7.079285308084887207e-01
9.040000000000000000e+09,2.356799982244285607e-03,5.506471608135638830e-03,-7.077402739162397260e-01,1.240046446033241621e-02,5.989635692386520611e-03,7.078489011377117057e-01
9.120000000000000000e+09,3.361935833704432670e-03,5.547307083032731317e-03,-7.077102090966648218e-01,1.198332855094889904e-02,6.486542100642762876e-03,7.078116558964008265e-01
9.200000000000000000e+09,4.444734256297440400e-03,5.404143594891759259e-03,-7.077228708617009367e-01,1.156613356169316868e-02,6.997173043687971404e-03,7.078173757306999159e-01
9.280000000000000000e+09,5.572800564619356627e-03,5.047793898856050426e-03,-7.077782172024488228e-01,1.115331308993111267e-02,7.519064395145860259e-03,7.078660898356120557e-01
9.360000000000000000e+09,6.704871845414408019e-03,4.454187200680336141e-03,-7.078756611608888472e-01,1.074926668682489074e-02,8.049539743496850544e-03,7.079572715907860303e-01
9.440000000000000000e+09,7.791301609809760456e-03,3.606933187127357981e-03,-7.080140836855215447e-01,1.035827702385024723e-02,8.585706015897870066e-03,7.080898506545278970e-01
9.520000000000000000e+09,8.775240724393168837e-03,2.500002956412843320e-03,-7.081918618189771975e-01,9.984431655403537206e-03,9.124410367422177218e-03,7.082622409970128485e-01
9.600000000000000000e+09,9.594628435435010108e-03,1.140345619171838007e-03,-7.084069107124753018e-01,9.631552783371560150e-03,9.662157261461979882e-03,7.084723833391191050e-01
9.680000000000000000e+09,1.018506831667356435e-02,-4.497993554882787548e-04,-7.086567371621383948e-01,9.303137822905153259e-03,1.019499563881737757e-02,7.087177996203002373e-01
9.760000000000000000e+09,1.048359811504313843e-02,-2.231188891557928881e-03,-7.089385017475445805e-01,9.002312966671444441e-03,1.071839695605399448e-02,7.089956564738624234e-01
9.840000000000000000e+09,1.043326678294627038e-02,-4.146795707069367461e-03,-7.092490862862904644e-01,8.731800907845118156e-03,1.122715326341895865e-02,7.093028342993084046e-01
9.920000000000000000e+09,9.974433432406545896e-03,-6.135840506283424950e-03,-7.096746000695215439e-01,8.560422972076195403e-03,1.171058756066739245e-02,7.097262280804452761e-01
1.000000000000000000e+10,9.119555168865584385e-03,-8.068185578905824606e-03,-7.099432624895872790e-01,8.290496794114182028e-03,1.217628453238700156e-02,7.099916677619901861e-01
1.008000000000000000e+10,7.819596279857815579e-03,-9.883571698242873960e-03,-7.103198364684819577e-01,8.123042879047805490e-03,1.260282014051909358e-02,7.103662815099164307e-01
1.016000000000000000e+10,6.107042707708239260e-03,-1.146195109630566977e-02,-7.107113145073408189e-01,7.992607073152378783e-03,1.298738979040342523e-02,7.107562552215619389e-01
1.024000000000000000e+10,4.029221848834994846e-03,-1.269851392255821887e-02,-7.111141513792834656e-01,7.899887554773206075e-03,1.332242037125890358e-02,7.111580306199576373e-01
1.032000000000000000e+10,1.662630703976545688e-03,-1.349866438248241429e-02,-7.115248649405452319e-01,7.845249155866935997e-03,1.360067207783148026e-02,7.115681143523638896e-01
1.040000000000000000e+10,-8.893622094333641925e-04,-1.378695211628802424e-02,-7.119400638827869665e-01,7.828760656683860647e-03,1.381560761589540123e-02,7.119831065796761171e-01
1.048000000000000000e+10,-3.501800289419100456e-03,-1.351543993022494283e-02,-7.123564656563362574e-01,7.850232944999233770e-03,1.396172345287266178e-02,7.123997194831548363e-01
1.056000000000000000e+10,-6.036254228798515302e-03,-1.267041359990358877e-02,-7.127709052750252905e-01,7.909256007613307479e-03,1.403480480474558582e-02,7.128147864187253102e-01
1.064000000000000000e+10,-8.351177198144991293e-03,-1.127639641236345691e-02,-7.131803360134818526e-01,8.005233185848096081e-03,1.403208026785694555e-02,7.132252627569095615e-01
1.072000000000000000e+10,-1.031349836334508573e-02,-9.396679963505648325e-03,-7.135818230781054705e-01,8.137411477521767564e-03,1.395227016751289344e-02,7.136282195184178168e-01
1.080000000000000000e+10,-1.181016556265473624e-02,-7.130002416761599057e-03,-7.139725313293107112e-01,8.304907040883990899e-03,1.379554076795622142e-02,7.140208309102341611e-01
1.088000000000000000e+10,-1.275825482847638311e-02,-4.603529307146853392e-03,-7.143497078803192624e-01,8.506725213333073132e-03,1.356339000213814365e-02,7.144003566086404300e-01
1.096000000000000000e+10,-1.312732218455185326e-02,-1.974560373893448090e-03,-7.147341677972477436e-01,8.755305597711636814e-03,1.327499440328234158e-02,7.147877908812753089e-01
1.104000000000000000e+10,-1.286864714101828601e-02,6.401105622988869726e-04,-7.150527311815564335e-01,9.008873886160060837e-03,1.288455745347913406e-02,7.151094798552874998e-01
1.112000000000000191e+10,-1.206430338123607587e-02,3.059272096707459782e-03,-7.153732687709629667e-01,9.306751969708097066e-03,1.244614646531998214e-02,7.154338049772865915e-01
1.120000000000000000e+10,-1.077392387861790188e-02,5.166349490432566721e-03,-7.156695956292872252e-01,9.634037470506331621e-03,1.194858162291850649e-02,7.157344373342466870e-01
1.128000000000000000e+10,-9.102000689765464211e-03,6.860312866358008257e-03,-7.159389749361194655e-01,9.989238378058732867e-03,1.139782036973772603e-02,7.160086596654786639e-01
1.135999999999999809e+10,-7.173305501182369523e-03,8.074125398032261369e-03,-7.161785767976291961e-01,1.037070813434429369e-02,1.080036169563051637e-02,7.162536599914065549e-01
1.143999999999999809e+10,-5.121994036700818105e-03,8.778086362353875252e-03,-7.163854467178500940e-01,1.077659609164573554e-02,1.016315025456879934e-02,7.164664983741083626e-01
1.152000000000000000e+10,-3.080599210312778315e-03,8.979754929863208515e-03,-7.165564800009337487e-01,1.120477967898929339e-02,9.493476186043882381e-03,7.166440791069045302e-01
1.160000000000000000e+10,-1.169920731925412497e-03,8.720746289810826085e-03,-7.166884073423868129e-01,1.165277566784674729e-02,8.798870971337071842e-03,7.167831334509288110e-01
1.168000000000000191e+10,5.093853101849250570e-04,8.070946756364593203e-03,-7.167777990016972467e-01,1.211762882931309397e-02,8.087005313359473327e-03,7.168802201694244314e-01
1.176000000000000000e+10,1.882955549716682289e-03,7.120850304464791669e-03,-7.168210974124916701e-01,1.259577761624223677e-02,7.365597780275893146e-03,7.169317535926321705e-01
1.184000000000000000e+10,2.898374168709911061e-03,5.983742459815011815e-03,-7.168146907136774271e-01,1.308289943217378140e-02,6.648740230091553655e-03,7.169340716415264492e-01
1.191999999999999809e+10,3.565642076290973916e-03,4.731825627066552596e-03,-7.167550423213224775e-01,1.357374259602056425e-02,5.924860941927698708e-03,7.168835590115760770e-01
1.200000000000000000e+10,3.876337888644386474e-03,3.497056400621990566e-03,-7.166388932276063217e-01,1.406195910349280868e-02,5.220670349301060470e-03,7.167768425251451747e-01
1.208000000000000000e+10,3.878753311540806582e-03,2.353963867536257824e-03,-7.164635528627579797e-01,1.453996195753242716e-02,4.537165760852807095e-03,7.166110751826630931e-01
1.216000000000000000e+10,3.632375475166835753e-03,1.368427759882844333e-03,-7.162272892265528768e-01,1.499884297206850389e-02,3.881590669636801605e-03,7.163843208245954663e-01
1.224000000000000191e+10,3.208468157991186450e-03,5.828606092117525912e-04,-7.159298166756759008e-01,1.542839990976786931e-02,3.260980590346108064e-03,7.160960395987696625e-01
1.232000000000000000e+10,2.655377765743684171e-03,-1.794378002722605246e-05,-7.154249901753511054e-01,1.569437589758677573e-02,2.655438392817198456e-03,7.155971143054001837e-01
1.239999999999999809e+10,2.139080210418553910e-03,-3.623967744369582106e-04,-7.150837532858541623e-01,1.615171198103836081e-02,2.169561146574715878e-03,7.152661406870192140e-01
1.247999999999999809e+10,1.612168458238546695e-03,-5.300811760784138486e-04,-7.146002340342872960e-01,1.638780890546793351e-02,1.697077838807615558e-03,7.147881187894635779e-01
1.256000000000000000e+10,1.191911038980504947e-03,-5.640542570492676445e-04,-7.140546421537964372e-01,1.649764382074092248e-02,1.318639120358177340e-03,7.142451989569283954e-01
1.264000000000000000e+10,7.684737230000694133e-04,-4.621145912964707853e-04,-7.136841922289526297e-01,1.673375408832386904e-02,8.967172120745155010e-04,7.138803434493634636e-01
1.272000000000000000e+10,5.042658834447885131e-04,-3.322980370341589110e-04,-7.131584507389604477e-01,1.675615987708109836e-02,6.039089886920944545e-04,7.133552724654248500e-01
1.280000000000000191e+10,3.313445370295705706e-04,-1.858697300355639749e-04,-7.126452537490451933e-01,1.668808495911559137e-02,3.799167787329666194e-04,7.128406202445561890e-01
1.288000000000000000e+10,2.305443811482899930e-04,-4.954818547818338375e-05,-7.121632422292347719e-01,1.653374597135235866e-02,2.358086816960488423e-04,7.123551420031309922e-01
