# Frequency, Real(S21), Imag(S21), Real(S11), Imag(S11), Amp(S21), Amp(S11)
4.000000000000000000e+09,3.698196599421975871e-05,1.409692338001468435e-04,-7.188282549291504786e-01,6.798401712599625064e-03,1.457394616670381845e-04,7.188604025472077330e-01
4.080000000000000000e+09,2.212795697497903513e-06,1.453584181000568273e-04,-7.187430806354156987e-01,6.949614859952235081e-03,1.453752598530774472e-04,7.187766781887050538e-01
4.160000000000000477e+09,2.101612750906139972e-06,1.463630981329960541e-04,-7.187536074221535509e-01,7.108770779494724343e-03,1.463781857765828517e-04,7.187887609057020954e-01
4.240000000000000000e+09,1.152335037280208984e-06,1.458917115255706567e-04,-7.187035301954444177e-01,7.266975023774991695e-03,1.458962623506800669e-04,7.187402682759539418e-01
4.320000000000000000e+09,3.543026469711814287e-06,1.445412268735911322e-04,-7.187266902821171088e-01,7.429385939208985913e-03,1.445846440763611028e-04,7.187650875629115754e-01
4.400000000000000000e+09,3.773275668065464826e-06,1.428505802070880251e-04,-7.187205426393932228e-01,7.593267019576701270e-03,1.429004054394839918e-04,7.187606528712422449e-01
4.480000000000000000e+09,3.458284397704963959e-06,1.414808766897831952e-04,-7.187288169589675091e-01,7.760588595194336213e-03,1.415231366239635329e-04,7.187707138320126310e-01
4.560000000000000000e+09,3.833953922106956951e-06,1.409215347553691242e-04,-7.187070142981445420e-01,7.927648155744664374e-03,1.409736789634346763e-04,7.187507356564127869e-01
4.640000000000000000e+09,3.721379572596188875e-06,1.415177002470057192e-04,-7.186995460983084394e-01,8.098443878579584393e-03,1.415666208861562697e-04,7.187451720569461022e-01
4.720000000000000000e+09,3.515136993800818684e-06,1.434128081424522786e-04,-7.187050303461564038e-01,8.273260743223423072e-03,1.434558807696255150e-04,7.187526469434355469e-01
4.800000000000000000e+09,3.454795861953541901e-06,1.464086722723025491e-04,-7.186829271673560449e-01,8.448161152046586297e-03,1.464494278957287712e-04,7.187325797740701239e-01
4.880000000000000000e+09,3.397241736087479071e-06,1.503856989562673532e-04,-7.186736369910794453e-01,8.627529608311623396e-03,1.504240662326959178e-04,7.187254209871306587e-01
4.960000000000000000e+09,3.433710376976072270e-06,1.549856975799370460e-04,-7.186635777564601701e-01,8.810254315912764700e-03,1.550237298651166234e-04,7.187175791469321284e-01
5.040000000000000000e+09,3.574885829108409644e-06,1.598664434916233527e-04,-7.186526408894557960e-01,8.996642353374776496e-03,1.599064087625995303e-04,7.187089521016304383e-01
5.120000000000000000e+09,3.814233601627992413e-06,1.647177938019353592e-04,-7.186406939228748847e-01,9.187043051550028774e-03,1.647619494086686293e-04,7.186994147221646978e-01
5.200000000000000000e+09,4.131936895655731290e-06,1.692984159302851860e-04,-7.186275729600006823e-01,9.381855184237236286e-03,1.693488309348887048e-04,7.186888115346440342e-01
5.280000000000000000e+09,4.500459536205212483e-06,1.734528673313367618e-04,-7.186130718749960122e-01,9.581536234224174650e-03,1.735112426371828332e-04,7.186769461352060517e-01
5.360000000000000000e+09,4.890220252290629265e-06,1.771108143576533771e-04,-7.185969264046003779e-01,9.786614118736432916e-03,1.771783136180809983e-04,7.186635655534846512e-01
5.440000000000000000e+09,5.274217219046435338e-06,1.802728213026232528e-04,-7.185787899700731840e-01,9.997701511059282897e-03,1.803499583245896370e-04,7.186483364138254171e-01
5.520000000000000000e+09,5.630850397920292943e-06,1.829883633373716135e-04,-7.185581957573202727e-01,1.021551184855324680e-02,1.830749780638896737e-04,7.186308074194588391e-01
5.600000000000000000e+09,5.944824888879739319e-06,1.853315397670084110e-04,-7.185344956129291472e-01,1.044087272766292679e-02,1.854268604473733283e-04,7.186103486654236150e-01
5.680000000000000000e+09,6.206440395511066313e-06,1.873789026029043178e-04,-7.185067610883202338e-01,1.067472215290483743e-02,1.874816605512436159e-04,7.185860529001868446e-01
5.760000000000000000e+09,6.409952077554960051e-06,1.891921690749001042e-04,-7.184736336170790549e-01,1.091804596634451431e-02,1.893007245757451814e-04,7.185565850583042202e-01
5.840000000000000954e+09,6.551779967966290489e-06,1.908068401442009694e-04,-7.184331586733356811e-01,1.117166835023529481e-02,1.909192920229993483e-04,7.185200133991216376e-01
5.920000000000000000e+09,6.629202756580312682e-06,1.922259809120541348e-04,-7.183827913709398549e-01,1.143584120339807830e-02,1.923402559704786641e-04,7.184738084314087336e-01
6.000000000000000000e+09,6.639376293619229992e-06,1.934170196921556565e-04,-7.183197992455593317e-01,1.170989129683512597e-02,1.935309402244612747e-04,7.184152389407982842e-01
6.080000000000000000e+09,6.577236497833733727e-06,1.943091831641024147e-04,-7.182418044063431095e-01,1.199232460531577012e-02,1.944204688345574925e-04,7.183419140258480162e-01
6.160000000000000000e+09,6.429993852957965879e-06,1.947903984998950800e-04,-7.181469999833854922e-01,1.228121415871507617e-02,1.948964960400699530e-04,7.182520043872825388e-01
6.239999999999999046e+09,6.166578528845514641e-06,1.947040997792471456e-04,-7.180340845173004416e-01,1.257448512117181373e-02,1.948017278198513238e-04,7.181441806522282922e-01
6.320000000000000000e+09,5.721405005882819478e-06,1.938470856302710514e-04,-7.179021410670917147e-01,1.287003813441935443e-02,1.939315010063887978e-04,7.180174942369411673e-01
6.400000000000000954e+09,4.972551360632676223e-06,1.919700808224375759e-04,-7.177505463281087517e-01,1.316578990907655948e-02,1.920344713795086938e-04,7.178712870551575698e-01
6.480000000000000000e+09,3.715070334245793265e-06,1.887830920139615390e-04,-7.175789129308889347e-01,1.345968353376342762e-02,1.888196429875352409e-04,7.177051339957833953e-01
6.560000000000000000e+09,1.630839199056745401e-06,1.839680304022683064e-04,-7.173870537298724370e-01,1.374968943668561545e-02,1.839752587892814941e-04,7.175188072927651817e-01
6.640000000000000000e+09,-1.742861264309190699e-06,1.772011049072430078e-04,-7.171749594049069421e-01,1.403380414712405121e-02,1.772096756549550569e-04,7.173122542214580566e-01
6.720000000000000000e+09,-7.043050066361233592e-06,1.681871901392138161e-04,-7.169427841955530178e-01,1.431004907003586429e-02,1.683345938337136118e-04,7.170855829776932033e-01
6.799999999999999046e+09,-1.510530044889255670e-05,1.567075911166800344e-04,-7.166908369063583750e-01,1.457646989187625156e-02,1.574339201545965693e-04,7.168390538886990626e-01
6.880000000000000000e+09,-2.697824822362656087e-05,1.426815890774589838e-04,-7.164195755889122275e-01,1.483113677989544160e-02,1.452097164065974957e-04,7.165730743651907986e-01
6.960000000000000954e+09,-4.392361662253311009e-05,1.262406797111876276e-04,-7.161296050356753540e-01,1.507214544464811207e-02,1.336637322206211964e-04,7.162881967314951304e-01
7.039999999999999046e+09,-6.739698711128556344e-05,1.078126849123744866e-04,-7.158216765782111635e-01,1.529761922804564328e-02,1.271453062432653690e-04,7.159851184300463078e-01
7.120000000000000000e+09,-9.900475906477056881e-05,8.821157123653397244e-05,-7.154966898478734016e-01,1.550571241135953980e-02,1.326017481690621445e-04,7.156646842625725702e-01
7.200000000000000000e+09,-1.404334911225143764e-04,6.872668430706900988e-05,-7.151556962188597710e-01,1.569461504688829737e-02,1.563487210203551845e-04,7.153278903941548972e-01
7.280000000000000000e+09,-1.933490118149651252e-04,5.120430522280618310e-05,-7.147999036574192999e-01,1.586255964131289692e-02,2.000143025965238873e-04,7.149758898501614723e-01
7.359999999999999046e+09,-2.599075995331181685e-04,4.119765868328606126e-05,-7.143719330872601025e-01,1.627061942758280602e-02,2.631524413264149241e-04,7.145571998373441147e-01
7.440000000000000000e+09,-3.393768230080392262e-04,3.258278040610672896e-05,-7.140495723849964449e-01,1.612877287444563004e-02,3.409373337932097934e-04,7.142317054973348345e-01
7.520000000000000000e+09,-4.343801519824670287e-04,3.841111828262547007e-05,-7.136582879300497062e-01,1.622381180055719463e-02,4.360751431164507259e-04,7.138426745443211541e-01
7.599999999999999046e+09,-5.442538211955742907e-04,6.002349008404580556e-05,-7.132587256560759537e-01,1.629146490968309824e-02,5.475536880049788283e-04,7.134447571840673019e-01
7.680000000000000000e+09,-6.792549039738274459e-04,2.039679205204317919e-04,-7.128529683209487988e-01,1.633036527994289125e-02,7.092179757831316468e-04,7.130399955641787413e-01
7.760000000000000954e+09,-8.036356582114473953e-04,1.708427071288843527e-04,-7.124432877524958796e-01,1.633928481488307674e-02,8.215944874012191378e-04,7.126306269673283733e-01
7.840000000000000000e+09,-9.475600605091457230e-04,2.709307522301065019e-04,-7.120321446911910268e-01,1.631716115634773007e-02,9.855321104743706550e-04,7.122190848480117742e-01
7.919999999999999046e+09,-1.094805131319798695e-03,4.080754859082092161e-04,-7.116221848313247778e-01,1.626312736511852791e-02,1.168385158140663191e-03,7.118079960605965262e-01
8.000000000000000000e+09,-1.238695265906045824e-03,5.872623374353235686e-04,-7.112162301631779204e-01,1.617654390306876716e-02,1.370854848168852986e-03,7.114001733343691125e-01
8.080000000000000000e+09,-1.370829848057705715e-03,8.126329248485011491e-04,-7.108172647329722427e-01,1.605703207039148317e-02,1.593595539299022491e-03,7.109986020530377759e-01
8.159999999999999046e+09,-1.481108917026123083e-03,1.087033782535354494e-03,-7.104284140474351750e-01,1.590450799140883179e-02,1.837206049540283633e-03,7.106064205032225356e-01
8.240000000000000000e+09,-1.557861919796744857e-03,1.411529078371162767e-03,-7.100529174855662040e-01,1.571921587331142831e-02,2.102224559898429029e-03,7.102268928852497609e-01
8.320000000000000954e+09,-1.588095069880449172e-03,1.784896455395172752e-03,-7.096940933190279965e-01,1.550175909061874725e-02,2.389121450964944333e-03,7.098633746199480843e-01
8.400000000000000000e+09,-1.557869605994701388e-03,2.203130435005127598e-03,-7.093552962344351620e-01,1.525312745174401199e-02,2.698284903958062062e-03,7.095192697826482320e-01
8.480000000000000000e+09,-1.452819102050411683e-03,2.658982771105980122e-03,-7.090398676010993828e-01,1.497471882755176120e-02,3.029995498399461629e-03,7.091979808570726407e-01
8.560000000000000000e+09,-1.258808779125630481e-03,3.141574026273555656e-03,-7.087510792312263774e-01,1.466835334164320361e-02,3.384388704767878932e-03,7.089028515256399210e-01
8.640000000000000000e+09,-9.627332942948800369e-04,3.636114655398305258e-03,-7.084920717788634192e-01,1.433627833077473490e-02,3.761407340763056259e-03,7.086371036361867048e-01
8.720000000000000000e+09,-5.534419200232229726e-04,4.123777218126475561e-03,-7.082657895213698707e-01,1.398116250075561416e-02,4.160749512236698415e-03,7.084037701136279841e-01
8.800000000000000000e+09,-2.277091478355682073e-05,4.581763390380457976e-03,-7.080749136191365478e-01,1.360607805169612890e-02,4.581819974637885151e-03,7.082056259708027213e-01
8.880000000000000000e+09,6.333478428089087424e-04,4.983609878237918109e-03,-7.079217964767337001e-01,1.321447005445477128e-02,5.023693552403575222e-03,7.080451201340673961e-01
8.959999999999998093e+09,1.413745319556526745e-03,5.299775747402099904e-03,-7.078084000172120138e-01,1.281011294638721015e-02,5.485097884388160337e-03,7.079243110168097486e-01
9.040000000000000000e+09,2.310898869433984475e-03,5.498548731081000229e-03,-7.077362408374683334e-01,1.239705480163913638e-02,5.964418809307722377e-03,7.078448089535628318e-01
9.120000000000000000e+09,3.309914829826184936e-03,5.547299454103407981e-03,-7.077063450767800967e-01,1.197955073047776361e-02,6.459726574259879069e-03,7.078077284811452596e-01
9.200000000000000000e+09,4.387701569449430246e-03,5.414098201120455360e-03,-7.077192155410914065e-01,1.156198758918492060e-02,6.968815135582572678e-03,7.078136531624056316e-01
9.280000000000000000e+09,5.512441446008351648e-03,5.069687852296507480e-03,-7.077748130521922532e-01,1.114880278830724172e-02,7.489241992043882586e-03,7.078626150565364705e-01
9.360000000000000000e+09,6.643484790027921402e-03,4.489777307086261285e-03,-7.078725532869359904e-01,1.074440049330376706e-02,8.018353348572204720e-03,7.079540902056619123e-01
9.440000000000000000e+09,7.731798189927365297e-03,3.657581252849333078e-03,-7.080113194455806003e-01,1.035306883404333612e-02,8.553280298865399353e-03,7.080870105413277216e-01
9.520000000000000000e+09,8.721098299582501212e-03,2.566484552507928250e-03,-7.081894902353917942e-01,9.978901669605794514e-03,9.090896463454119919e-03,7.082597917137438692e-01
9.600000000000000000e+09,9.549786125719557373e-03,1.222654079774756130e-03,-7.084049816511507336e-01,9.625728315733651091e-03,9.627735873286908178e-03,7.084703752972142388e-01
9.680000000000000000e+09,1.015375905179487052e-02,-3.526376279190243852e-04,-7.086553002882428620e-01,9.297053996307098889e-03,1.015988071674715255e-02,7.087162830354823972e-01
9.760000000000000000e+09,1.051731521984108908e-02,-2.127269394976355216e-03,-7.089376052652104354e-01,8.996013249585448415e-03,1.073029330970519564e-02,7.089946801024378242e-01
9.840000000000000000e+09,1.044166036142996426e-02,-4.027425745976329595e-03,-7.092487754761562790e-01,8.725337423568286024e-03,1.119144446632385111e-02,7.093024439740653886e-01
9.920000000000000000e+09,1.002204290078801026e-02,-5.998032668128319526e-03,-7.095854786679171022e-01,8.487336778309597166e-03,1.167980050314087678e-02,7.096362352797139783e-01
1.000000000000000000e+10,9.181124596547379779e-03,-7.944712163491598339e-03,-7.099442390923589308e-01,8.283896538340241103e-03,1.214131377644357863e-02,7.099925672584793679e-01
1.008000000000000000e+10,7.899045374311901291e-03,-9.773536461024429772e-03,-7.103307531215387050e-01,8.041517898075662210e-03,1.256650041898746753e-02,7.103762699023083993e-01
1.016000000000000000e+10,6.226015327843013696e-03,-1.136061470563787430e-02,-7.107136835337620751e-01,7.986176377061789122e-03,1.295479962610351227e-02,7.107585518129584390e-01
1.024000000000000000e+10,4.174125360700295037e-03,-1.261927767025831058e-02,-7.111172314459517363e-01,7.893672034763273004e-03,1.329170761963719208e-02,7.111610414790363599e-01
1.032000000000000000e+10,1.828902207234267378e-03,-1.344852320185087845e-02,-7.115286502742708130e-01,7.839340904008573058e-03,1.357231224200017468e-02,7.115718343406622903e-01
1.040000000000000000e+10,-7.329453184699427290e-04,-1.375963273767481787e-02,-7.119718081723761527e-01,7.811268219809382185e-03,1.377914010073050949e-02,7.120146568318973523e-01
1.048000000000000000e+10,-3.314285786852069326e-03,-1.353973454882877354e-02,-7.123615928447526446e-01,7.845219021047534005e-03,1.393947279956014515e-02,7.124047911277698875e-01
1.056000000000000000e+10,-5.851929181280310713e-03,-1.273619630846456637e-02,-7.127766431199478170e-01,7.904825455676021961e-03,1.401626810354548308e-02,7.128204747640363159e-01
1.064000000000000000e+10,-8.180345045829774328e-03,-1.138316767531238546e-02,-7.131866278488921962e-01,8.001470789994613239e-03,1.401765142215729773e-02,7.132315119771962530e-01
1.072000000000000000e+10,-1.016634903655392469e-02,-9.541123832291664719e-03,-7.135886011664813733e-01,8.134395122083578483e-03,1.394229883183418540e-02,7.136349627777059945e-01
1.080000000000000000e+10,-1.169593937170343954e-02,-7.306033121096773206e-03,-7.139797183510132594e-01,8.302706181592973272e-03,1.379032696324223109e-02,7.140279918508307677e-01
1.088000000000000000e+10,-1.268443322754504200e-02,-4.802604288440197322e-03,-7.143572186850519756e-01,8.505399806112652616e-03,1.356318009374619070e-02,7.144078510999896103e-01
1.096000000000000000e+10,-1.309932947533170612e-02,-2.185412035670046202e-03,-7.147398326896095000e-01,8.754953000560136353e-03,1.328037870201544818e-02,7.147934510298852295e-01
1.104000000000000000e+10,-1.288778003495804833e-02,4.273859489653817679e-04,-7.150606121749154553e-01,9.009438751522894084e-03,1.289486459715015118e-02,7.151173673395033736e-01
1.112000000000000191e+10,-1.212985306037327876e-02,2.857310749148162399e-03,-7.153811897556104915e-01,9.308311655729104364e-03,1.246184416462686392e-02,7.154417455824289007e-01
1.120000000000000000e+10,-1.088164322667277070e-02,4.986266454749040990e-03,-7.156774582298678355e-01,9.636612840849869896e-03,1.196967052471992546e-02,7.157423338921686806e-01
1.128000000000000000e+10,-9.244819826155494316e-03,6.711658731239302303e-03,-7.159466810405931136e-01,9.992842476578819855e-03,1.142423111385175265e-02,7.160164153102933637e-01
1.135999999999999809e+10,-7.341899692438948882e-03,7.964150117353220593e-03,-7.161860292503210434e-01,1.037534763052614002e-02,1.083195172559278142e-02,7.162611788529349433e-01
1.143999999999999809e+10,-5.305540559201685040e-03,8.711208268542210836e-03,-7.163925495076896022e-01,1.078227290722467806e-02,1.019970147226144548e-02,7.164736857688308591e-01
1.152000000000000000e+10,-3.267650214239483340e-03,8.957278994653001397e-03,-7.165631378995780398e-01,1.121149272211456431e-02,9.534693750229800494e-03,7.166508411810786905e-01
1.160000000000000000e+10,-1.349311687617097116e-03,8.740851022512813664e-03,-7.166945249070791890e-01,1.166052257119202552e-02,8.844383450987603965e-03,7.167893761896985128e-01
1.168000000000000191e+10,3.476717032583215034e-04,8.128934391044041752e-03,-7.167832788653657472e-01,1.212640760298439209e-02,8.136365893145730555e-03,7.168858476928794410e-01
1.176000000000000000e+10,1.747043422384532939e-03,7.209633460586076237e-03,-7.168258377473940568e-01,1.260558806010926569e-02,7.418286551198964573e-03,7.169366656215837574e-01
1.184000000000000000e+10,2.778764936595153837e-03,6.121318610246477207e-03,-7.168360815041818768e-01,1.309712806064128321e-02,6.722505195312275181e-03,7.169557186533258575e-01
1.191999999999999809e+10,3.529016894939145631e-03,4.799999270448340044e-03,-7.168746766856755048e-01,1.362355457948455015e-02,5.957680189559567616e-03,7.170041166636157426e-01
1.200000000000000000e+10,3.840544421996991160e-03,3.622675579672298991e-03,-7.166406996724926648e-01,1.407489063903339700e-02,5.279541629051353983e-03,7.167789024333658388e-01
1.208000000000000000e+10,3.874565066282609563e-03,2.473199544846103708e-03,-7.164640798469753546e-01,1.455394674385839145e-02,4.596625984511306696e-03,7.166118859444045031e-01
1.216000000000000000e+10,3.654813034620367149e-03,1.473905787818930065e-03,-7.162263362304641667e-01,1.501387979917059509e-02,3.940819278956734367e-03,7.163836830196077532e-01
1.224000000000000191e+10,3.250933379231932437e-03,6.693368789969437842e-04,-7.159271410479667308e-01,1.544446995759490848e-02,3.319123332114930821e-03,7.160937110053309240e-01
1.232000000000000000e+10,2.737091017949388593e-03,7.951298322361657206e-05,-7.155681679580339072e-01,1.583438338953110230e-02,2.738245707572704250e-03,7.157433413536892219e-01
1.239999999999999809e+10,2.189497685489021767e-03,-3.107511013506233759e-04,-7.151788656062747496e-01,1.620965736145050379e-02,2.211439884272780373e-03,7.153625394173597218e-01
1.247999999999999809e+10,1.652166183878554578e-03,-4.900450114477289832e-04,-7.146910233692060910e-01,1.644406020699920243e-02,1.723309958306000868e-03,7.148801759739981110e-01
1.256000000000000000e+10,1.168683165387629161e-03,-5.422533846272299413e-04,-7.140039236794045729e-01,1.658040368195817099e-02,1.288355181694914031e-03,7.141964105313338695e-01
1.264000000000000000e+10,7.914501276879849345e-04,-5.527075509567155182e-04,-7.132737795880835785e-01,1.638579435935877751e-02,9.653387703298247149e-04,7.134619673848475729e-01
1.272000000000000000e+10,5.368506059858867531e-04,-3.451355354180116251e-04,-7.131378956345196807e-01,1.677440655094027122e-02,6.382218352232172081e-04,7.133351518782509171e-01
1.280000000000000191e+10,3.539029246925087758e-04,-2.014967550114658465e-04,-7.126204421595417893e-01,1.670486788993052335e-02,4.072446714029076824e-04,7.128162085663323211e-01
1.288000000000000000e+10,2.448842535665892296e-04,-6.481219662554004368e-05,-7.121340732224415992e-01,1.654812853635517778e-02,2.533158472663983129e-04,7.123263148322133143e-01
