# Frequency, Real(S21), Imag(S21), Real(S11), Imag(S11), Amp(S21), Amp(S11)
4.000000000000000000e+09,3.698535355243662775e-05,1.409686782921813156e-04,-7.188282565237658073e-01,6.798261963996269849e-03,1.457397839879120060e-04,7.188604028201358576e-01
4.080000000000000000e+09,2.217119612733981484e-06,1.453558021626717700e-04,-7.187430859095497171e-01,6.949469277105946481e-03,1.453727100996983924e-04,7.187766820550147706e-01
4.160000000000000477e+09,2.105333867360658283e-06,1.463603885439541735e-04,-7.187536134118209796e-01,7.108617437120786850e-03,1.463755299407325391e-04,7.187887653785476338e-01
4.240000000000000000e+09,1.155525967432866506e-06,1.458890308846820581e-04,-7.187035363084780526e-01,7.266817161037913975e-03,1.458936070317446343e-04,7.187402727925880086e-01
4.320000000000000000e+09,3.545751137813487999e-06,1.445381608711892988e-04,-7.187266971676000704e-01,7.429219833094438848e-03,1.445816457893501269e-04,7.187650927311199922e-01
4.400000000000000000e+09,3.775746338784263857e-06,1.428473245908118937e-04,-7.187205501775553174e-01,7.593093306121252890e-03,1.428972162190978942e-04,7.187606585738282039e-01
4.480000000000000000e+09,3.460707136474422529e-06,1.414774103355405984e-04,-7.187288251919262683e-01,7.760405141739088949e-03,1.415197305294755604e-04,7.187707200837625265e-01
4.560000000000000000e+09,3.836515148691008553e-06,1.409178780969606555e-04,-7.187070233617285364e-01,7.927457881193877148e-03,1.409700933383957152e-04,7.187507426207879746e-01
4.640000000000000000e+09,3.724205322915703065e-06,1.415138497073041503e-04,-7.186995560548795625e-01,8.098244572693541130e-03,1.415628459881642038e-04,7.187451797672386178e-01
4.720000000000000000e+09,3.518267070042208529e-06,1.434087170860302916e-04,-7.187050409217149438e-01,8.273049752259417286e-03,1.434518676749704260e-04,7.187526550896958799e-01
4.800000000000000000e+09,3.458184446722810372e-06,1.464044791175235852e-04,-7.186829392353198953e-01,8.447942054797416556e-03,1.464453158873337175e-04,7.187325892659103266e-01
4.880000000000000000e+09,3.400749745564053040e-06,1.503813638308844965e-04,-7.186736503111830210e-01,8.627299642625985143e-03,1.504198114826262099e-04,7.187254315458193599e-01
4.960000000000000000e+09,3.437135435767383464e-06,1.549812403686860274e-04,-7.186635924880608872e-01,8.810012749225886938e-03,1.550193496510040333e-04,7.187175909162702991e-01
5.040000000000000000e+09,3.577986746043870246e-06,1.598618830605935811e-04,-7.186526572194154028e-01,8.996388378356348983e-03,1.599019188278669808e-04,7.187089652511514659e-01
5.120000000000000000e+09,3.816754680816330078e-06,1.647131474846845467e-04,-7.186407120718395491e-01,9.186775774983885548e-03,1.647573627204713834e-04,7.186994294531340310e-01
5.200000000000000000e+09,4.133633777035926618e-06,1.692936999641601946e-04,-7.186275931913806980e-01,9.381573612948192892e-03,1.693441577845475907e-04,7.186888280886879476e-01
5.280000000000000000e+09,4.501110407327402947e-06,1.734480986002901067e-04,-7.186130945068357478e-01,9.581239257772593276e-03,1.735064923942470413e-04,7.186769648057498294e-01
5.360000000000000000e+09,4.889631254166557839e-06,1.771060080266531351e-04,-7.185969518262134148e-01,9.786300489073626596e-03,1.771734928620493288e-04,7.186635867018641433e-01
5.440000000000000000e+09,5.272219483390372658e-06,1.802679956100048807e-04,-7.185788186656862919e-01,9.997369816830692368e-03,1.803450762830241094e-04,7.186483604922700996e-01
5.520000000000000000e+09,5.627291562028663583e-06,1.829835361849349454e-04,-7.185582283410040239e-01,1.021516048490903224e-02,1.830700437675904300e-04,7.186308350052166283e-01
5.600000000000000000e+09,5.939558852264343823e-06,1.853267269785611245e-04,-7.185345328816097332e-01,1.044049986092875429e-02,1.854218813731153186e-04,7.186103805127915800e-01
5.680000000000000000e+09,6.199316868153530520e-06,1.873741146138478979e-04,-7.185068041040046927e-01,1.067432568657515277e-02,1.874766394966455036e-04,7.185860900216575198e-01
5.760000000000000000e+09,6.400811436722584499e-06,1.891874018802857261e-04,-7.184736838335243903e-01,1.091762352361683869e-02,1.892956508144368977e-04,7.185566288503075771e-01
5.840000000000000954e+09,6.540449556074526058e-06,1.908020647703201366e-04,-7.184332181131811712e-01,1.117121731486200864e-02,1.909141309620977290e-04,7.185200658191513989e-01
5.920000000000000000e+09,6.615497951123922082e-06,1.922211202136061474e-04,-7.183828628086550427e-01,1.143535887995920236e-02,1.923349262856721665e-04,7.184738721831660513e-01
6.000000000000000000e+09,6.623100366712657111e-06,1.934119143190270607e-04,-7.183198862869216716e-01,1.170937517550546710e-02,1.935252801548630140e-04,7.184153175582052020e-01
6.080000000000000000e+09,6.558171466958337092e-06,1.943035404331031350e-04,-7.182419114137901239e-01,1.199177262439799982e-02,1.944141852793374850e-04,7.183420118035767077e-01
6.160000000000000000e+09,6.407871374240038774e-06,1.947837221611651453e-04,-7.181471319234590256e-01,1.228062486750844395e-02,1.948890947039027708e-04,7.182521262321653888e-01
6.239999999999999046e+09,6.141016200490551986e-06,1.946956019080315194e-04,-7.180342468076319484e-01,1.257385776468530718e-02,1.947924266554153445e-04,7.181443319331356490e-01
6.320000000000000000e+09,5.691792271237130997e-06,1.938355886701630744e-04,-7.179023394442743955e-01,1.286937269632317492e-02,1.939191376176357907e-04,7.180176806549815050e-01
6.400000000000000954e+09,4.937870778184608568e-06,1.919539336865424661e-04,-7.177507867334820268e-01,1.316508713508765874e-02,1.920174346916435489e-04,7.178715145315398560e-01
6.480000000000000000e+09,3.673640870226763523e-06,1.887601041820239852e-04,-7.175792014069862779e-01,1.345894494400670313e-02,1.887958489163677411e-04,7.177054085701835007e-01
6.560000000000000000e+09,1.579975706029934017e-06,1.839354744326931166e-04,-7.173873963233812212e-01,1.374891733128779173e-02,1.839422601742501809e-04,7.175191350280650804e-01
6.640000000000000000e+09,-1.807271335535709728e-06,1.771558105190201122e-04,-7.171753620735439316e-01,1.403300160323746500e-02,1.771650288017677898e-04,7.173126411121689694e-01
6.720000000000000000e+09,-7.127034166361473182e-06,1.681257854367593674e-04,-7.169432527177744818e-01,1.430921993223469892e-02,1.682767789825314469e-04,7.170860348609583435e-01
6.799999999999999046e+09,-1.521733434912446383e-05,1.566269242256111780e-04,-7.166913767933801305e-01,1.457561875418359083e-02,1.573644199209859294e-04,7.168395763572614765e-01
6.880000000000000000e+09,-2.712977411444025106e-05,1.425793832814859136e-04,-7.164201919993008483e-01,1.483026896107593300e-02,1.451375388396448495e-04,7.165736726825602254e-01
6.960000000000000954e+09,-4.412948956094607327e-05,1.261164486388972829e-04,-7.161303026936706173e-01,1.507126695324558646e-02,1.336142599657583912e-04,7.162888757503528270e-01
7.039999999999999046e+09,-6.767576134606153129e-05,1.076689457338860065e-04,-7.158224596941864526e-01,1.529673672207959231e-02,1.271715791724533295e-04,7.159858825123438519e-01
7.120000000000000000e+09,-9.937870970290902653e-05,8.805533135192724302e-05,-7.154975620449783857e-01,1.550483314873386115e-02,1.327775181335784881e-04,7.156655372052491693e-01
7.200000000000000000e+09,-1.409282523862293371e-04,6.857120008442948457e-05,-7.151566604648685876e-01,1.569374682500381327e-02,1.567251792203652749e-04,7.153288353594244864e-01
7.280000000000000000e+09,-1.939927085752817643e-04,5.107103235726698459e-05,-7.148009622023362430e-01,1.586171073454386432e-02,2.006026453624458309e-04,7.149769293010873605e-01
7.359999999999999046e+09,-2.589206538526934998e-04,1.838212056868132583e-04,-7.143731249969508257e-01,1.626995059275590863e-02,3.175376208446174212e-04,7.145583762088300039e-01
7.440000000000000000e+09,-3.404044749871438982e-04,3.260121327190327939e-05,-7.140508231486599744e-01,1.612798895677757319e-02,3.419620530089167716e-04,7.142329382400876003e-01
7.520000000000000000e+09,-4.356372416208033381e-04,3.858517563854840749e-05,-7.136596349459721766e-01,1.622307412732762813e-02,4.373426826483321913e-04,7.138440044473014501e-01
7.599999999999999046e+09,-5.457556174718427352e-04,6.042610022611465993e-05,-7.132601678606469431e-01,1.629078288607787098e-02,5.490906187421241763e-04,7.134461834389750345e-01
7.680000000000000000e+09,-6.809602755114239903e-04,2.046531359793814621e-04,-7.128545037629822057e-01,1.632974838463737213e-02,7.110483829464698223e-04,7.130415164753544088e-01
7.760000000000000954e+09,-8.056149751285623852e-04,1.719824726778900956e-04,-7.124449135912422904e-01,1.633874251487795956e-02,8.237678429386495341e-04,7.126322399449804834e-01
7.840000000000000000e+09,-9.497289701048084939e-04,2.726064911858308310e-04,-7.120338572050091130e-01,1.631670282955142298e-02,9.880786485361328728e-04,7.122207864121007370e-01
7.919999999999999046e+09,-1.097091650556252223e-03,4.104116299450887798e-04,-7.116239794384803252e-01,1.626276222506283300e-02,1.171344439400480572e-03,7.118097818568157598e-01
8.000000000000000000e+09,-1.240990231074902677e-03,5.903860093308789872e-04,-7.112181014442798821e-01,1.617628093353044860e-02,1.374267948268088381e-03,7.114020381520188563e-01
8.080000000000000000e+09,-1.372981399494294964e-03,8.166657183615028256e-04,-7.108192064615594941e-01,1.605687997602967682e-02,1.597504559900916887e-03,7.110005398515572006e-01
8.159999999999999046e+09,-1.482918285578392484e-03,1.092081222764527048e-03,-7.104304192205230795e-01,1.590447515300966522e-02,1.841653615319021817e-03,7.106084244390442617e-01
8.240000000000000000e+09,-1.559081237367866170e-03,1.417667810987970631e-03,-7.100549783483052213e-01,1.571931031911437404e-02,2.107253265989624761e-03,7.102289553335042749e-01
8.320000000000000954e+09,-1.588427999925334268e-03,1.792159403065953643e-03,-7.096962013829150040e-01,1.550198847689434993e-02,2.394773232885425568e-03,7.098654871904090946e-01
8.400000000000000000e+09,-1.556975605568155889e-03,2.211490382851806664e-03,-7.093574422814127312e-01,1.525349904972788349e-02,2.704600293903030098e-03,7.095214233222897349e-01
8.480000000000000000e+09,-1.450322111649000791e-03,2.668335107787413521e-03,-7.090420416705280893e-01,1.497523951506051464e-02,3.037012755157423530e-03,7.092001654362781737e-01
8.560000000000000000e+09,-1.254311052098736924e-03,3.151719637940360134e-03,-7.087532705861600002e-01,1.466902958998831177e-02,3.392142817098943094e-03,7.089050564043752889e-01
8.640000000000000000e+09,-9.558348911733560542e-04,3.646744263024187006e-03,-7.084942688528699239e-01,1.433711618476780567e-02,3.769928919632862564e-03,7.086393172114134886e-01
8.720000000000000000e+09,-5.437661571221605490e-04,4.134458728364202862e-03,-7.082679798432691687e-01,1.398216753247345789e-02,4.170063621838202353e-03,7.084059798450120793e-01
8.800000000000000000e+09,-9.995668871339989832e-06,4.591934089678794545e-03,-7.080770837201543211e-01,1.360725529392447369e-02,4.591944968893943956e-03,7.082078182894286922e-01
8.880000000000000000e+09,6.494535391021010991e-04,4.992575483828528421e-03,-7.079239317854891800e-01,1.321582389240099492e-02,5.034639993204867783e-03,7.080472803392304781e-01
8.959999999999998093e+09,1.433280550586896272e-03,5.306718423642151940e-03,-7.078104847539209432e-01,1.281164696723606673e-02,5.496867613879173955e-03,7.079264231723474410e-01
9.040000000000000000e+09,2.333787807158591628e-03,5.502546126038441489e-03,-7.077382579187397882e-01,1.239877159061435891e-02,5.977004215995063152e-03,7.078468557949586515e-01
9.120000000000000000e+09,3.335864034982713791e-03,5.547356567755627049e-03,-7.077082760412143347e-01,1.198145161539888696e-02,6.473110052340577854e-03,7.078096913436829896e-01
9.200000000000000000e+09,4.416161030919785006e-03,5.409193413415839397e-03,-7.077210405191011189e-01,1.156407233038835199e-02,6.982968683501008383e-03,7.078155119537163920e-01
9.280000000000000000e+09,5.542573554195658406e-03,5.058833653430652895e-03,-7.077765107932982858e-01,1.115106922353958918e-02,7.504126833732997423e-03,7.078643482868479664e-01
9.360000000000000000e+09,6.674146112975181018e-03,4.472095166439518134e-03,-7.078741012616613926e-01,1.074684414249584517e-02,8.033919436678053569e-03,7.079556750927474829e-01
9.440000000000000000e+09,7.761539326101052870e-03,3.632388680406562972e-03,-7.080126940401345603e-01,1.035568248339960133e-02,8.569465574711117306e-03,7.080884232083350938e-01
9.520000000000000000e+09,8.748187165316589561e-03,2.533390237427430962e-03,-7.081906670480740962e-01,9.981674955009732161e-03,9.107625638688852943e-03,7.082610074886966922e-01
9.600000000000000000e+09,9.572259486790473879e-03,1.181655857782980268e-03,-7.084059359018670676e-01,9.628647326278163068e-03,9.644918986113000872e-03,7.084713691253401446e-01
9.680000000000000000e+09,1.016950588243486706e-02,-4.010606738020246588e-04,-7.086560073411997118e-01,9.300100934375355247e-03,1.017741124043574676e-02,7.087170300043311721e-01
9.760000000000000000e+09,1.047699202006720925e-02,-2.176078372039317015e-03,-7.089380412548403898e-01,8.999166169315724051e-03,1.070059245414987578e-02,7.089951560694844890e-01
9.840000000000000000e+09,1.048816931030966369e-02,-4.093321946180962165e-03,-7.092489180383253489e-01,8.728570084979368759e-03,1.125864023924772958e-02,7.093026262987213171e-01
9.920000000000000000e+09,9.956154018828921107e-03,-6.084393748147350067e-03,-7.098912213121197912e-01,8.424819534221009501e-03,1.166811253498773251e-02,7.099412114254229911e-01
1.000000000000000000e+10,9.150603095791109629e-03,-8.006398307509748208e-03,-7.099437377139696803e-01,8.287192930472000313e-03,1.215878081368345145e-02,7.099921043828224532e-01
1.008000000000000000e+10,7.865161025852555193e-03,-9.825564695319807113e-03,-7.103206559112124063e-01,8.119758118734119248e-03,1.258580468402815435e-02,7.103670633454521877e-01
1.016000000000000000e+10,6.166835393477943655e-03,-1.141136245347599588e-02,-7.107124871074814720e-01,7.989383160428568942e-03,1.297108522116996801e-02,7.107573915013378762e-01
1.024000000000000000e+10,4.101976575398044549e-03,-1.265905366334798068e-02,-7.111156806246551332e-01,7.896768881772816412e-03,1.330706021165599905e-02,7.111595251341562562e-01
1.032000000000000000e+10,1.746044857431064716e-03,-1.347383284121840552e-02,-7.115267482984597436e-01,7.842281883964095923e-03,1.358649491507125592e-02,7.115699648870287275e-01
1.040000000000000000e+10,-7.986002028525869458e-04,-1.377972876861476015e-02,-7.119422924216403104e-01,7.825991707165936076e-03,1.380285069181672389e-02,7.119853045427138039e-01
1.048000000000000000e+10,-3.407882586916629545e-03,-1.352797214716139861e-02,-7.123590238885328940e-01,7.847708913051816559e-03,1.395061626382806605e-02,7.124022497512253471e-01
1.056000000000000000e+10,-5.944022304812275441e-03,-1.270374054327588417e-02,-7.127737712477623111e-01,7.907022058986350188e-03,1.402556326679885168e-02,7.128176274311674998e-01
1.064000000000000000e+10,-8.265798798731814612e-03,-1.133024455910628878e-02,-7.131834816415150158e-01,8.003331998859426408e-03,1.402490183745590258e-02,7.132283868505214786e-01
1.072000000000000000e+10,-1.024007769608846138e-02,-9.469362391673093529e-03,-7.135852147019798863e-01,8.135882309891281569e-03,1.394733004294231027e-02,7.136315934866050981e-01
1.080000000000000000e+10,-1.175332351151926920e-02,-7.218444225023804353e-03,-7.139761304573550849e-01,8.303784953560272228e-03,1.379298918277728318e-02,7.140244167445628509e-01
1.088000000000000000e+10,-1.272172332819139842e-02,-4.703426802675558099e-03,-7.143534720674477034e-01,8.506040532589203076e-03,1.356335018080621728e-02,7.144041123764335310e-01
1.096000000000000000e+10,-1.309867669008406635e-02,-2.068924963437752083e-03,-7.147145441273572430e-01,8.741552535131688617e-03,1.326106260959835671e-02,7.147680003524923276e-01
1.104000000000000000e+10,-1.287874553240221133e-02,5.336047452773053871e-04,-7.150566870431122046e-01,9.009134774241514890e-03,1.288979520832477660e-02,7.151134386895912076e-01
1.112000000000000191e+10,-1.209763909549826238e-02,2.958284027381334440e-03,-7.153772479762661174e-01,9.307511022639622031e-03,1.245408832759698804e-02,7.154377937204133842e-01
1.120000000000000000e+10,-1.082833543450945762e-02,5.076442292471650651e-03,-7.156735489946689510e-01,9.635305480019763780e-03,1.195922717532566827e-02,7.157384074103597671e-01
1.128000000000000000e+10,-9.173914399260230806e-03,6.786256204716459121e-03,-7.159428533891399882e-01,9.991022224776510349e-03,1.141113397875105281e-02,7.160125626300697377e-01
1.135999999999999809e+10,-7.258022887142169879e-03,8.019527424261964355e-03,-7.161823317254999433e-01,1.037301151588410075e-02,1.081627090723828385e-02,7.162574478800780575e-01
1.143999999999999809e+10,-5.214073599859587842e-03,8.745129371331924334e-03,-7.163890300668982469e-01,1.077942033919845541e-02,1.018154463851556404e-02,7.164701238035263708e-01
1.152000000000000000e+10,-3.174295722985357934e-03,8.969056625294733950e-03,-7.165598440957479109e-01,1.120812463268243409e-02,9.514206750155605047e-03,7.166474950966509327e-01
1.160000000000000000e+10,-1.259641565532141011e-03,8.731356147687269545e-03,-7.166915043838433252e-01,1.165664055341279412e-02,8.821750226081701701e-03,7.167862929248632886e-01
1.168000000000000191e+10,4.286470928707888494e-04,8.100474659915694875e-03,-7.167805802102663604e-01,1.212201309685755415e-02,8.111807939427737382e-03,7.168830751022696735e-01
1.176000000000000000e+10,1.815248204437939442e-03,7.165713556752188393e-03,-7.168235117477878005e-01,1.260068165394114675e-02,7.392061743596117090e-03,7.169342537308249774e-01
1.184000000000000000e+10,2.854420472791324194e-03,6.028553900476427661e-03,-7.168166830976903103e-01,1.308832506478740422e-02,6.670170789900345225e-03,7.169361627231367606e-01
1.191999999999999809e+10,3.531011816911384157e-03,4.793617344118459439e-03,-7.167565512943836481e-01,1.357969319091189078e-02,5.953722507221943100e-03,7.168851804093718805e-01
1.200000000000000000e+10,3.881494238184341698e-03,3.505382552504183926e-03,-7.167373480825138810e-01,1.412132989971199779e-02,5.230076898140121472e-03,7.168764454872899039e-01
1.208000000000000000e+10,3.866067099547724172e-03,2.366278611341822956e-03,-7.162948440878629253e-01,1.448604130204104480e-02,4.532741916842292045e-03,7.164413088728625034e-01
1.216000000000000000e+10,3.643999155850331535e-03,1.421040288676326483e-03,-7.162268668993747589e-01,1.500638937920397743e-02,3.911276690529478205e-03,7.163840566279340294e-01
1.224000000000000191e+10,3.230028445400408635e-03,6.258775046274432912e-04,-7.159285331293645527e-01,1.543647105060565010e-02,3.290107355223299574e-03,7.160949302901534752e-01
1.232000000000000000e+10,2.709784038041230560e-03,4.688491555942847673e-05,-7.155705661274920359e-01,1.582590277116712948e-02,2.710189611102893116e-03,7.157455513704167327e-01
1.239999999999999809e+10,2.154032443066471268e-03,-3.207112096752756224e-04,-7.151572512262541759e-01,1.616268265279831653e-02,2.177776720831198741e-03,7.153398676797112499e-01
1.247999999999999809e+10,1.622693004267892602e-03,-5.015906185159928719e-04,-7.146959687001736006e-01,1.643481944451095911e-02,1.698448037086567729e-03,7.148849074966215911e-01
1.256000000000000000e+10,1.192604751518003096e-03,-5.711901303472819704e-04,-7.140107566725526489e-01,1.657078566196601779e-02,1.322332884847632730e-03,7.142030184629339917e-01
1.264000000000000000e+10,7.198919530485263377e-04,-5.113358945871906980e-04,-7.135344242890996336e-01,1.660985336123962236e-02,8.830112236870515810e-04,7.137277225064603270e-01
1.272000000000000000e+10,5.204082330560112117e-04,-3.388406211753316327e-04,-7.131481926099082491e-01,1.676537401071592770e-02,6.209973394395214980e-04,7.133452336621434187e-01
1.280000000000000191e+10,3.424739315873573170e-04,-1.937403286444753744e-04,-7.126328541619147972e-01,1.669657294606055262e-02,3.934764399048197364e-04,7.128284228193345617e-01
1.288000000000000000e+10,2.375872168915872510e-04,-5.718471729319212805e-05,-7.121486491846891198e-01,1.654103685564644113e-02,2.443722110269341244e-04,7.123407221518627264e-01
