# Frequency, Real(S21), Imag(S21), Real(S11), Imag(S11), Amp(S21), Amp(S11)
4.000000000000000000e+09,3.794014481031452287e-05,1.405017396675983994e-04,-7.188499073536578354e-01,6.802147808855980166e-03,1.455341658781512005e-04,7.188820894396911187e-01
4.080000000000000000e+09,2.207387536103244347e-06,1.453616995579193165e-04,-7.187430739440369143e-01,6.949798846851997468e-03,1.453784587141483881e-04,7.187766732765713540e-01
4.160000000000000477e+09,2.096959142893865203e-06,1.463664934237717723e-04,-7.187535998178048446e-01,7.108964550773641707e-03,1.463815139791155144e-04,7.187887552181358997e-01
4.240000000000000000e+09,1.148345623645658157e-06,1.458950729088433489e-04,-7.187035224606392880e-01,7.267174531770320862e-03,1.458995921747146803e-04,7.187402625587395733e-01
4.320000000000000000e+09,3.539619152775474732e-06,1.445450730711684932e-04,-7.187266815508895901e-01,7.429595845366096345e-03,1.445884056655170934e-04,7.187650810018384462e-01
4.400000000000000000e+09,3.770185996014864099e-06,1.428546666210692834e-04,-7.187205330821252458e-01,7.593486532710808611e-03,1.429044088818164928e-04,7.187606456335632332e-01
4.480000000000000000e+09,3.455255127468635950e-06,1.414852247324042674e-04,-7.187288065108459190e-01,7.760820388014704439e-03,1.415274093791546689e-04,7.187707058872112587e-01
4.560000000000000000e+09,3.830750852859662038e-06,1.409261272645940578e-04,-7.187070028105947417e-01,7.927888582582049565e-03,1.409781827017686083e-04,7.187507268214523570e-01
4.640000000000000000e+09,3.717845164764645589e-06,1.415225413039047670e-04,-7.186995334809482827e-01,8.098695710024389482e-03,1.415713674080482977e-04,7.187451622779358340e-01
4.720000000000000000e+09,3.511221763918789139e-06,1.434179584107823631e-04,-7.187050169276514300e-01,8.273527306149238911e-03,1.434609336125773149e-04,7.187526365941632189e-01
4.800000000000000000e+09,3.450556647205400847e-06,1.464139482340179939e-04,-7.186829118790379889e-01,8.448437976255655790e-03,1.464546024495279450e-04,7.187325677407221391e-01
4.880000000000000000e+09,3.392852662654270025e-06,1.503911558504831712e-04,-7.186736201189753981e-01,8.627820157208655402e-03,1.504294226779947293e-04,7.187254076040295869e-01
4.960000000000000000e+09,3.429424668620680603e-06,1.549913102239404970e-04,-7.186635590990827493e-01,8.810559514780285165e-03,1.550292462682171049e-04,7.187175642322402025e-01
5.040000000000000000e+09,3.571006022322094676e-06,1.598721886540339671e-04,-7.186526202107417216e-01,8.996963221677584457e-03,1.599120658019353080e-04,7.187089354411678732e-01
5.120000000000000000e+09,3.811077912445243875e-06,1.647236499591916395e-04,-7.186406709438925011e-01,9.187380717777490421e-03,1.647677309752520244e-04,7.186993960614836974e-01
5.200000000000000000e+09,4.129811824269010410e-06,1.693043631463316944e-04,-7.186275473478104248e-01,9.382210903060593521e-03,1.693547245461100989e-04,7.186887905683231326e-01
5.280000000000000000e+09,4.499642429804187209e-06,1.734588859380787359e-04,-7.186130432276309765e-01,9.581911408144516695e-03,1.735172380280285067e-04,7.186769224923745814e-01
5.360000000000000000e+09,4.890953493432339185e-06,1.771168838003035610e-04,-7.185968942300597906e-01,9.787010324424361141e-03,1.771844009872346171e-04,7.186635387774853445e-01
5.440000000000000000e+09,5.276711978641408772e-06,1.802789201705597816e-04,-7.185787536563953415e-01,9.998120531402166292e-03,1.803561275564781084e-04,7.186483059331170153e-01
5.520000000000000000e+09,5.635297018078035503e-06,1.829944698361218207e-04,-7.185581545284863703e-01,1.021595571140493028e-02,1.830812184880941306e-04,7.186307725045466555e-01
5.600000000000000000e+09,5.951406230240101907e-06,1.853376338590475973e-04,-7.185344484618930716e-01,1.044134374970839656e-02,1.854331625157369906e-04,7.186103083631186772e-01
5.680000000000000000e+09,6.215343345225074890e-06,1.873849719233129565e-04,-7.185067066730889129e-01,1.067522298329677023e-02,1.874880214723058445e-04,7.185860059310585912e-01
5.760000000000000000e+09,6.421376220586564993e-06,1.891982174900322367e-04,-7.184735701007756159e-01,1.091857960804618229e-02,1.893071566897877405e-04,7.185565296579047301e-01
5.840000000000000954e+09,6.565940861523016577e-06,1.908129052012451799e-04,-7.184330835002300519e-01,1.117223810969310456e-02,1.909258399765112989e-04,7.185199470940443200e-01
5.920000000000000000e+09,6.646330566351484288e-06,1.922321580975181756e-04,-7.183827010349448372e-01,1.143645048914973365e-02,1.923470205561459714e-04,7.184737278050281617e-01
6.000000000000000000e+09,6.659716204471513458e-06,1.934235064986368903e-04,-7.183196891895033964e-01,1.171054328157191717e-02,1.935381220487383195e-04,7.184151395267601714e-01
6.080000000000000000e+09,6.601059872760284401e-06,1.943163443670080956e-04,-7.182416691154407395e-01,1.199302189770851991e-02,1.944284333105665888e-04,7.183417903950550798e-01
6.160000000000000000e+09,6.457634536030672478e-06,1.947988541674760762e-04,-7.181468331774543135e-01,1.228195859542301899e-02,1.949058609399998115e-04,7.182518503350660000e-01
6.239999999999999046e+09,6.198512292385788082e-06,1.947148309821020509e-04,-7.180338793437640588e-01,1.257527765963595626e-02,1.948134670884623971e-04,7.181439893876937486e-01
6.320000000000000000e+09,5.758390879714983318e-06,1.938615576780572771e-04,-7.179018902675312619e-01,1.287087879776871273e-02,1.939470613618219058e-04,7.180172585465626200e-01
6.400000000000000954e+09,5.015854707996291839e-06,1.919903525410174120e-04,-7.177502423828268086e-01,1.316667775571371893e-02,1.920558623611262779e-04,7.178709994446978992e-01
6.480000000000000000e+09,3.766782005847708805e-06,1.888118933959378413e-04,-7.175785481896872486e-01,1.346061664085987548e-02,1.888494631563419944e-04,7.177047868186273716e-01
6.560000000000000000e+09,1.694299222202626330e-06,1.840087610921148321e-04,-7.173866205351456804e-01,1.375066489222631638e-02,1.840165612343338901e-04,7.175183928707440373e-01
6.640000000000000000e+09,-1.662538067292488827e-06,1.772577172035910589e-04,-7.171744502097595619e-01,1.403481805357231077e-02,1.772655136823106273e-04,7.173117649610020186e-01
6.720000000000000000e+09,-6.938362316803655143e-06,1.682638893300717549e-04,-7.169421916787438454e-01,1.431109655538279589e-02,1.684068802754860080e-04,7.170850114831143207e-01
6.799999999999999046e+09,-1.496570456364777041e-05,1.568083045369419765e-04,-7.166901540834619277e-01,1.457754513087324184e-02,1.575208452390880270e-04,7.168383930721198283e-01
6.880000000000000000e+09,-2.678950559709253050e-05,1.428091892566958805e-04,-7.164187959218063506e-01,1.483223302636175155e-02,1.453001794434247542e-04,7.165723175553176949e-01
6.960000000000000954e+09,-4.366724246789572389e-05,1.263957836774713445e-04,-7.161287225371448795e-01,1.507325507363533809e-02,1.337262958291753653e-04,7.162873377780720752e-01
7.039999999999999046e+09,-6.704988790626661955e-05,1.079922087289535740e-04,-7.158206859124190968e-01,1.529873378751939877e-02,1.271141401040843972e-04,7.159841518047920239e-01
7.120000000000000000e+09,-9.853920877760373887e-05,8.840681613131218296e-05,-7.154955864247526387e-01,1.550682268513601039e-02,1.323848209010074467e-04,7.156636051547465849e-01
7.200000000000000000e+09,-1.398175731713293074e-04,6.892119321717695823e-05,-7.151544762828465629e-01,1.569571112812215286e-02,1.558816366413935954e-04,7.153266948012005910e-01
7.280000000000000000e+09,-1.925476936053754440e-04,5.137150697758771168e-05,-7.147985643662767563e-01,1.586363101423549776e-02,1.992828292701051746e-04,7.149745746591595896e-01
7.359999999999999046e+09,-2.582412343708080627e-04,3.821344894197207989e-05,-7.144292220844760122e-01,1.600886567670639637e-02,2.610532566535022931e-04,7.146085621852598102e-01
7.440000000000000000e+09,-3.380973906968586396e-04,3.256207928652111918e-05,-7.140479898495674105e-01,1.612976131538013808e-02,3.396617944418918282e-04,7.142301456871580356e-01
7.520000000000000000e+09,-4.328148796536677306e-04,3.819736187910834470e-05,-7.136565836354729075e-01,1.622474128740971147e-02,4.344971329066999116e-04,7.138409918154728917e-01
7.599999999999999046e+09,-5.423835290605153554e-04,5.952603500637763771e-05,-7.132569009958974471e-01,1.629232347188259641e-02,5.456402124474692443e-04,7.134429526054510973e-01
7.680000000000000000e+09,-6.658642826952737180e-04,1.014921784955875698e-04,-7.128510258263659471e-01,1.633114085773662918e-02,6.735546787492992064e-04,7.130380713422092009e-01
7.760000000000000954e+09,-8.011693084896838978e-04,1.694296577712326845e-04,-7.124412310978848195e-01,1.633996536106718106e-02,8.188886797351123100e-04,7.126285864573989048e-01
7.840000000000000000e+09,-9.448562854728404566e-04,2.688516791502543364e-04,-7.120299786850469159e-01,1.631773474025277962e-02,9.823617590172396396e-04,7.122169325516499727e-01
7.919999999999999046e+09,-1.091952990647245426e-03,4.051754983517366366e-04,-7.116199153941611399e-01,1.626358227061610803e-02,1.164701042434512909e-03,7.118057376095433542e-01
8.000000000000000000e+09,-1.235829989793712190e-03,5.833830714005541242e-04,-7.112138642971189695e-01,1.617686871322142339e-02,1.366605858201358189e-03,7.113978154660060005e-01
8.080000000000000000e+09,-1.368139709983071019e-03,8.076227326377033531e-04,-7.108148104838225567e-01,1.605721574128563325e-02,1.588729286035148571e-03,7.109961525778565328e-01
8.159999999999999046e+09,-1.478840500799943327e-03,1.080760793968047829e-03,-7.104258804685772422e-01,1.590453990747332097e-02,1.831669489996672973e-03,7.106038882733626272e-01
8.240000000000000000e+09,-1.556322884437634415e-03,1.403897084827797001e-03,-7.100503146044481184e-01,1.571908589300448009e-02,2.095964681337036343e-03,7.102242877649197483e-01
8.320000000000000954e+09,-1.587653429303630039e-03,1.775863335322151477e-03,-7.096914321105967094e-01,1.550145757929445416e-02,2.382086060015694076e-03,7.098607074618740187e-01
8.400000000000000000e+09,-1.558948511088960320e-03,2.192728524427593056e-03,-7.093525886143482451e-01,1.525264530156655168e-02,2.690423543248329514e-03,7.095165524232484033e-01
8.480000000000000000e+09,-1.455886137705424957e-03,2.647340314442805757e-03,-7.090371264360002534e-01,1.497404747649960094e-02,3.021260529387850401e-03,7.091952261277912894e-01
8.560000000000000000e+09,-1.264358898233918383e-03,3.128936458174295943e-03,-7.087483183719266444e-01,1.466748479690363482e-02,3.374736550137742794e-03,7.089000732862856813e-01
8.640000000000000000e+09,-9.712647089300717679e-04,3.622864117100834183e-03,-7.084893061209606158e-01,1.433520520212157659e-02,3.750799854136424756e-03,7.086343168348165911e-01
8.720000000000000000e+09,-5.654246245888950619e-04,4.110448379844946348e-03,-7.082630350881995440e-01,1.397987805657118811e-02,4.149155442913826999e-03,7.084009908680427570e-01
8.800000000000000000e+09,-3.860790390586830469e-05,4.569053289899192329e-03,-7.080721876677695814e-01,1.360457630963852332e-02,4.569216402861943534e-03,7.082028716725072837e-01
8.880000000000000000e+09,6.133659322353294521e-04,4.972379303963743793e-03,-7.079191176123085238e-01,1.321274592013065019e-02,5.010067236007304838e-03,7.080424095601474122e-01
8.959999999999998093e+09,1.389490753380516995e-03,5.291039539659310280e-03,-7.078057883144284190e-01,1.280816240018095922e-02,5.470446413590773944e-03,7.079216644484606080e-01
9.040000000000000000e+09,2.282460253070644346e-03,5.493452446602672609e-03,-7.077337179468322637e-01,1.239487514687332738e-02,5.948751515228401128e-03,7.078422482790588388e-01
9.120000000000000000e+09,3.277650239028817580e-03,5.547080136792170713e-03,-7.077039342994364546e-01,1.197714090964741712e-02,6.443065197047125568e-03,7.078052772671807880e-01
9.200000000000000000e+09,4.352287140629585056e-03,5.420027593837187761e-03,-7.077169418542192947e-01,1.155934855980965056e-02,6.951194319859443568e-03,7.078113366756819680e-01
9.280000000000000000e+09,5.474910232522185033e-03,5.082997349710217938e-03,-7.077727030621078219e-01,1.114593795894061254e-02,7.470709746157805538e-03,7.078604602129060508e-01
9.360000000000000000e+09,6.605249880704050155e-03,4.511565335553414414e-03,-7.078706350898240629e-01,1.074131619911538292e-02,7.998971669127729472e-03,7.079521254266846197e-01
9.440000000000000000e+09,7.694653516059858991e-03,3.688705362132366650e-03,-7.080096223778544751e-01,1.034977484011245265e-02,8.533126038025948962e-03,7.080852655004713503e-01
9.520000000000000000e+09,8.687190525465366547e-03,2.607443320990688110e-03,-7.081880444941551778e-01,9.975411676341838438e-03,9.070062838697103350e-03,7.082582969528616879e-01
9.600000000000000000e+09,9.521551578256695625e-03,1.273465503118321844e-03,-7.084038177837493899e-01,9.622060425897482200e-03,9.606334308415202458e-03,7.084691617123720642e-01
9.680000000000000000e+09,1.018130538566301702e-02,-2.986519381288755106e-04,-7.086544485382867409e-01,9.293231124473666505e-03,1.018568467685304277e-02,7.087153812200185365e-01
9.760000000000000000e+09,1.046113951743680298e-02,-2.053174247385792899e-03,-7.089370947956864510e-01,8.992063422492537275e-03,1.066072063668334520e-02,7.089941195679567709e-01
9.840000000000000000e+09,1.049314284645301923e-02,-4.288194256761983583e-03,-7.092486334720734531e-01,8.721293945585540178e-03,1.133554836696463661e-02,7.093022522522319795e-01
9.920000000000000000e+09,1.001696471351029918e-02,-5.931335270258897112e-03,-7.096748992447545756e-01,8.462763410827963545e-03,1.164131951970770636e-02,7.097253560234411118e-01
1.000000000000000000e+10,9.218543129304861139e-03,-7.867751401261446897e-03,-7.099449027085121822e-01,8.279786504529354843e-03,1.211953173760873040e-02,7.099931828872438899e-01
1.008000000000000000e+10,7.954452474393792355e-03,-9.700997418341430339e-03,-7.103318970264587140e-01,8.037430929307582197e-03,1.254522479185034810e-02,7.103773674809402694e-01
1.016000000000000000e+10,6.299133488325990918e-03,-1.129696531042385758e-02,-7.107152127208673509e-01,7.982191966164984415e-03,1.293446975831131530e-02,7.107600361454295967e-01
1.024000000000000000e+10,4.263462091344765066e-03,-1.256912463094554504e-02,-7.111192004794895105e-01,7.889831669876131923e-03,1.327252813116536027e-02,7.111629677748746436e-01
1.032000000000000000e+10,1.738641276906645371e-03,-1.337774873333871968e-02,-7.115310541050620108e-01,7.835701679756766971e-03,1.349025702728118108e-02,7.115741979419116792e-01
1.040000000000000000e+10,-5.960772114351534350e-04,-1.376117108636627437e-02,-7.119473616074212252e-01,7.819872877260837171e-03,1.377407484044701480e-02,7.119903061921452059e-01
1.048000000000000000e+10,-3.197748031455075347e-03,-1.355336786108635345e-02,-7.123648193182456900e-01,7.842154752267021731e-03,1.392549363041049523e-02,7.124079836676981969e-01
1.056000000000000000e+10,-5.737018753908728827e-03,-1.277555242745149339e-02,-7.127802414543155107e-01,7.902132343938619852e-03,1.400457510991541012e-02,7.128240430171064457e-01
1.064000000000000000e+10,-8.073436247659623519e-03,-1.144802968036194059e-02,-7.131905616181813956e-01,7.999200659487866807e-03,1.400848872674965648e-02,7.132354200349613205e-01
1.072000000000000000e+10,-1.007158477790302993e-02,-9.575778190033414419e-03,-7.136340714191451440e-01,8.068640790633041862e-03,1.389720647767772252e-02,7.136796836497966146e-01
1.080000000000000000e+10,-1.162346602614656652e-02,-7.414320472305864843e-03,-7.139841875905188484e-01,8.301418869966705957e-03,1.378684556115129974e-02,7.140324458205997704e-01
1.088000000000000000e+10,-1.263677348600161787e-02,-4.925558930461206367e-03,-7.143618773984213854e-01,8.504660986355442459e-03,1.356278639933401059e-02,7.144125006875859940e-01
1.096000000000000000e+10,-1.306438536459120919e-02,-2.305722431631254676e-03,-7.147231946693293203e-01,8.741213813967906379e-03,1.326629265794602129e-02,7.147766461051127118e-01
1.104000000000000000e+10,-1.289759293214969710e-02,2.950315345947526497e-04,-7.150654754685834558e-01,9.009879668269068706e-03,1.290096690367986167e-02,7.151222358022074621e-01
1.112000000000000191e+10,-1.216855460591793892e-02,2.731134827871354882e-03,-7.153860644043646966e-01,9.309371300660958248e-03,1.247127975170225257e-02,7.154466336058752374e-01
1.120000000000000000e+10,-1.094673172345253520e-02,4.873191882097562336e-03,-7.156822827291287048e-01,9.638302792609663300e-03,1.198244276201575198e-02,7.157471807091513316e-01
1.128000000000000000e+10,-9.332033126276220378e-03,6.617675804890385191e-03,-7.159513941359025857e-01,9.995169425275103256e-03,1.144030049118240251e-02,7.160211604254321793e-01
1.135999999999999809e+10,-7.445556181204213836e-03,7.893856430504558527e-03,-7.161905703521241895e-01,1.037831426698131165e-02,1.085123385578278150e-02,7.162657624571518999e-01
1.143999999999999809e+10,-5.418998744688779783e-03,8.667472381632606443e-03,-7.163968588034521634e-01,1.078587892486587187e-02,1.022206558780086073e-02,7.164780488526045765e-01
1.152000000000000000e+10,-3.383842659713699220e-03,8.941055928202608361e-03,-7.165671561173765358e-01,1.121573586848509732e-02,9.559961938048984476e-03,7.166549253003262621e-01
1.160000000000000000e+10,-1.461304164711427515e-03,8.751162258007075603e-03,-7.166981927029301147e-01,1.166539969997500495e-02,8.872330625476626542e-03,7.167931228561045254e-01
1.168000000000000191e+10,2.461449697997815031e-04,8.163010318581553557e-03,-7.167865357739497956e-01,1.213191566584432765e-02,8.166720566263220918e-03,7.168891973272738527e-01
1.176000000000000000e+10,1.661113834043567803e-03,7.263202466765181914e-03,-7.168286206340361844e-01,1.261172494396024801e-02,7.450732127977407158e-03,7.169395560060535244e-01
1.184000000000000000e+10,2.735150052427039701e-03,6.151264267551788921e-03,-7.168208226343634193e-01,1.310050919524485824e-02,6.731946070680534279e-03,7.169405241046011845e-01
1.191999999999999809e+10,3.449997944825745205e-03,4.930754451166188476e-03,-7.167595849290671062e-01,1.359302126840158942e-02,6.017875478688225997e-03,7.168884660914079943e-01
1.200000000000000000e+10,3.816322214319517892e-03,3.700659600561740335e-03,-7.166416187755062506e-01,1.408291589872279030e-02,5.315937990866561290e-03,7.167799789903374075e-01
1.208000000000000000e+10,3.870120539857876615e-03,2.547727727449433655e-03,-7.164641923964361059e-01,1.456260379553060008e-02,4.633438201405569445e-03,7.166121743422888546e-01
1.216000000000000000e+10,3.667188397971376818e-03,1.540319271531294257e-03,-7.162255195757775139e-01,1.502316463766728213e-02,3.977543740107274996e-03,7.163830611951422789e-01
1.224000000000000191e+10,3.276132552210718734e-03,7.242622439500730723e-04,-7.159252471752931557e-01,1.545436751759942176e-02,3.355234760440215912e-03,7.160920311093914581e-01
1.232000000000000000e+10,2.770563323293472047e-03,1.210793237555634391e-04,-7.155650193521824187e-01,1.584485804711806972e-02,2.773207769176350840e-03,7.157404253268236927e-01
1.239999999999999809e+10,2.266051767789576971e-03,-2.526557150837095440e-04,-7.150033735376356558e-01,1.606449207643407748e-02,2.280093314903301749e-03,7.151838169840489812e-01
1.247999999999999809e+10,1.719956973784870146e-03,-4.855716380899880369e-04,-7.145623538632883687e-01,1.638725398795955190e-02,1.787185442920964174e-03,7.147502358529931321e-01
1.256000000000000000e+10,1.201510092285897925e-03,-5.453020118739706698e-04,-7.140677121741582090e-01,1.664467327721719236e-02,1.319462309434667755e-03,7.142616766410905260e-01
1.264000000000000000e+10,8.668477415827820698e-04,-4.864909015158631672e-04,-7.135199594175687388e-01,1.663668006301731797e-02,9.940313900198961914e-04,7.137138863793867083e-01
1.272000000000000000e+10,5.578179171193429825e-04,-3.526426924179827758e-04,-7.131249672850988874e-01,1.678544075842616431e-02,6.599376464296957765e-04,7.133224866684269028e-01
1.280000000000000191e+10,3.686090122001217662e-04,-2.110184287469945501e-04,-7.126049071347005937e-01,1.671496338905252912e-02,4.247368375194220265e-04,7.128009144730053093e-01
1.288000000000000000e+10,2.543667141697583353e-04,-7.432288263926640094e-05,-7.121158748297083951e-01,1.655671060463559038e-02,2.650024833116280455e-04,7.123083207786685689e-01
