# Frequency, Real(S21), Imag(S21), Real(S11), Imag(S11), Amp(S21), Amp(S11)
4.000000000000000000e+09,3.793760644871277361e-05,1.405021346821647577e-04,-7.188499069133087449e-01,6.802254586242418091e-03,1.455338855157195792e-04,7.188820900097099287e-01
4.080000000000000000e+09,2.204140789840749914e-06,1.453636718009003069e-04,-7.187430698765521209e-01,6.949910310472736177e-03,1.453803814689633449e-04,7.187766702870189706e-01
4.160000000000000477e+09,2.094165771729539978e-06,1.463685348075130727e-04,-7.187535951926121713e-01,7.109081930376298306e-03,1.463835151647126037e-04,7.187887517540868521e-01
4.240000000000000000e+09,1.145951537787018523e-06,1.458970952775805597e-04,-7.187035177698841704e-01,7.267295399415669814e-03,1.459015956573552386e-04,7.187402590903257948e-01
4.320000000000000000e+09,3.537573947234076135e-06,1.445473879730973848e-04,-7.187266762457967806e-01,7.429723001935043328e-03,1.445906698209718235e-04,7.187650770114083487e-01
4.400000000000000000e+09,3.768331166911314029e-06,1.428571298621629927e-04,-7.187205272760103236e-01,7.593619505577224420e-03,1.429068223432261922e-04,7.187606412326023042e-01
4.480000000000000000e+09,3.453436996810443871e-06,1.414878459669687677e-04,-7.187288001582478048e-01,7.760960784724550872e-03,1.415299854570176304e-04,7.187707010509100103e-01
4.560000000000000000e+09,3.828827985168110481e-06,1.409288971431773912e-04,-7.187069958337403142e-01,7.928034217049120466e-03,1.409808993223276219e-04,7.187507214513990661e-01
4.640000000000000000e+09,3.715723282397998147e-06,1.415254608746046585e-04,-7.186995258189642355e-01,8.098848249022835843e-03,1.415742302655416569e-04,7.187451563352372785e-01
4.720000000000000000e+09,3.508871055030722853e-06,1.434210623416207382e-04,-7.187050087703600321e-01,8.273688750699342495e-03,1.434639791002602100e-04,7.187526302958109348e-01
4.800000000000000000e+09,3.448011154269010755e-06,1.464171323164231763e-04,-7.186829025975582930e-01,8.448605646098301253e-03,1.464577256981854743e-04,7.187325604308008042e-01
4.880000000000000000e+09,3.426843951585782401e-06,1.504408192555693388e-04,-7.186854373821826014e-01,8.629415813393446003e-03,1.504798436926201824e-04,7.187372431720089327e-01
4.960000000000000000e+09,3.426850830781042626e-06,1.549946997691877860e-04,-7.186635477750893397e-01,8.810744363018881142e-03,1.550325780704077741e-04,7.187175551751248115e-01
5.040000000000000000e+09,3.568675664101409800e-06,1.598756594937197765e-04,-7.186526076614646596e-01,8.997157556633460229e-03,1.599154837548490344e-04,7.187089253256300214e-01
5.120000000000000000e+09,3.809182095078768819e-06,1.647271893774297639e-04,-7.186406570002917826e-01,9.187585222670191162e-03,1.647712256081779441e-04,7.186993847333076335e-01
5.200000000000000000e+09,4.128534536147738078e-06,1.693079593299265568e-04,-7.186275318081958297e-01,9.382426337645462938e-03,1.693582885183959018e-04,7.186887778424823070e-01
5.280000000000000000e+09,4.499150209410597700e-06,1.734625272772556985e-04,-7.186130258484505484e-01,9.582138621806382886e-03,1.735208653794105516e-04,7.186769081441488627e-01
5.360000000000000000e+09,4.891391759322964077e-06,1.771205583622323301e-04,-7.185968747132581713e-01,9.787250272018816269e-03,1.771880862470502443e-04,7.186635225302235863e-01
5.440000000000000000e+09,5.278207449490493854e-06,1.802826152343398253e-04,-7.185787316312195472e-01,9.998374292732477991e-03,1.803598647970575586e-04,7.186482874405460963e-01
5.520000000000000000e+09,5.637963862597212910e-06,1.829981723789555364e-04,-7.185581295248268940e-01,1.021622451471589262e-02,1.830850013806534715e-04,7.186307513247348622e-01
5.600000000000000000e+09,5.955354041172346027e-06,1.853413321343600807e-04,-7.185344198697319884e-01,1.044162899799094650e-02,1.854369856287975773e-04,7.186102839186647717e-01
5.680000000000000000e+09,6.220684270626219411e-06,1.873886584404424438e-04,-7.185066736795449049e-01,1.067552628119051994e-02,1.874918830907184144e-04,7.185859774469750549e-01
5.760000000000000000e+09,6.428229841120131152e-06,1.892018951192527606e-04,-7.184735315931412014e-01,1.091890277495007576e-02,1.893110647997284669e-04,7.185564960653610944e-01
5.840000000000000954e+09,6.574436144507503955e-06,1.908165955204346525e-04,-7.184330379304106895e-01,1.117258314813126575e-02,1.909298204488428443e-04,7.185199068948060486e-01
5.920000000000000000e+09,6.656605434933564935e-06,1.922359179643299209e-04,-7.183826462790663392e-01,1.143681946528888986e-02,1.923511334812066400e-04,7.184736789294342563e-01
6.000000000000000000e+09,6.671917368670549317e-06,1.934274550155333657e-04,-7.183196224865954216e-01,1.171093811821313085e-02,1.935424884493339018e-04,7.184150792688678289e-01
6.080000000000000000e+09,6.615349618545255647e-06,1.943206996310098335e-04,-7.182415871236964566e-01,1.199344417683434125e-02,1.944332717300738397e-04,7.183417154649932579e-01
6.160000000000000000e+09,6.474212313876756897e-06,1.948039856951948572e-04,-7.181467320903525131e-01,1.228240943139705457e-02,1.949115395963482667e-04,7.182517569720892059e-01
6.239999999999999046e+09,6.217662256830397302e-06,1.947213271069901436e-04,-7.180337550067626973e-01,1.257575763413999390e-02,1.948205701517359448e-04,7.181438734746571351e-01
6.320000000000000000e+09,5.780566369533695611e-06,1.938702948637647920e-04,-7.179017382788034363e-01,1.287138792646208563e-02,1.939564543347699040e-04,7.180171157088673928e-01
6.400000000000000954e+09,5.041811419064278551e-06,1.920025626562089872e-04,-7.177500581809771463e-01,1.316721546837878142e-02,1.920687479235934109e-04,7.178708251363797865e-01
6.480000000000000000e+09,3.797768909134033712e-06,1.888292096178115025e-04,-7.175783271326663382e-01,1.346118177132443749e-02,1.888673964811676462e-04,7.177045763997861316e-01
6.560000000000000000e+09,1.732311762858411582e-06,1.840332187674593935e-04,-7.173863579755821451e-01,1.375125567415573860e-02,1.840413717454728059e-04,7.175181416815090696e-01
6.640000000000000000e+09,-1.614444338941348222e-06,1.772916814254708938e-04,-7.171741415662488128e-01,1.403543212087757057e-02,1.772990319578598181e-04,7.173114683915945422e-01
6.720000000000000000e+09,-6.875705005594340497e-06,1.683098794212008230e-04,-7.169418325059460084e-01,1.431173094924519454e-02,1.684502621847265406e-04,7.170846650429414382e-01
6.799999999999999046e+09,-1.488218343365327410e-05,1.568686801186002487e-04,-7.166897401401652878e-01,1.457819631258646179e-02,1.575730376235244035e-04,7.168379924570864592e-01
6.880000000000000000e+09,-2.667661303519284024e-05,1.428856655234917697e-04,-7.164183232371316157e-01,1.483289689605148121e-02,1.453545840182571670e-04,7.165718587135780915e-01
6.960000000000000954e+09,-4.351393096437101093e-05,1.264887491052145039e-04,-7.161281874748651743e-01,1.507392699472748926e-02,1.337642173309960564e-04,7.162868169742326874e-01
7.039999999999999046e+09,-6.684235562545855994e-05,1.080998310876089797e-04,-7.158200852320417695e-01,1.529940862073187434e-02,1.270963177544096349e-04,7.159835656813301474e-01
7.120000000000000000e+09,-9.826088089486190776e-05,8.852393353331767124e-05,-7.154949173400120266e-01,1.550749482317605003e-02,1.322561436094576342e-04,7.156629507911398402e-01
7.200000000000000000e+09,-1.394493661560952842e-04,6.903801045091996751e-05,-7.151537365156701576e-01,1.569637454140555138e-02,1.556032538488770392e-04,7.153259697690758090e-01
7.280000000000000000e+09,-1.920686544988398818e-04,5.147217697967898368e-05,-7.147977521955799496e-01,1.586427930166069492e-02,1.988460536294902800e-04,7.149737770727082609e-01
7.359999999999999046e+09,-2.576296545561845863e-04,3.827444630414699334e-05,-7.144283363896524186e-01,1.600949211923658952e-02,2.604572366946790105e-04,7.146076907467496797e-01
7.440000000000000000e+09,-3.373324570358294042e-04,3.255089595410046643e-05,-7.140470301468487824e-01,1.613035893903073947e-02,3.388993174930341780e-04,7.142291997258559677e-01
7.520000000000000000e+09,-4.318789514796412925e-04,3.807112365755759096e-05,-7.136555501075914076e-01,1.622530292372914573e-02,4.335537327572020708e-04,7.138399713201381003e-01
7.599999999999999046e+09,-5.412650489408761751e-04,5.923063522813329200e-05,-7.132557945118129794e-01,1.629284182906166889e-02,5.444962087604442603e-04,7.134418582474288950e-01
7.680000000000000000e+09,-6.645613187582105098e-04,1.009619802815757460e-04,-7.128498479546866440e-01,1.633160858330424264e-02,6.721867804799713060e-04,7.130369044922837407e-01
7.760000000000000954e+09,-7.996936475714070628e-04,1.685880079991327208e-04,-7.124399841091632046e-01,1.634037511384872285e-02,8.172709748958281685e-04,7.126273491919363767e-01
7.840000000000000000e+09,-9.432379434930755324e-04,2.676125079163146642e-04,-7.120286655484161509e-01,1.631807925066772538e-02,9.804663545672060408e-04,7.122156276529526542e-01
7.919999999999999046e+09,-1.090244919129902592e-03,4.034462088903366817e-04,-7.116185397642547095e-01,1.626385440280772240e-02,1.162498527808337925e-03,7.118043685565900169e-01
8.000000000000000000e+09,-1.234112677931147083e-03,5.810689383980849462e-04,-7.112124304956919385e-01,1.617706151834749639e-02,1.364065692333571141e-03,7.113963864196654052e-01
8.080000000000000000e+09,-1.366525300860837924e-03,8.046329529828510560e-04,-7.108133234800849687e-01,1.605732250371605385e-02,1.585820162224804925e-03,7.109946683645329557e-01
8.159999999999999046e+09,-1.477475950147293104e-03,1.077016266812875480e-03,-7.104243458539062361e-01,1.590455418506429158e-02,1.828359708110849141e-03,7.106023543626746042e-01
8.240000000000000000e+09,-1.555391634576010380e-03,1.399339877281571918e-03,-7.100487385725406941e-01,1.571900154475525113e-02,2.092222557248496397e-03,7.102227102522280511e-01
8.320000000000000954e+09,-1.587375012637555309e-03,1.770467663488992874e-03,-7.096898214423685847e-01,1.550126878776665433e-02,2.377880396110421124e-03,7.098590930550453537e-01
8.400000000000000000e+09,-1.559575476024939195e-03,2.186512903932912293e-03,-7.093509506679652743e-01,1.525234659298594676e-02,2.685724175056618517e-03,7.095149084340220957e-01
8.480000000000000000e+09,-1.457697718059004820e-03,2.640380398856691929e-03,-7.090354691533384823e-01,1.497363373329209206e-02,3.016039006362658537e-03,7.091935604788537351e-01
8.560000000000000000e+09,-1.267650867730111663e-03,3.121377612010324196e-03,-7.087466502922842304e-01,1.466695127400903867e-02,3.368966743560431690e-03,7.088983945250599827e-01
8.640000000000000000e+09,-9.763350882163154875e-04,3.614933307024422674e-03,-7.084876364163840146e-01,1.433454755124361109e-02,3.744458975435154945e-03,7.086326341683489849e-01
8.720000000000000000e+09,-5.725549404314289863e-04,4.102463524369406173e-03,-7.082613736039131691e-01,1.397909236458611329e-02,4.142224780066127918e-03,7.083993142025474254e-01
8.800000000000000000e+09,-4.804011948244087593e-05,4.561429248380711489e-03,-7.080705449806655727e-01,1.360365915407549427e-02,4.561682216141640239e-03,7.082012116705230786e-01
8.880000000000000000e+09,6.014564335864158989e-04,4.965628809075822540e-03,-7.079175050960432314e-01,1.321169444950763376e-02,5.001921561862627055e-03,7.080407777039635642e-01
8.959999999999998093e+09,1.375025292067513609e-03,5.285767542253776846e-03,-7.078042182013370986e-01,1.280697444850233818e-02,5.461687748724645443e-03,7.079200731001562552e-01
9.040000000000000000e+09,2.265488744465089365e-03,5.490342360226229540e-03,-7.077322033844550830e-01,1.239354938173911451e-02,5.939385362459025618e-03,7.078407107349035110e-01
9.120000000000000000e+09,3.258382933337165572e-03,5.546870618401365458e-03,-7.077024893886640911e-01,1.197567701721310995e-02,6.433104460332294237e-03,7.078038077934681871e-01
9.200000000000000000e+09,4.331123717420031459e-03,5.423478867650195420e-03,-7.077155816562710200e-01,1.155774746664861054e-02,6.940659600026971750e-03,7.078099505132552371e-01
9.280000000000000000e+09,5.452463147227300071e-03,5.090846632901465177e-03,-7.077714435655987346e-01,1.114420208580677377e-02,7.459629602841954914e-03,7.078591735416451813e-01
9.360000000000000000e+09,6.582358421754540972e-03,4.524471697919627000e-03,-7.078694931181516159e-01,1.073944973937387276e-02,7.987382959250085082e-03,7.079509552702456521e-01
9.440000000000000000e+09,7.672384611594390558e-03,3.707185723428057036e-03,-7.080086154358572470e-01,1.034778405274924991e-02,8.521074557602415639e-03,7.080842295703259071e-01
9.520000000000000000e+09,8.666822394355143400e-03,2.631801765405553627e-03,-7.081871905396793787e-01,9.973305176983028944e-03,9.057604040124938444e-03,7.082574134173516001e-01
9.600000000000000000e+09,9.504536600336888769e-03,1.303720823899246319e-03,-7.084031349145705203e-01,9.619849459875861111e-03,9.593534488071224844e-03,7.084684488814034786e-01
9.680000000000000000e+09,1.012172531673759604e-02,-2.567340269144937443e-04,-7.086539546126777722e-01,9.290929795819767578e-03,1.012498077766385216e-02,7.087148571637665873e-01
9.760000000000000000e+09,1.045555691897478642e-02,-2.012542387496783769e-03,-7.089368069541716055e-01,8.989688865753292860e-03,1.064748784208710899e-02,7.089938016374187635e-01
9.840000000000000000e+09,1.049565153475225977e-02,-4.244387950387179184e-03,-7.092485676131634609e-01,8.718866413902175150e-03,1.132137492587977773e-02,7.093021565545022389e-01
9.920000000000000000e+09,1.005399633855945732e-02,-5.874545122927391470e-03,-7.095858995524397805e-01,8.480781061559118650e-03,1.164444600558897300e-02,7.096365777572766209e-01
1.000000000000000000e+10,9.240606537879744384e-03,-7.821655554847185832e-03,-7.099453206093382374e-01,8.277326038155124674e-03,1.210649019355228805e-02,7.099935720705068398e-01
1.008000000000000000e+10,7.987265354817810886e-03,-9.657467952327395203e-03,-7.103326028615644105e-01,8.034990077650050119e-03,1.253248160176202372e-02,7.103780456585303549e-01
1.016000000000000000e+10,6.342549884932795722e-03,-1.125866554304720546e-02,-7.107161482547406095e-01,7.979814147700400526e-03,1.292228651799128859e-02,7.107609449202216823e-01
1.024000000000000000e+10,4.316612633192481140e-03,-1.253880717649100487e-02,-7.111203982503501164e-01,7.887543823088783226e-03,1.326102673378872464e-02,7.111641400937604995e-01
1.032000000000000000e+10,1.992946789147069520e-03,-1.339650210905842659e-02,-7.115325105492157354e-01,7.833537893477862668e-03,1.354393242977749469e-02,7.115756304739492277e-01
1.040000000000000000e+10,-5.290931447030297347e-04,-1.375428876896035019e-02,-7.119490684398154245e-01,7.817867574486037779e-03,1.376446145316701300e-02,7.119919908999912117e-01
1.048000000000000000e+10,-3.128073118761460179e-03,-1.356098365445067462e-02,-7.123667634455236319e-01,7.840341888520998767e-03,1.391708012165613836e-02,7.124099077236218935e-01
1.056000000000000000e+10,-5.668187571233950645e-03,-1.279852451870488496e-02,-7.127824050801943034e-01,7.900544614062530654e-03,1.399752050180963839e-02,7.128261889108066240e-01
1.064000000000000000e+10,-8.009249065399157846e-03,-1.148626233642691639e-02,-7.131929225106649062e-01,7.997868731175666879e-03,1.400293872916741691e-02,7.132377658421800160e-01
1.072000000000000000e+10,-1.001801296949279829e-02,-9.681897638141485907e-03,-7.135953591056387602e-01,8.131547217526371302e-03,1.393196776239363777e-02,7.136416878218764248e-01
1.080000000000000000e+10,-1.157959499409733778e-02,-7.478653935778769614e-03,-7.139868608808520589e-01,8.300679213388902078e-03,1.378467572772255727e-02,7.140351103313455905e-01
1.088000000000000000e+10,-1.260762878611213812e-02,-4.998787026732596367e-03,-7.143646596001295146e-01,8.504250944309038607e-03,1.356245462101287810e-02,7.144152778109751356e-01
1.096000000000000000e+10,-1.305192331591102997e-02,-2.384048323619760920e-03,-7.147260512699301627e-01,8.741150673358372147e-03,1.326787053953181264e-02,7.147795017199367607e-01
1.104000000000000000e+10,-1.290269904045781429e-02,2.158498309331247154e-04,-7.150683704887751402e-01,9.010176893218247579e-03,1.290450439490586736e-02,7.151251343374244174e-01
1.112000000000000191e+10,-1.219094613808311203e-02,2.655460601221413478e-03,-7.153889611770215540e-01,9.310038662491412070e-03,1.247680402772611934e-02,7.154495388172635861e-01
1.120000000000000000e+10,-1.098496319723826428e-02,4.805169113181279213e-03,-7.156851443417310277e-01,9.639346697223917515e-03,1.198995690780206569e-02,7.157500561202867484e-01
1.128000000000000000e+10,-9.383604456440836766e-03,6.560905393168415048e-03,-7.159541838567116123e-01,9.996593344121149777e-03,1.144978218889087553e-02,7.160239697527016611e-01
1.135999999999999809e+10,-7.507112195494461578e-03,7.851120159610848470e-03,-7.161932518751039645e-01,1.038011926945641913e-02,1.086263417760119365e-02,7.162684698543446693e-01
1.143999999999999809e+10,-5.486600020437395163e-03,8.640529588307089767e-03,-7.163993963089485550e-01,1.078806426648208985e-02,1.023530807307107549e-02,7.164806189719605811e-01
1.152000000000000000e+10,-3.453281612995352280e-03,8.930529840900713195e-03,-7.165695141319204930e-01,1.121829961644363154e-02,9.574942148016869076e-03,7.166573231535005029e-01
1.160000000000000000e+10,-1.528437332262539208e-03,8.756523763990522319e-03,-7.167003357294409183e-01,1.166833934990337170e-02,8.888916081726982998e-03,7.167953134458104891e-01
1.168000000000000191e+10,1.850776061684807159e-04,8.182658401114180705e-03,-7.167884276748983652e-01,1.213522872188456739e-02,8.184751201449531194e-03,7.168911450316466372e-01
1.176000000000000000e+10,1.602817830815963639e-03,7.303397609579757865e-03,-7.168302237113103326e-01,1.261540940279514030e-02,7.477208144915916017e-03,7.169412236581234055e-01
1.184000000000000000e+10,2.701317804180834725e-03,6.166269158871491747e-03,-7.165979850616041036e-01,1.309289359743466552e-02,6.732012568232036837e-03,7.167175845876146978e-01
1.191999999999999809e+10,3.422059280528033393e-03,4.975866592254747645e-03,-7.167604843314692165e-01,1.359744581248105780e-02,6.039017971770320285e-03,7.168894492400523788e-01
1.200000000000000000e+10,3.808365142503087209e-03,3.647947526698683274e-03,-7.166772949469396581e-01,1.411743941737532947e-02,5.273629321082360516e-03,7.168163273727559126e-01
1.208000000000000000e+10,3.866782557907017925e-03,2.592430825246523629e-03,-7.164641793418231597e-01,1.456776757938680472e-02,4.655395250010713193e-03,7.166122662445844060e-01
1.216000000000000000e+10,3.640717599542857980e-03,1.494121457636563791e-03,-7.162506949068349060e-01,1.507660260766483483e-02,3.935380994235643075e-03,7.164093535826520087e-01
1.224000000000000191e+10,3.414324382521274903e-03,7.538202155731466708e-04,-7.159240282831955682e-01,1.546025238563141814e-02,3.496549142581301204e-03,7.160909395300747438e-01
1.232000000000000000e+10,2.790286272976063957e-03,1.464279004176117539e-04,-7.155630490521959208e-01,1.585107578028015218e-02,2.794125733602438079e-03,7.157385931834803205e-01
1.239999999999999809e+10,2.330763503365610063e-03,-2.656495253543819223e-04,-7.149281290487117246e-01,1.596028919462768106e-02,2.345853400991234315e-03,7.151062582136080703e-01
1.247999999999999809e+10,1.710931655841296372e-03,-4.651706802166541551e-04,-7.146808513380541461e-01,1.646215631417072625e-02,1.773040014408322658e-03,7.148704231256164388e-01
1.256000000000000000e+10,1.248993100754947679e-03,-5.420167441878476124e-04,-7.140862431193248927e-01,1.662697927289787103e-02,1.361530725585527761e-03,7.142797904547019128e-01
1.264000000000000000e+10,8.557966821722666224e-04,-4.721422704784239942e-04,-7.136507942764227508e-01,1.677093963526419401e-02,9.773977106529259037e-04,7.138478273327016899e-01
1.272000000000000000e+10,5.706153848928168480e-04,-3.569478169330180146e-04,-7.131171785919478978e-01,1.679192397209450932e-02,6.730628956417259194e-04,7.133148527218711177e-01
1.280000000000000191e+10,3.776556526830980674e-04,-2.166321880169333708e-04,-7.125955742007504812e-01,1.672087416461397885e-02,4.353771892147092516e-04,7.127917227376635578e-01
1.288000000000000000e+10,2.602504429514153035e-04,-8.001122938715174654e-05,-7.121049661011800147e-01,1.656170798722214621e-02,2.722720879643215886e-04,7.122975311745904925e-01
