# Frequency, Real(S21), Imag(S21), Real(S11), Imag(S11), Amp(S21), Amp(S11)
4.000000000000000000e+09,3.698281327570338651e-05,1.409690962686333492e-04,-7.188282553273718234e-01,6.798366647548868824e-03,1.457395436406356908e-04,7.188604026137952463e-01
4.080000000000000000e+09,2.213876879876197327e-06,1.453577626452078205e-04,-7.187430819605297172e-01,6.949578330374408912e-03,1.453746209352231415e-04,7.187766791605656458e-01
4.160000000000000477e+09,2.102543175742188700e-06,1.463624201922225209e-04,-7.187536089273859341e-01,7.108732304371393092e-03,1.463775212672033363e-04,7.187887620303456959e-01
4.240000000000000000e+09,1.153132815351696706e-06,1.458910406963667304e-04,-7.187035317299377279e-01,7.266935412811027957e-03,1.458955978457155854e-04,7.187402694098748990e-01
4.320000000000000000e+09,3.543707734805408847e-06,1.445404595106401454e-04,-7.187266920117769686e-01,7.429344261145011050e-03,1.445838936398405610e-04,7.187650888616824441e-01
4.400000000000000000e+09,3.773893434372872469e-06,1.428497651766827718e-04,-7.187205445329027942e-01,7.593223433165699129e-03,1.428996070067633638e-04,7.187606543041837881e-01
4.480000000000000000e+09,3.458890180501298228e-06,1.414800069510471401e-04,-7.187288190276667210e-01,7.760542566794760046e-03,1.415222819493422283e-04,7.187707154036226953e-01
4.560000000000000000e+09,3.834594336482274606e-06,1.409206190058464171e-04,-7.187070165745776951e-01,7.927600414911232032e-03,1.409727809710665484e-04,7.187507374061391507e-01
4.640000000000000000e+09,3.722086157342989033e-06,1.415167357518619742e-04,-7.186995485988880716e-01,8.098393872165297186e-03,1.415656753002825078e-04,7.187451739939226814e-01
4.720000000000000000e+09,3.515919695385587667e-06,1.434117832815976499e-04,-7.187050330033142309e-01,8.273207807224920024e-03,1.434548753975002828e-04,7.187526489910952554e-01
4.800000000000000000e+09,3.455643230858667695e-06,1.464076217037948459e-04,-7.186829301979026363e-01,8.448106180919439517e-03,1.464483976119249976e-04,7.187325821582651875e-01
4.880000000000000000e+09,3.398119006375702984e-06,1.503846126552531781e-04,-7.186736403359025305e-01,8.627471910810181888e-03,1.504230000241054527e-04,7.187254236391182882e-01
4.960000000000000000e+09,3.434566931064859550e-06,1.549845804837209789e-04,-7.186635814555026869e-01,8.810193708235694934e-03,1.550226320177765140e-04,7.187175821027523837e-01
5.040000000000000000e+09,3.575661187005289981e-06,1.598653003697104156e-04,-7.186526449896932789e-01,8.996578633021090274e-03,1.599052832623800043e-04,7.187089554039118866e-01
5.120000000000000000e+09,3.814864153193685498e-06,1.647166290253981749e-04,-7.186406984796385178e-01,9.186975994343926644e-03,1.647607995428462520e-04,7.186994184213755243e-01
5.200000000000000000e+09,4.132361372365011571e-06,1.692972334552587618e-04,-7.186275780393719392e-01,9.381784541182243767e-03,1.693476591692846432e-04,7.186888156914025272e-01
5.280000000000000000e+09,4.500622478419655868e-06,1.734516711825110215e-04,-7.186130775567919349e-01,9.581461726607230431e-03,1.735100511172168070e-04,7.186769508231513059e-01
5.360000000000000000e+09,4.890073189644391360e-06,1.771096086704579224e-04,-7.185969327865032730e-01,9.786535433450840177e-03,1.771771043312392194e-04,7.186635708632798103e-01
5.440000000000000000e+09,5.273717930913547519e-06,1.802716104414121227e-04,-7.185787971735839719e-01,9.997618293984347065e-03,1.803487333805122318e-04,7.186483424589436009e-01
5.520000000000000000e+09,5.629960811831000864e-06,1.829871517318272859e-04,-7.185582039365161489e-01,1.021542369714827439e-02,1.830737396724869839e-04,7.186308143447399654e-01
5.600000000000000000e+09,5.943508616912245012e-06,1.853303311951861741e-04,-7.185345049677714924e-01,1.044077918180462763e-02,1.854256103012653022e-04,7.186103566601330650e-01
5.680000000000000000e+09,6.204659613569378088e-06,1.873777000195081717e-04,-7.185067718852725660e-01,1.067462268657521154e-02,1.874803996835964007e-04,7.185860622183649626e-01
5.760000000000000000e+09,6.407667013349676543e-06,1.891909713097169525e-04,-7.184736462208948238e-01,1.091793998317787742e-02,1.892994501356729084e-04,7.185565960503207394e-01
5.840000000000000954e+09,6.548947509659872930e-06,1.908056399314767601e-04,-7.184331735915034933e-01,1.117155519385185959e-02,1.909179953360725973e-04,7.185200265561209054e-01
5.920000000000000000e+09,6.625776768171626402e-06,1.922247589832309814e-04,-7.183828092996157322e-01,1.143572019717042747e-02,1.923389167171918898e-04,7.184738244317854239e-01
6.000000000000000000e+09,6.635307635680740560e-06,1.934157364159871137e-04,-7.183198210895068714e-01,1.170976181106535806e-02,1.935295181639191714e-04,7.184152586712875266e-01
6.080000000000000000e+09,6.572470766123495084e-06,1.943077650768592962e-04,-7.182418312602876220e-01,1.199218612248009568e-02,1.944188903916887860e-04,7.183419385641685029e-01
6.160000000000000000e+09,6.424464044663260337e-06,1.947887219802994579e-04,-7.181470330937722579e-01,1.228106631451681384e-02,1.948946380713937438e-04,7.182520349648925384e-01
6.239999999999999046e+09,6.160189214457616281e-06,1.947019678790150581e-04,-7.180341252438880995e-01,1.257432772606684873e-02,1.947993948325274884e-04,7.181442186166495656e-01
6.320000000000000000e+09,5.714003828787825095e-06,1.938442048547061247e-04,-7.179021908498858240e-01,1.286987118394256578e-02,1.939284032716937390e-04,7.180175410192686236e-01
6.400000000000000954e+09,4.963884355262492253e-06,1.919660381543944233e-04,-7.177506066586359923e-01,1.316561359049758621e-02,1.920302058338396809e-04,7.178713441418693719e-01
6.480000000000000000e+09,3.704717985752866382e-06,1.887773405959442148e-04,-7.175789853262591889e-01,1.345949822846626009e-02,1.888136892755159460e-04,7.177052029032713332e-01
6.560000000000000000e+09,1.618131293302005921e-06,1.839598889677138182e-04,-7.173871397083629864e-01,1.374949572222793417e-02,1.839670054599355591e-04,7.175188895433777247e-01
6.640000000000000000e+09,-1.758951047056895624e-06,1.771897817237136612e-04,-7.171750604625835024e-01,1.403360279621184911e-02,1.771985120030166371e-04,7.173123513205054147e-01
6.720000000000000000e+09,-7.064026622136256950e-06,1.681718420683554738e-04,-7.169429017836418394e-01,1.430984104823728419e-02,1.683201382389586250e-04,7.170856963911457216e-01
6.799999999999999046e+09,-1.513327910626326698e-05,1.566874319258376789e-04,-7.166909724089608469e-01,1.457625635303159625e-02,1.574165412528876547e-04,7.168391850211393024e-01
6.880000000000000000e+09,-2.701608539998240116e-05,1.426560481577983440e-04,-7.164197303016333063e-01,1.483091906069226862e-02,1.451916559115544534e-04,7.165732245386020605e-01
6.960000000000000954e+09,-4.397502027544549180e-05,1.262096334970024794e-04,-7.161297801450536848e-01,1.507192505433585170e-02,1.336513149792157358e-04,7.162883671646820272e-01
7.039999999999999046e+09,-6.746658920388849982e-05,1.077767608214652291e-04,-7.158218731417367309e-01,1.529739784008816300e-02,1.271517629919993232e-04,7.159853102185984586e-01
7.120000000000000000e+09,-9.909812056670258269e-05,8.817251497166423823e-05,-7.154969087753972889e-01,1.550549184947850809e-02,1.326455046214574144e-04,7.156648983600100156e-01
7.200000000000000000e+09,-1.405570121729209315e-04,6.868780058084684309e-05,-7.151559382553596134e-01,1.569439727132723034e-02,1.564426016774613166e-04,7.153281275943327300e-01
7.280000000000000000e+09,-1.935097154469611353e-04,5.117094613389758673e-05,-7.148001693673995405e-01,1.586234673226804767e-02,2.001611243488658092e-04,7.149761507711412944e-01
7.359999999999999046e+09,-2.601137256020526396e-04,4.117873838768444216e-05,-7.143722323117349671e-01,1.627045127352176254e-02,2.633530686014143958e-04,7.145574951553552712e-01
7.440000000000000000e+09,-3.396333929858532698e-04,3.258723189139025016e-05,-7.140498863476343328e-01,1.612857632561134902e-02,3.411931554316796232e-04,7.142320149414759234e-01
7.520000000000000000e+09,-4.346940176576224437e-04,3.845437738807911494e-05,-7.136586260520700886e-01,1.622362688910909331e-02,4.363915995154239616e-04,7.138430083764674139e-01
7.599999999999999046e+09,-5.446288058149657699e-04,6.012375399577242745e-05,-7.132590876672643132e-01,1.629129400141061251e-02,5.479374069343868718e-04,7.134451151982039718e-01
7.680000000000000000e+09,-6.796807402105341407e-04,2.041386682669593233e-04,-7.128533537273109566e-01,1.633021075891663218e-02,7.096749287490345835e-04,7.130403773305585835e-01
7.760000000000000954e+09,-8.041299681165185904e-04,1.711268638918226215e-04,-7.124436958355588878e-01,1.633914906195446659e-02,8.221370987666981817e-04,7.126310318305674185e-01
7.840000000000000000e+09,-9.481017967673446151e-04,2.713486445076404314e-04,-7.120325745097064729e-01,1.631704652963949717e-02,9.861678882977283761e-04,7.122195119275875896e-01
7.919999999999999046e+09,-1.095376361446872334e-03,4.086581715343532394e-04,-7.116226352278645084e-01,1.626303618156972261e-02,1.169123977334478532e-03,7.118084442562432335e-01
8.000000000000000000e+09,-1.239268780073418154e-03,5.880415622467979235e-04,-7.112166997673728952e-01,1.617647842078219489e-02,1.371706961487880296e-03,7.114006413281418473e-01
8.080000000000000000e+09,-1.371367785476339859e-03,8.136390641189634012e-04,-7.108177519706259107e-01,1.605699447646670441e-02,1.594571456442972750e-03,7.109990883174123200e-01
8.159999999999999046e+09,-1.481561710860622699e-03,1.088293215818097060e-03,-7.104289171477560227e-01,1.590450039063002335e-02,1.838316410927115247e-03,7.106069233073998292e-01
8.240000000000000000e+09,-1.558167748597113610e-03,1.413060993086895107e-03,-7.100534344875906179e-01,1.571924027954217304e-02,2.103479998229581573e-03,7.102274103008057171e-01
8.320000000000000954e+09,-1.588180010749330479e-03,1.786709148665094164e-03,-7.096946220764411839e-01,1.550181742216873680e-02,2.390532436188074275e-03,7.098639045250948465e-01
8.400000000000000000e+09,-1.557648691983729017e-03,2.205217214988502462e-03,-7.093558344164490048e-01,1.525322152774249637e-02,2.699861554398719221e-03,7.095198098627204519e-01
8.480000000000000000e+09,-1.452198484289617770e-03,2.661317654000290838e-03,-7.090404126898227632e-01,1.497485036517186112e-02,3.031747366332933173e-03,7.091985286016980750e-01
8.560000000000000000e+09,-1.257689162422077726e-03,3.144107419052221894e-03,-7.087516285135505578e-01,1.466852395216412287e-02,3.386324481176187021e-03,7.089034042205927255e-01
8.640000000000000000e+09,-9.610148230063772935e-04,3.638769629611873953e-03,-7.084926223344922835e-01,1.433648951500296129e-02,3.763534762350908766e-03,7.086376583515860972e-01
8.720000000000000000e+09,-5.510304725900702551e-04,4.126446068729971127e-03,-7.082663382028865362e-01,1.398141563536660359e-02,4.163074793930547288e-03,7.084043236842181290e-01
8.800000000000000000e+09,-1.958593653496548768e-05,4.584305864234191480e-03,-7.080754570321085017e-01,1.360637437426250734e-02,4.584347703410153810e-03,7.082061749764978487e-01
8.880000000000000000e+09,6.373642223869901893e-04,4.985852876978904245e-03,-7.079223309520076279e-01,1.321481063579113199e-02,5.026426370977474939e-03,7.080456608727035972e-01
8.959999999999998093e+09,1.418618135107472481e-03,5.301515310951743221e-03,-7.078089215864293848e-01,1.281049865182103120e-02,5.488036261315294879e-03,7.079248394801896938e-01
9.040000000000000000e+09,2.316609577124679499e-03,5.499554764479788749e-03,-7.077367452098459744e-01,1.239748624246676638e-02,5.967560853509423953e-03,7.078453208048766099e-01
9.120000000000000000e+09,3.316390655085807437e-03,5.547323654988508580e-03,-7.077068276220359611e-01,1.198002819827238483e-02,6.463067902346032387e-03,7.078082190385172057e-01
9.200000000000000000e+09,4.394805772364191593e-03,5.412885515925038894e-03,-7.077196712828608405e-01,1.156251098005722268e-02,6.972348771061061094e-03,7.078141173930374563e-01
9.280000000000000000e+09,5.519965558986736180e-03,5.066991601657538750e-03,-7.077752366750748036e-01,1.114937151470268666e-02,7.492958271848828254e-03,7.078630475845104630e-01
9.360000000000000000e+09,6.651144039804689385e-03,4.485377840701885305e-03,-7.078729391625930845e-01,1.074501338618165207e-02,8.022239800210970856e-03,7.079544853388227699e-01
9.440000000000000000e+09,7.739231418538184207e-03,3.651307636187452882e-03,-7.080116616829776888e-01,1.035372404003947339e-02,8.557321450300282850e-03,7.080873623223257196e-01
9.520000000000000000e+09,8.727873719338728048e-03,2.558238334140295733e-03,-7.081897827542151802e-01,9.979596548096398428e-03,9.095073558525438098e-03,7.082600939942369500e-01
9.600000000000000000e+09,9.555414110908513198e-03,1.212433689225256035e-03,-7.084052182853869395e-01,9.626459341216244900e-03,9.632026488840128228e-03,7.084706218421585877e-01
9.680000000000000000e+09,1.015771286583115260e-02,-3.647138584580213736e-04,-7.086554749151321442e-01,9.297816675337593553e-03,1.016425830364533177e-02,7.087164676526993556e-01
9.760000000000000000e+09,1.051916186923299197e-02,-2.140951578195686520e-03,-7.089377119636476321e-01,8.996802055918927399e-03,1.073482371030395378e-02,7.089947968014187474e-01
9.840000000000000000e+09,1.044069025894221563e-02,-4.042290101693384215e-03,-7.092488087057065016e-01,8.726145763408237055e-03,1.119589756783345887e-02,7.093024871451869551e-01
9.920000000000000000e+09,9.996259298538609159e-03,-6.022779493544416947e-03,-7.096813269275020764e-01,8.466191458010892748e-03,1.167043584410962578e-02,7.097318241331607158e-01
1.000000000000000000e+10,9.173543324753376249e-03,-7.960124047839637479e-03,-7.099441112918681851e-01,8.284719937506672405e-03,1.214567709055868784e-02,7.099924490742443028e-01
1.008000000000000000e+10,7.887855528331272001e-03,-9.788042137790491093e-03,-7.103305292022950024e-01,8.042338126118401750e-03,1.257076106395266929e-02,7.103760552829376795e-01
1.016000000000000000e+10,6.211277613047607761e-03,-1.137331623251122692e-02,-7.107133821883051539e-01,7.986976467764998408e-03,1.295886922964537696e-02,7.107582594769030759e-01
1.024000000000000000e+10,4.156144869852428439e-03,-1.262925087341531909e-02,-7.111168417120091734e-01,7.894444200390643776e-03,1.329554503594577303e-02,7.111606603403310967e-01
1.032000000000000000e+10,1.808240068477512527e-03,-1.345489498701409742e-02,-7.115281730285720752e-01,7.840073683116607905e-03,1.357585839852584221e-02,7.115713651972894738e-01
1.040000000000000000e+10,-7.308316002557933497e-04,-1.377389468655008074e-02,-7.119439736501779192e-01,7.823934960731004570e-03,1.379326972345951662e-02,7.119869630653885562e-01
1.048000000000000000e+10,-3.337654649310432906e-03,-1.353686565576170744e-02,-7.123609495923838297e-01,7.845838289834131465e-03,1.394226202379672715e-02,7.124041547342582215e-01
1.056000000000000000e+10,-5.874939059230002876e-03,-1.272816362705048339e-02,-7.127759245916831521e-01,7.905371100661721592e-03,1.401859687224927750e-02,7.128197623311014475e-01
1.064000000000000000e+10,-8.201715029727513900e-03,-1.137002329864714688e-02,-7.131858412353033749e-01,8.001932338586715751e-03,1.401947071899068385e-02,7.132307305912012341e-01
1.072000000000000000e+10,-1.018480945275486438e-02,-9.523269628438323087e-03,-7.135877550272556880e-01,8.134762975985729977e-03,1.394356511100588829e-02,7.136341208865465413e-01
1.080000000000000000e+10,-1.171033553766135347e-02,-7.284215837759569316e-03,-7.139788224246909065e-01,8.302971805219171858e-03,1.379100281979819473e-02,7.140270990738002421e-01
1.088000000000000000e+10,-1.269382616598746169e-02,-4.777877583674305755e-03,-7.143562836721373266e-01,8.505555857068837489e-03,1.356323475196405219e-02,7.144069180112303519e-01
1.096000000000000000e+10,-1.308776718576961859e-02,-2.148158020593441721e-03,-7.147174411550023532e-01,8.741414827146338704e-03,1.326288930777709194e-02,7.147708954793378089e-01
1.104000000000000000e+10,-1.288562057927223128e-02,4.539131795287201939e-04,-7.150596337693356785e-01,9.009358704888843772e-03,1.289361294934487749e-02,7.151163880031066178e-01
1.112000000000000191e+10,-1.212190432046225154e-02,2.882551963460039304e-03,-7.153802078174175128e-01,9.308107585616991891e-03,1.245992255900849228e-02,7.154407610723035882e-01
1.120000000000000000e+10,-1.086841954775831162e-02,5.008834770302133046e-03,-7.156764850576465831e-01,9.636282296398516328e-03,1.196707855837349233e-02,7.157413563578423066e-01
1.128000000000000000e+10,-9.227188021332880657e-03,6.730357920549672260e-03,-7.159457288912717265e-01,9.992383984816624598e-03,1.142097703875350270e-02,7.160154568550558540e-01
1.135999999999999809e+10,-7.321009568193467820e-03,7.978066647692232116e-03,-7.161851102533113300e-01,1.037476051610706530e-02,1.082805285047129182e-02,7.162602514479735616e-01
1.143999999999999809e+10,-5.282731761148535404e-03,8.719778166629145455e-03,-7.163916756437108679e-01,1.078155709268893529e-02,1.019518445813855090e-02,7.164728012318030137e-01
1.152000000000000000e+10,-3.244344368833866794e-03,8.960323988116615512e-03,-7.165623210450244862e-01,1.121064851221898091e-02,9.529594763451490133e-03,7.166500112199101213e-01
1.160000000000000000e+10,-1.326899772793276294e-03,8.738581459254166420e-03,-7.166937769589319940e-01,1.165955044206656681e-02,8.838748153842800048e-03,7.167886125268525532e-01
1.168000000000000191e+10,3.679368481269574675e-04,8.121919479029111530e-03,-7.167826119525300133e-01,1.212530799720679467e-02,8.130249291875502049e-03,7.168851622760219477e-01
1.176000000000000000e+10,1.764140320675574615e-03,7.198742084212552891e-03,-7.168252645428920822e-01,1.260436121671766087e-02,7.411752739133045317e-03,7.169360709356648043e-01
1.184000000000000000e+10,2.815053350192043419e-03,6.069884835317961719e-03,-7.168181158656106167e-01,1.309238994324801210e-02,6.690891366510922332e-03,7.169376694717261023e-01
1.191999999999999809e+10,3.504479438783502168e-03,4.839624982593736247e-03,-7.167576182524862949e-01,1.358414511016075611e-02,5.975227703527435583e-03,7.168863315208002795e-01
1.200000000000000000e+10,3.845218858776696096e-03,3.607028437409837487e-03,-7.166404964253147991e-01,1.407328037080499313e-02,5.272225547164613273e-03,7.167786676074539010e-01
1.208000000000000000e+10,3.875285677207648480e-03,2.458292691513687400e-03,-7.164640372651306377e-01,1.455220767151455333e-02,4.589231094325099854e-03,7.166118080539598534e-01
1.216000000000000000e+10,3.652185606579356689e-03,1.460666562178246451e-03,-7.162264790893538846e-01,1.501201242337368846e-02,3.933447153677171321e-03,7.163837867133315829e-01
1.224000000000000191e+10,3.245768965577692892e-03,6.584313085939662562e-04,-7.159274992847536323e-01,1.544247698435949334e-02,3.311879823611365518e-03,7.160940261778011573e-01
1.232000000000000000e+10,2.730307880813167155e-03,7.130338791211669920e-05,-7.155687775187551392e-01,1.583227165567710135e-02,2.731238784353765079e-03,7.157439040505094718e-01
1.239999999999999809e+10,2.181951303794618918e-03,-3.162243726729935256e-04,-7.151797210345869349e-01,1.620735562024014711e-02,2.204747002720145680e-03,7.153633424738162772e-01
1.247999999999999809e+10,1.644802623703531860e-03,-4.929872244314679455e-04,-7.146922684086337574e-01,1.644176206334420354e-02,1.717094078492691252e-03,7.148813678246386250e-01
1.256000000000000000e+10,1.162066477078841286e-03,-5.430976040316954105e-04,-7.140056384188775418e-01,1.657801342186851837e-02,1.282713336897764456e-03,7.141980693217845344e-01
1.264000000000000000e+10,7.627689741706877337e-04,-5.318442710056903947e-04,-7.133937746053164997e-01,1.649281087505826901e-02,9.298789365067785693e-04,7.135843961692138748e-01
1.272000000000000000e+10,5.327121529706431696e-04,-3.435855003874110697e-04,-7.131404736110896758e-01,1.677216547642821839e-02,6.339031739935410432e-04,7.133376764457475261e-01
1.280000000000000191e+10,3.510176355316327627e-04,-1.995688298988740794e-04,-7.126235464160716182e-01,1.670281231337946912e-02,4.037834795053209269e-04,7.128192638009966942e-01
1.288000000000000000e+10,2.430360256034328349e-04,-6.290655306120398159e-05,-7.121377157006905101e-01,1.654637437810139999e-02,2.510453030015788304e-04,7.123299155787701231e-01
