# Frequency, Real(S21), Imag(S21), Real(S11), Imag(S11), Amp(S21), Amp(S11)
4.000000000000000000e+09,3.698958083627102876e-05,1.409679834743532054e-04,-7.188282584954094334e-01,6.798089197072622325e-03,1.457401847647674207e-04,7.188604031578554876e-01
4.080000000000000000e+09,2.222521105419344106e-06,1.453525331895014075e-04,-7.187430924035305146e-01,6.949289306102657097e-03,1.453695239885896431e-04,7.187766868086706840e-01
4.160000000000000477e+09,2.109983111181392060e-06,1.463570097458344104e-04,-7.187536207817231126e-01,7.108427851624478030e-03,1.463722184380346694e-04,7.187887708731675040e-01
4.240000000000000000e+09,1.159513890450068694e-06,1.458856904826500908e-04,-7.187035438562298095e-01,7.266622011336626441e-03,1.458902983753948134e-04,7.187402783669212258e-01
4.320000000000000000e+09,3.549155549636578135e-06,1.445343419808519303e-04,-7.187267056500952211e-01,7.429014472961785465e-03,1.445779115804118040e-04,7.187650990905708470e-01
4.400000000000000000e+09,3.778833612105478144e-06,1.428432719265347844e-04,-7.187205594657074537e-01,7.592878534542339165e-03,1.428932465799064250e-04,7.187606655926156440e-01
4.480000000000000000e+09,3.463734603735098207e-06,1.414731008913837948e-04,-7.187288353262639706e-01,7.760178299859138776e-03,1.415154964420108075e-04,7.187707277683846874e-01
4.560000000000000000e+09,3.839715096016045742e-06,1.409133316073504089e-04,-7.187070345331852961e-01,7.927222620416179630e-03,1.409656356588430296e-04,7.187507511967962115e-01
4.640000000000000000e+09,3.727735263373532658e-06,1.415090664224163443e-04,-7.186995683289938430e-01,8.097998138651909747e-03,1.415581572709169000e-04,7.187451892639947770e-01
4.720000000000000000e+09,3.522177049411036284e-06,1.434036346766771625e-04,-7.187050539421588891e-01,8.272788836344286897e-03,1.434468827463646209e-04,7.187526651061074690e-01
4.800000000000000000e+09,3.462416718584032562e-06,1.463992725248751089e-04,-7.186829541169651447e-01,8.447671134459665970e-03,1.464402107528727144e-04,7.187326009621964884e-01
4.880000000000000000e+09,3.405130873260697143e-06,1.503759829562522645e-04,-7.186736667393992528e-01,8.627015275954615092e-03,1.504145311009648020e-04,7.187254445594817298e-01
4.960000000000000000e+09,3.441412553753904957e-06,1.549757100452080541e-04,-7.186636106598841556e-01,8.809714029875461219e-03,1.550139155830260770e-04,7.187176054250999924e-01
5.040000000000000000e+09,3.581857775439458688e-06,1.598562270452872161e-04,-7.186526773656858325e-01,8.996074307652097979e-03,1.598963508973168745e-04,7.187089814645544195e-01
5.120000000000000000e+09,3.819901865719691644e-06,1.647073877328395083e-04,-7.186407344653577001e-01,9.186445248322273882e-03,1.647516774544030495e-04,7.186994476199415338e-01
5.200000000000000000e+09,4.135751253676683985e-06,1.692878565391085820e-04,-7.186276181577434530e-01,9.381225401674016945e-03,1.693383678025688890e-04,7.186888485075503263e-01
5.280000000000000000e+09,4.501920618463205135e-06,1.734421934153144421e-04,-7.186131224392161565e-01,9.580871988750653753e-03,1.735006102178614728e-04,7.186769878393941546e-01
5.360000000000000000e+09,4.888892248462291677e-06,1.771000617242480765e-04,-7.185969832058372031e-01,9.785912618763178625e-03,1.771675284304365810e-04,7.186636127969137089e-01
5.440000000000000000e+09,5.269720099466517673e-06,1.802620303613834815e-04,-7.185788540911791644e-01,9.996959599884074413e-03,1.803390405318134563e-04,7.186483902077801522e-01
5.520000000000000000e+09,5.622841306731349736e-06,1.829775747816993615e-04,-7.185582685715443674e-01,1.021472593650354227e-02,1.830639484370231377e-04,7.186308690548254274e-01
5.600000000000000000e+09,5.932974730621564860e-06,1.853207899119095853e-04,-7.185345789024953911e-01,1.044003871381541174e-02,1.854157365563352641e-04,7.186104198290840239e-01
5.680000000000000000e+09,6.190411215992586853e-06,1.873682145684027987e-04,-7.185068572282872212e-01,1.067383534847511639e-02,1.874704483954047558e-04,7.185861358564584744e-01
5.760000000000000000e+09,6.389384316699282915e-06,1.891815331557670295e-04,-7.184737458586775150e-01,1.091710105596366449e-02,1.892893993838880046e-04,7.185566829302095782e-01
5.840000000000000954e+09,6.526284651200097983e-06,1.907961917317227505e-04,-7.184332915400537534e-01,1.117065948406717121e-02,1.909077766113177418e-04,7.185201305644712821e-01
5.920000000000000000e+09,6.598363981275189041e-06,1.922151457016607807e-04,-7.183829510674530905e-01,1.143476235343628654e-02,1.923283667178091335e-04,7.184739509366100396e-01
6.000000000000000000e+09,6.602750603781413494e-06,1.934056384749024873e-04,-7.183199938348374669e-01,1.170873685356511179e-02,1.935183125944943156e-04,7.184154146881781555e-01
6.080000000000000000e+09,6.534332552304411551e-06,1.942965965255241787e-04,-7.182420436422385368e-01,1.199108996066268126e-02,1.944064425972206415e-04,7.183421326177548139e-01
6.160000000000000000e+09,6.380206118145614156e-06,1.947754869831837363e-04,-7.181472949686823481e-01,1.227989607226784297e-02,1.948799562798760477e-04,7.182522767930369367e-01
6.239999999999999046e+09,6.109043162483458405e-06,1.946850868170042661e-04,-7.180344473610524858e-01,1.257308190793669615e-02,1.947809113781573246e-04,7.181445188719021155e-01
6.320000000000000000e+09,5.654746353164981002e-06,1.938213193573098297e-04,-7.179025845891149338e-01,1.286854976003197482e-02,1.939037905604914093e-04,7.180179110110399554e-01
6.400000000000000954e+09,4.894472538931037031e-06,1.919338378011141086e-04,-7.177510838033931417e-01,1.316421804177886692e-02,1.919962342195771603e-04,7.178717956136714262e-01
6.480000000000000000e+09,3.621778747710209046e-06,1.887314359155767263e-04,-7.175795578581589673e-01,1.345803157159690400e-02,1.887661838996932588e-04,7.177057478310264749e-01
6.560000000000000000e+09,1.516276506382938831e-06,1.838948138931613201e-04,-7.173878196150307307e-01,1.374796251816572286e-02,1.839010648997015660e-04,7.175195399467590995e-01
6.640000000000000000e+09,-1.887972322627744313e-06,1.770991861452476327e-04,-7.171758595531882996e-01,1.403200914453021746e-02,1.771092492581911556e-04,7.173131190815393854e-01
6.720000000000000000e+09,-7.232308267283798185e-06,1.680489726288290268e-04,-7.169438315100090664e-01,1.430819456702332043e-02,1.682045287276116917e-04,7.170865930778653752e-01
6.799999999999999046e+09,-1.535782510426892127e-05,1.565259800229639820e-04,-7.166920436922957771e-01,1.457456614337601826e-02,1.572776055707952154e-04,7.168402217161835566e-01
6.880000000000000000e+09,-2.731984908473092453e-05,1.424514778991385383e-04,-7.164209533633737470e-01,1.482919565396852504e-02,1.450475705058903411e-04,7.165744116711320055e-01
6.960000000000000954e+09,-4.438780261652942503e-05,1.259609776328440302e-04,-7.161311643454753018e-01,1.507018034851818553e-02,1.335531538652150706e-04,7.162897143492590324e-01
7.039999999999999046e+09,-6.802560585759170257e-05,1.074891123057144111e-04,-7.158234268243620635e-01,1.529564501208416187e-02,1.272061017269332885e-04,7.159868260987127808e-01
7.120000000000000000e+09,-9.984804685382706220e-05,8.785996838903925945e-05,-7.154986391217441621e-01,1.550374526030338235e-02,1.330000244580692578e-04,7.156665904610639561e-01
7.200000000000000000e+09,-1.415492499481167655e-04,6.837703379312514438e-05,-7.151578511515090941e-01,1.569267234630113139e-02,1.571992649830800310e-04,7.153300021871110692e-01
7.280000000000000000e+09,-1.948006477726553856e-04,5.090508761800338947e-05,-7.148022692821656143e-01,1.586065983533059900e-02,2.013420480626010431e-04,7.149782127459168857e-01
7.359999999999999046e+09,-2.617694967959503728e-04,4.102956576549704948e-05,-7.143745961844066850e-01,1.626912873350610036e-02,2.649654594842700038e-04,7.145598283022783770e-01
7.440000000000000000e+09,-3.416941972872318241e-04,3.262661755165950422e-05,-7.140523675322247854e-01,1.612701759912851460e-02,3.432483366786035525e-04,7.142344602964898481e-01
7.520000000000000000e+09,-4.372147202153189209e-04,3.880659475853604845e-05,-7.136612982026021568e-01,1.622215942360127547e-02,4.389335523398876066e-04,7.138456464871016927e-01
7.599999999999999046e+09,-5.476398436112330003e-04,6.093521865748472224e-05,-7.132619487232999544e-01,1.628993638580845602e-02,5.510195088954393831e-04,7.134479445089270122e-01
7.680000000000000000e+09,-6.719848562917339532e-04,1.040108244430523222e-04,-7.128563998849581917e-01,1.632898172176648968e-02,6.799866900805822409e-04,7.130433945427256948e-01
7.760000000000000954e+09,-8.080969332142388592e-04,1.734189435138326543e-04,-7.124469215457789328e-01,1.633806731001411286e-02,8.264954830122859912e-04,7.126342318914268281e-01
7.840000000000000000e+09,-9.524474708418923137e-04,2.747168852954703314e-04,-7.120359724983359451e-01,1.631613059543666339e-02,9.912747105518034813e-04,7.122228880408565388e-01
7.919999999999999046e+09,-1.099955786111558344e-03,4.133521557000039651e-04,-7.116261965334854667e-01,1.626230427870135192e-02,1.175058609611510669e-03,7.118119879105492265e-01
8.000000000000000000e+09,-1.243862313604537830e-03,5.943160978929076538e-04,-7.112204137949728056e-01,1.617594832166096772e-02,1.378551805127498954e-03,7.114043423418200396e-01
8.080000000000000000e+09,-1.375670038223652820e-03,8.217377108529203738e-04,-7.108216065490885471e-01,1.605668341262954726e-02,1.602410970851131117e-03,7.110029348879234323e-01
8.159999999999999046e+09,-1.485173124636841435e-03,1.098427055356579257e-03,-7.104328985903437532e-01,1.590442497620501300e-02,1.847236099171647604e-03,7.106109020647666252e-01
8.240000000000000000e+09,-1.560590250093347011e-03,1.425382880811786566e-03,-7.100575276405085567e-01,1.571941645872107843e-02,2.113565301947806577e-03,7.102315063503972237e-01
8.320000000000000954e+09,-1.588818341176720210e-03,1.801283873950633094e-03,-7.096988103522982039e-01,1.550226043658760669e-02,2.401867464248213895e-03,7.098681014766835551e-01
8.400000000000000000e+09,-1.555819053034682500e-03,2.221988528409041611e-03,-7.093600997973718014e-01,1.525394590162272059e-02,2.712527593623171619e-03,7.095240898307166866e-01
8.480000000000000000e+09,-1.447146091839366256e-03,2.680073614067510646e-03,-7.090447356974597382e-01,1.497586989190175660e-02,3.045821135251845519e-03,7.092028721736113317e-01
8.560000000000000000e+09,-1.248616143254232397e-03,3.164446116550250800e-03,-7.087559881341880530e-01,1.466985167773113101e-02,3.401876173193997630e-03,7.089077903820185655e-01
8.640000000000000000e+09,-9.471194654896227146e-04,3.660067608685554572e-03,-7.084969959010571916e-01,1.433813770258988984e-02,3.780625633682676776e-03,7.086420643693126520e-01
8.720000000000000000e+09,-5.315585186092439910e-04,4.147833325301138532e-03,-7.082707012358520071e-01,1.398339568293284138e-02,4.181755104401112429e-03,7.084087249490585991e-01
8.800000000000000000e+09,6.106464873474918512e-06,4.604650129014790233e-03,-7.080797830408657179e-01,1.360869667853383327e-02,4.604654178062579997e-03,7.082105448074660359e-01
8.880000000000000000e+09,6.697368988703229949e-04,5.003757993813383320e-03,-7.079265912108198000e-01,1.321748437975708672e-02,5.048380094085603773e-03,7.080499702963769515e-01
8.959999999999998093e+09,1.457864990697816223e-03,5.315337605822166578e-03,-7.078130849121083701e-01,1.281353150315163621e-02,5.511640789725838485e-03,7.079290570123378812e-01
9.040000000000000000e+09,2.362572339281031070e-03,5.507441619065389302e-03,-7.077407777474337136e-01,1.240088394281664043e-02,5.992800784754106699e-03,7.078494122404183075e-01
9.120000000000000000e+09,3.368472976272570557e-03,5.547277901610743293e-03,-7.077106926882845706e-01,1.198379404558018273e-02,6.489907727354640547e-03,7.078121472997326302e-01
9.200000000000000000e+09,4.451895410704666441e-03,5.402857960469222010e-03,-7.077233289935471738e-01,1.156664430837264605e-02,7.000731882371936422e-03,7.078178421474448090e-01
9.280000000000000000e+09,5.580372109224210515e-03,5.045004760113313072e-03,-7.077786451596123074e-01,1.115387053376291210e-02,7.522807049697171136e-03,7.078665265230870141e-01
9.360000000000000000e+09,6.712563251529876304e-03,4.449674697772525341e-03,-7.078760529984332583e-01,1.074986902945488342e-02,8.053453316546036259e-03,7.079576725290793737e-01
9.440000000000000000e+09,7.798745328244018060e-03,3.600528027980812520e-03,-7.080144334480661383e-01,1.035892267713197160e-02,8.589774780230463244e-03,7.080902098248618159e-01
9.520000000000000000e+09,8.781998367514899650e-03,2.491610138325457864e-03,-7.081921633164101060e-01,9.985118243907978308e-03,9.128615251419055360e-03,7.082625521437101446e-01
9.600000000000000000e+09,9.600204048214695460e-03,1.129969121464595308e-03,-7.084071576258603731e-01,9.632277035139479721e-03,9.666475468484947778e-03,7.084726400761234277e-01
9.680000000000000000e+09,1.018892972542001854e-02,-4.620334732511816641e-04,-7.086569231718831130e-01,9.303895480350614713e-03,1.019940017255682556e-02,7.087179955599756109e-01
9.760000000000000000e+09,1.048520667000312975e-02,-2.245013366711344580e-03,-7.089386206949740421e-01,9.003098714871090452e-03,1.072285614607370978e-02,7.089957853889978789e-01
9.840000000000000000e+09,1.043211506964936836e-02,-4.161789986225442398e-03,-7.092491323559417804e-01,8.732608331556340753e-03,1.123163036766487363e-02,7.093028903056356471e-01
9.920000000000000000e+09,9.983964016481976927e-03,-6.137891964580350843e-03,-7.095851309694845011e-01,8.494724808294303389e-03,1.171978051207730499e-02,7.096359760063952749e-01
1.000000000000000000e+10,9.111710396235109255e-03,-8.083647839514519762e-03,-7.099431477614163155e-01,8.291323931666483293e-03,1.218066618613886619e-02,7.099915627005211061e-01
1.008000000000000000e+10,7.808113426967060872e-03,-9.898070118627328579e-03,-7.103196355587269029e-01,8.123865995179099797e-03,1.260707846257992128e-02,7.103660900261147271e-01
1.016000000000000000e+10,6.091998417363899028e-03,-1.147457269381810946e-02,-7.107110250679908869e-01,7.993415729530330485e-03,1.299146886317634371e-02,7.107559748944918265e-01
1.024000000000000000e+10,4.010938274167484205e-03,-1.270832880289314917e-02,-7.111137724260674364e-01,7.900670633353727365e-03,1.332626154634619295e-02,7.111576603893750015e-01
1.032000000000000000e+10,1.641690165207698770e-03,-1.350479660280112966e-02,-7.115243969959275105e-01,7.845995080158388313e-03,1.360421544527903349e-02,7.115676546606204411e-01
1.040000000000000000e+10,-9.121245979067137740e-04,-1.378865786700089052e-02,-7.119395090734158549e-01,7.829457643440120365e-03,1.381879361794335730e-02,7.119825594680579961e-01
1.048000000000000000e+10,-3.739573515977529742e-03,-1.348155153837608811e-02,-7.123558277586246046e-01,7.850869280889740190e-03,1.399059119420231062e-02,7.123990886365176856e-01
1.056000000000000000e+10,-6.059333051278387866e-03,-1.266194485609282994e-02,-7.127701896877565169e-01,7.909820320493560208e-03,1.403710670206115979e-02,7.128140771372454276e-01
1.064000000000000000e+10,-8.372508903649530931e-03,-1.126278915314164741e-02,-7.131795496812952662e-01,8.005714716502514150e-03,1.403386350403251596e-02,7.132244818791185770e-01
1.072000000000000000e+10,-1.033180406366491187e-02,-9.378365051176253825e-03,-7.135809743516464687e-01,8.137800314158456783e-03,1.395349082642357956e-02,7.136273752811045368e-01
1.080000000000000000e+10,-1.182428988891700422e-02,-7.107758665769025458e-03,-7.139716297783227361e-01,8.305194311741117413e-03,1.379616122796336296e-02,7.140199327615932567e-01
1.088000000000000000e+10,-1.276726765104546461e-02,-4.578442812512366691e-03,-7.143487640762129498e-01,8.506903229832567595e-03,1.356337944101241103e-02,7.143994149912040736e-01
1.096000000000000000e+10,-1.313062254533693164e-02,-1.947888188652493200e-03,-7.147331564501688828e-01,8.755337640898546228e-03,1.327431794193593972e-02,7.147867800025597962e-01
1.104000000000000000e+10,-1.286595509483786856e-02,6.667806490937133040e-04,-7.150517374073046550e-01,9.008815370212606977e-03,1.288322152787843393e-02,7.151084854227220955e-01
1.112000000000000191e+10,-1.205579329991850537e-02,3.084519872778064640e-03,-7.153722681170405773e-01,9.306568673776884418e-03,1.244413174696903934e-02,7.154328020236412344e-01
1.120000000000000000e+10,-1.076014808722069831e-02,5.188782521847337334e-03,-7.156686003909029647e-01,9.633726584872109519e-03,1.194588845243197729e-02,7.157334380014572783e-01
1.128000000000000000e+10,-9.083864786293912447e-03,6.878740635654628267e-03,-7.159379973872633807e-01,9.988798070595101067e-03,1.139445795938871277e-02,7.160076760690351483e-01
1.135999999999999809e+10,-7.151995414154444647e-03,8.087651274841399160e-03,-7.161776291023351781e-01,1.037013736763656505e-02,1.079634852843913695e-02,7.162527041314856735e-01
1.143999999999999809e+10,-5.098879535513398988e-03,8.786173330922353308e-03,-7.163845409045421775e-01,1.077589441726781692e-02,1.015851437557128804e-02,7.164655821094993993e-01
1.152000000000000000e+10,-3.057123185861939686e-03,8.982259584925537943e-03,-7.165556280086341490e-01,1.120394701591248196e-02,9.488255341448256081e-03,7.166432142004718342e-01
1.160000000000000000e+10,-1.147484460718516987e-03,8.717918811221945369e-03,-7.166876211450892153e-01,1.165181208294751615e-02,8.793112588079826653e-03,7.167823316931182243e-01
1.168000000000000191e+10,5.295307856865822619e-04,8.063397645784654844e-03,-7.167770908251666073e-01,1.211653432037191995e-02,8.080766327956486264e-03,7.168794935940948632e-01
1.176000000000000000e+10,1.899802659481952469e-03,7.109487451133687103e-03,-7.168204800566179147e-01,1.259455193438096393e-02,7.358944351114640042e-03,7.169311147990634625e-01
1.184000000000000000e+10,2.911249419282116273e-03,5.969666759572403447e-03,-7.168141780019907650e-01,1.308154195052278063e-02,6.641708695931653091e-03,7.169335342446138126e-01
1.191999999999999809e+10,3.625592983783051081e-03,4.663992558027412957e-03,-7.167546496952890145e-01,1.357225228223875486e-02,5.907431850253710634e-03,7.168831382393012763e-01
1.200000000000000000e+10,3.880553122964094329e-03,3.481285751476764258e-03,-7.166386385019303251e-01,1.406033465266722481e-02,5.213256470151984498e-03,7.167765559813220611e-01
1.208000000000000000e+10,3.879022917027179652e-03,2.339065532895195400e-03,-7.164634571438422972e-01,1.453820218371459742e-02,4.529685017526090263e-03,7.166109437799850213e-01
1.216000000000000000e+10,3.629343304615353059e-03,1.355316016979576021e-03,-7.162273779542870367e-01,1.499694757887612591e-02,3.874146916243326189e-03,7.163843698517973202e-01
1.224000000000000191e+10,3.202976524599866759e-03,5.721771349674114812e-04,-7.159301206923477379e-01,1.542637079800255120e-02,3.253681805419416945e-03,7.160962998302372595e-01
1.232000000000000000e+10,2.648275747968258358e-03,-2.571521109735242817e-05,-7.154255297299320082e-01,1.569223734586490393e-02,2.648400594577530846e-03,7.155976068310128113e-01
1.239999999999999809e+10,2.131381492590069763e-03,-3.676031004693901694e-04,-7.150846250106982493e-01,1.614942508698697862e-02,2.162849765108566455e-03,7.152669605520243223e-01
1.247999999999999809e+10,1.604682960983479928e-03,-5.327806353978005146e-04,-7.146014830708711241e-01,1.638541886347671256e-02,1.690817142900317505e-03,7.147893127057931562e-01
1.256000000000000000e+10,1.147180307146596382e-03,-5.538865648812498106e-04,-7.142055401053147845e-01,1.661931992476420664e-02,1.273896771273445774e-03,7.143988768971336611e-01
1.264000000000000000e+10,7.631439573158860495e-04,-4.612803498150793574e-04,-7.136862468865792231e-01,1.673134169273720814e-02,8.917220759369328060e-04,7.138823409987744562e-01
1.272000000000000000e+10,5.002777311695232910e-04,-3.306247277238166566e-04,-7.131610093968551167e-01,1.675382805227332295e-02,5.996586686495691820e-04,7.133577756486196852e-01
1.280000000000000191e+10,3.286090897338067541e-04,-1.838852665820066919e-04,-7.126483519069806150e-01,1.668593292448741772e-02,3.765603870850155297e-04,7.128436671762583554e-01
1.288000000000000000e+10,2.288230806474851240e-04,-4.763847007580246850e-05,-7.121668933516503985e-01,1.653189231070032253e-02,2.337293864026699904e-04,7.123587491211949008e-01
