# Frequency, Real(S21), Imag(S21), Real(S11), Imag(S11), Amp(S21), Amp(S11)
4.000000000000000000e+09,3.698704546061505968e-05,1.409684000921135967e-04,-7.188282573178020884e-01,6.798192601344314398e-03,1.457399442721034430e-04,7.188604029581774357e-01
4.080000000000000000e+09,2.219280654703798823e-06,1.453544937791760128e-04,-7.187430885202987785e-01,6.949397021074217411e-03,1.453714348433861401e-04,7.187766839670403085e-01
4.160000000000000477e+09,2.107193847763738417e-06,1.463590359231931710e-04,-7.187536163754000285e-01,7.108541323973404866e-03,1.463742042242368647e-04,7.187887675892482564e-01
4.240000000000000000e+09,1.157121233324094447e-06,1.458876933314405262e-04,-7.187035393400537098e-01,7.266738810708844691e-03,1.458922821643319438e-04,7.187402750318526712e-01
4.320000000000000000e+09,3.547113092520772740e-06,1.445366316194833729e-04,-7.187267005771766915e-01,7.429137386090407628e-03,1.445801504052246261e-04,7.187650952883396505e-01
4.400000000000000000e+09,3.776981438733428265e-06,1.428457012804529574e-04,-7.187205539107490715e-01,7.593007081581107029e-03,1.428956261160324538e-04,7.187606613959300894e-01
4.480000000000000000e+09,3.461918240342826356e-06,1.414756838431537717e-04,-7.187288292665698908e-01,7.760314075046446415e-03,1.415180341751213740e-04,7.187707231749479453e-01
4.560000000000000000e+09,3.837795324949043136e-06,1.409160562387943194e-04,-7.187070278513817412e-01,7.927363432650692820e-03,1.409683070014364757e-04,7.187507460684546823e-01
4.640000000000000000e+09,3.725617537558701176e-06,1.415119342286879343e-04,-7.186995609874043955e-01,8.098145639374731281e-03,1.415609683323078587e-04,7.187451835847558090e-01
4.720000000000000000e+09,3.519831395058514113e-06,1.434066799387039481e-04,-7.187050461564232773e-01,8.272945009579500686e-03,1.434498695157702594e-04,7.187526591184467684e-01
4.800000000000000000e+09,3.459877788126857165e-06,1.464023918533450045e-04,-7.186829452150790276e-01,8.447833293217309886e-03,1.464432692024087443e-04,7.187325939668871566e-01
4.880000000000000000e+09,3.402502707736451744e-06,1.503792064920710732e-04,-7.186736569120553142e-01,8.627185483974212157e-03,1.504176943376712820e-04,7.187254367759091656e-01
4.960000000000000000e+09,3.438846838091876264e-06,1.549790227049576731e-04,-7.186635997891517302e-01,8.809892829686473761e-03,1.550171704881741119e-04,7.187175967468534266e-01
5.040000000000000000e+09,3.579535702198029854e-06,1.598596147364301785e-04,-7.186526653134099885e-01,8.996262297121276896e-03,1.598996857392884273e-04,7.187089717663101007e-01
5.120000000000000000e+09,3.818014098102713561e-06,1.647108371392226210e-04,-7.186407210682604907e-01,9.186643088612915162e-03,1.647550821758067313e-04,7.186994367527685945e-01
5.200000000000000000e+09,4.134481187675242403e-06,1.692913553010636516e-04,-7.186276032209776288e-01,9.381433828159124397e-03,1.693418345074902275e-04,7.186888362927303930e-01
5.280000000000000000e+09,4.501434926404290166e-06,1.734457290116357437e-04,-7.186131057274751655e-01,9.581091823396165399e-03,1.735041320221925737e-04,7.186769740598454304e-01
5.360000000000000000e+09,4.889336017990076090e-06,1.771036214088683876e-04,-7.185969644310401527e-01,9.786144785488080922e-03,1.771710990055449207e-04,7.186635971852672888e-01
5.440000000000000000e+09,5.271220015815772246e-06,1.802656006018264474e-04,-7.185788328950718507e-01,9.997205143421363654e-03,1.803426530823819046e-04,7.186483724294678854e-01
5.520000000000000000e+09,5.625511675980022911e-06,1.829811419493962768e-04,-7.185582444997529183e-01,1.021498604484628696e-02,1.830675959604039383e-04,7.186308486827316377e-01
5.600000000000000000e+09,5.936925448752308250e-06,1.853243416080566780e-04,-7.185345513652805494e-01,1.044031474403964155e-02,1.854194128893836612e-04,7.186103963050212151e-01
5.680000000000000000e+09,6.195754808207064410e-06,1.873717430557503988e-04,-7.185068254397479759e-01,1.067412885216795400e-02,1.874741514806603190e-04,7.185861084311727653e-01
5.760000000000000000e+09,6.396240755258344611e-06,1.891850424014551214e-04,-7.184737087429542424e-01,1.091741379194606162e-02,1.892931381858296597e-04,7.185566505702665197e-01
5.840000000000000954e+09,6.534783827067116754e-06,1.907997027269637646e-04,-7.184332476002998069e-01,1.117099338764791089e-02,1.909115762869403302e-04,7.185200918212242271e-01
5.920000000000000000e+09,6.608644750352686355e-06,1.922187169012996313e-04,-7.183828982505953142e-01,1.143511941911540090e-02,1.923322887936873159e-04,7.184739038093551633e-01
6.000000000000000000e+09,6.614961094211402364e-06,1.934093897583862281e-04,-7.183199294732235396e-01,1.170911893630315233e-02,1.935224786865579838e-04,7.184153565624007420e-01
6.080000000000000000e+09,6.548636863512751253e-06,1.943007483401013188e-04,-7.182419645092490423e-01,1.199149858406274756e-02,1.944110733736469673e-04,7.183420603169474727e-01
6.160000000000000000e+09,6.396806877089381204e-06,1.947804133832721951e-04,-7.181471973921554897e-01,1.228033230706279677e-02,1.948854242265982693e-04,7.182521866891734552e-01
6.239999999999999046e+09,6.128228949391678116e-06,1.946913814137140447e-04,-7.180343273368655632e-01,1.257354631041005324e-02,1.947878055393520772e-04,7.181444069968970778e-01
6.320000000000000000e+09,5.676977906100014399e-06,1.938298674819530958e-04,-7.179024378790110905e-01,1.286904234055836517e-02,1.939129846251092253e-04,7.180177731528589735e-01
6.400000000000000954e+09,4.920517828258165081e-06,1.919458834294540813e-04,-7.177509060196157753e-01,1.316473824809762973e-02,1.920089416178626161e-04,7.178716273994398822e-01
6.480000000000000000e+09,3.652906061377216875e-06,1.887486281374075963e-04,-7.175793445398451764e-01,1.345857828007202689e-02,1.887839726948413780e-04,7.177055448020133177e-01
6.560000000000000000e+09,1.554512029905365158e-06,1.839192055588935004e-04,-7.173875662999332770e-01,1.374853403050319348e-02,1.839257749231076010e-04,7.175192976288017332e-01
6.640000000000000000e+09,-1.839526505913676477e-06,1.771331606604543410e-04,-7.171755618460470272e-01,1.403260319062440975e-02,1.771427121372151972e-04,7.173128330522874352e-01
6.720000000000000000e+09,-7.169104539818925165e-06,1.680950680310475337e-04,-7.169434851491860439e-01,1.430880831217388668e-02,1.682478765282502679e-04,7.170862590324651453e-01
6.799999999999999046e+09,-1.527347076973639998e-05,1.565865615677340271e-04,-7.166916446139987018e-01,1.457519620214946243e-02,1.573296862418524847e-04,7.168398355308173153e-01
6.880000000000000000e+09,-2.720571511267429838e-05,1.425282378522866960e-04,-7.164204977645227679e-01,1.482983810929163968e-02,1.451015145340323704e-04,7.165739694654797987e-01
6.960000000000000954e+09,-4.423268497991413137e-05,1.260542843509225379e-04,-7.161306487434939694e-01,1.507083077711032608e-02,1.335897190047031992e-04,7.162892125462241300e-01
7.039999999999999046e+09,-6.781551516745764371e-05,1.075970335989535415e-04,-7.158228481145322286e-01,1.529629851549203778e-02,1.271851631941478208e-04,7.159862614820732274e-01
7.120000000000000000e+09,-9.956619084254433828e-05,8.797719730806294238e-05,-7.154979946312310934e-01,1.550439650183286187e-02,1.328661492069210001e-04,7.156659602301895795e-01
7.200000000000000000e+09,-1.411763111112322266e-04,6.849350856110212162e-05,-7.151571386885312576e-01,1.569331559413716243e-02,1.569143445768588765e-04,7.153293040072552511e-01
7.280000000000000000e+09,-1.943154411208437089e-04,5.100456042406926777e-05,-7.148014871806039894e-01,1.586128901063020222e-02,2.008978741600831710e-04,7.149774447943667566e-01
7.359999999999999046e+09,-2.611471714887569906e-04,4.108503081647676145e-05,-7.143737159645373591e-01,1.626961995728313376e-02,2.643592724565739386e-04,7.145589594949712797e-01
7.440000000000000000e+09,-3.409196749502684930e-04,3.261105831893251804e-05,-7.140514434442754022e-01,1.612759927560104140e-02,3.424758471671798484e-04,7.142335495783207477e-01
7.520000000000000000e+09,-4.362674154234686850e-04,3.867322886593127984e-05,-7.136603029830548284e-01,1.622270726096057200e-02,4.379781688522729299e-04,7.138446639744114863e-01
7.599999999999999046e+09,-5.465083753513309828e-04,6.062896225017197493e-05,-7.132608831242359670e-01,1.629044348199668382e-02,5.498611419191976523e-04,7.134468907662329107e-01
7.680000000000000000e+09,-7.347844814513145159e-04,-1.847675103135900656e-04,-7.128552653018342955e-01,1.632944112548430707e-02,7.576590704592400501e-04,7.130422707778405478e-01
7.760000000000000954e+09,-8.066067155352322701e-04,1.725554881904891365e-04,-7.124457200182172656e-01,1.633847207688254172e-02,8.248574361980336601e-04,7.126330399596155774e-01
7.840000000000000000e+09,-9.508153883017980874e-04,2.734485459841226335e-04,-7.120347067015048159e-01,1.631647384611834006e-02,9.893553506866630074e-04,7.122216304397592790e-01
7.919999999999999046e+09,-1.098236507953966046e-03,4.115851176644373405e-04,-7.116248697641133214e-01,1.626257924931325677e-02,1.172828093322192964e-03,7.118106677696194318e-01
8.000000000000000000e+09,-1.242138617023364313e-03,5.919546352193539012e-04,-7.112190299503666768e-01,1.617614840882788604e-02,1.375979154659835117e-03,7.114029634046269424e-01
8.080000000000000000e+09,-1.374056967466246891e-03,8.186903704689893176e-04,-7.108201701054992494e-01,1.605680220986800341e-02,1.599464433034129482e-03,7.110015014935043842e-01
8.159999999999999046e+09,-1.483821146934817797e-03,1.094614671953616060e-03,-7.104314145803329872e-01,1.590445629942758080e-02,1.843883531068890840e-03,7.106094191275494909e-01
8.240000000000000000e+09,-1.559686874729216376e-03,1.420748271702402437e-03,-7.100560016356961546e-01,1.571935436373389158e-02,2.109774584818945465e-03,7.102299793450600474e-01
8.320000000000000954e+09,-1.588587599007249647e-03,1.795803074211830153e-03,-7.096972484511013812e-01,1.550209923021024505e-02,2.397606982194596097e-03,7.098665364275228429e-01
8.400000000000000000e+09,-1.556518217510035815e-03,2.215683202056928890e-03,-7.093585086258424877e-01,1.525368014286746822e-02,2.707766794485423536e-03,7.095224933134821610e-01
8.480000000000000000e+09,-1.449059041331678468e-03,2.673024092219338475e-03,-7.090431224215690831e-01,1.497549439597660632e-02,3.040531187613457285e-03,7.092012513283744157e-01
8.560000000000000000e+09,-1.252042829044612993e-03,3.156804300088303199e-03,-7.087543604906045847e-01,1.466936152027427213e-02,3.396030717590469653e-03,7.089061529439975029e-01
8.640000000000000000e+09,-9.523610914726155993e-04,3.652068764576897521e-03,-7.084953622441637622e-01,1.433752823090754525e-02,3.774201625476457985e-03,7.086404187154871082e-01
8.720000000000000000e+09,-5.388982134054300490e-04,4.139805558954922152e-03,-7.082690706004589609e-01,1.398266254381354962e-02,4.174733686160787827e-03,7.084070801601661804e-01
8.800000000000000000e+09,-3.572616884977913247e-06,4.597020185127639186e-03,-7.080781652211417532e-01,1.360783586911990320e-02,4.597021573373607888e-03,7.082089107459601518e-01
8.880000000000000000e+09,6.575466589798734454e-04,4.997051808048679801e-03,-7.079249968490866074e-01,1.321649232726692345e-02,5.040128409183458440e-03,7.080483576940320711e-01
8.959999999999998093e+09,1.443092227685093421e-03,5.310174059575122583e-03,-7.078115255846865184e-01,1.281240517862260869e-02,5.502768732246491636e-03,7.079274775547156340e-01
9.040000000000000000e+09,2.345278459419967033e-03,5.504517921815484625e-03,-7.077392660524490786e-01,1.239962101398829619e-02,5.983314182274499307e-03,7.078478786531395839e-01
9.120000000000000000e+09,3.348884589839209482e-03,5.547345232368848522e-03,-7.077092423069404337e-01,1.198239307525446329e-02,6.479819991569821420e-03,7.078106734081321960e-01
9.200000000000000000e+09,4.430433419726642445e-03,5.406686730500577520e-03,-7.077219550196736098e-01,1.156510588291153468e-02,6.990064498157490779e-03,7.078164432188276400e-01
9.280000000000000000e+09,5.557675215374767268e-03,5.053337079650914096e-03,-7.077773629141064227e-01,1.115219397585118406e-02,7.511589009002409001e-03,7.078652180211439937e-01
9.360000000000000000e+09,6.689500976378872851e-03,4.463169532359627205e-03,-7.078748797208653798e-01,1.074805805061132546e-02,8.041722799721285134e-03,7.079564718905314580e-01
9.440000000000000000e+09,7.776417907048083222e-03,3.619693894890482246e-03,-7.080133869814957404e-01,1.035698214010196544e-02,8.577578875053585780e-03,7.080891350840370357e-01
9.520000000000000000e+09,8.761718480754812632e-03,2.516733332844197247e-03,-7.081912621891123250e-01,9.983055376042519399e-03,9.116011046759952066e-03,7.082616220265285367e-01
9.600000000000000000e+09,9.583457177296764162e-03,1.161039839672172499e-03,-7.084064207374589639e-01,9.630101746193277593e-03,9.653531218076981738e-03,7.084718736842696707e-01
9.680000000000000000e+09,1.017731035500824346e-02,-4.253904927488436722e-04,-7.086563694072318675e-01,9.301620631998444924e-03,1.018619669619034648e-02,7.087174119829572350e-01
9.760000000000000000e+09,1.048032932099662168e-02,-2.203596168665741036e-03,-7.089382684407224966e-01,9.000740330383354484e-03,1.070948825813352462e-02,7.089954032193896971e-01
9.840000000000000000e+09,1.043550145321930911e-02,-4.116855781834989972e-03,-7.092489989547060558e-01,8.730185723572373574e-03,1.121820806138709888e-02,7.093027270926149930e-01
9.920000000000000000e+09,9.980365350139909844e-03,-6.099215081684357040e-03,-7.096874672264745776e-01,8.470236196866156100e-03,1.169650020881969968e-02,7.097380122549158399e-01
1.000000000000000000e+10,9.135145222089427475e-03,-8.037279485569745474e-03,-7.099434968371781673e-01,8.288843926175043508e-03,1.216752808740639673e-02,7.099918827951717804e-01
1.008000000000000000e+10,7.842451856736959437e-03,-9.854570718025120260e-03,-7.103202430264761169e-01,8.121398958503219662e-03,1.259430884017837329e-02,7.103666692450000264e-01
1.016000000000000000e+10,6.137015845294664131e-03,-1.143667703729890628e-02,-7.107118978356921080e-01,7.990992974863666068e-03,1.297923515238389759e-02,7.107568203639944571e-01
1.024000000000000000e+10,4.065675070059090838e-03,-1.267882371237363109e-02,-7.111149133116927423e-01,7.898325489980317915e-03,1.331473937051521304e-02,7.111587751549170999e-01
1.032000000000000000e+10,1.704407381265737311e-03,-1.348630888552179025e-02,-7.115258042996873700e-01,7.843762234362880448e-03,1.359358421745409697e-02,7.115690372622365256e-01
1.040000000000000000e+10,-8.439236262800812929e-04,-1.378342024048677047e-02,-7.119411762870003768e-01,7.827372381923609901e-03,1.380923171696579570e-02,7.119842036529483442e-01
1.048000000000000000e+10,-3.454801617930453300e-03,-1.352180279559285318e-02,-7.123577434404119169e-01,7.848966664686542541e-03,1.395617444223729887e-02,7.124009832371226425e-01
1.056000000000000000e+10,-5.990121366909450899e-03,-1.268718644193730233e-02,-7.127723375327442712e-01,7.908134370267588115e-03,1.403019079709120868e-02,7.128162061437088859e-01
1.064000000000000000e+10,-8.308498013315714081e-03,-1.130343648177930573e-02,-7.131819087633641807e-01,8.004277601872873335e-03,1.402850011707917725e-02,7.132268246829218672e-01
1.072000000000000000e+10,-1.027682724358947551e-02,-9.433136516509692607e-03,-7.135835195425872524e-01,8.136641654351729064e-03,1.394981156624316120e-02,7.136299070948451950e-01
1.080000000000000000e+10,-1.178181308904349342e-02,-7.174329956402623019e-03,-7.139743323047511581e-01,8.304340592699415921e-03,1.379427888613582627e-02,7.140226251756276454e-01
1.088000000000000000e+10,-1.274008471307911880e-02,-4.653567856021815011e-03,-7.143515921764854726e-01,8.506377390205663649e-03,1.356338646087442736e-02,7.144022366296066684e-01
1.096000000000000000e+10,-1.310565678820527560e-02,-2.015937862606884991e-03,-7.147126052496460824e-01,8.741658058724564515e-03,1.325979808730596947e-02,7.147660629103427254e-01
1.104000000000000000e+10,-1.287382997114855550e-02,5.868224135237234832e-04,-7.150547129573145977e-01,9.008998958990046060e-03,1.288719747156287856e-02,7.151114630494400659e-01
1.112000000000000191e+10,-1.208111192598249409e-02,3.008777037922526904e-03,-7.153752630543166457e-01,9.307126314547995924e-03,1.245014074747937544e-02,7.154358039616606213e-01
1.120000000000000000e+10,-1.080126786346731656e-02,5.121430421122952215e-03,-7.156715778290663188e-01,9.634666573239331067e-03,1.195392977295648383e-02,7.157364278226466814e-01
1.128000000000000000e+10,-9.138083546420533790e-03,6.823353146518733661e-03,-7.159409205115677688e-01,9.990125768703825293e-03,1.140450433221316257e-02,7.160106174323294104e-01
1.135999999999999809e+10,-7.215768949600169339e-03,8.046924810468949335e-03,-7.161804614337763386e-01,1.037185575208071295e-02,1.080834494450258823e-02,7.162555610473393397e-01
1.143999999999999809e+10,-5.168109804982863945e-03,8.761729254335205025e-03,-7.163872463755887043e-01,1.077800469553879571e-02,1.017237722868324229e-02,7.164683190168393834e-01
1.152000000000000000e+10,-3.127489398494583041e-03,8.974541371182758950e-03,-7.165581708268699002e-01,1.120644928482624619e-02,9.503871987814594552e-03,7.166457958324482513e-01
1.160000000000000000e+10,-1.214786497947216914e-03,8.726191018495031357e-03,-7.166899654178509049e-01,1.165470599129407939e-02,8.810341419426276008e-03,7.167847227043722125e-01
1.168000000000000191e+10,4.690469239747548699e-04,8.085844358184796077e-03,-7.167791999121758684e-01,1.211981970532027830e-02,8.099437264506657158e-03,7.168816579160248725e-01
1.176000000000000000e+10,1.849165123690931032e-03,7.143399658633755103e-03,-7.168223156059946310e-01,1.259822936184119661e-02,7.378859690876616098e-03,7.169330146769596901e-01
1.184000000000000000e+10,2.880444325787208208e-03,6.000764638339117253e-03,-7.168156986080599369e-01,1.308561309562596489e-02,6.656285432484166167e-03,7.169351288931582467e-01
1.191999999999999809e+10,3.548434188240451922e-03,4.762784878439634342e-03,-7.167558091256750474e-01,1.357672001338098774e-02,5.939318562475573784e-03,7.168843820601219496e-01
1.200000000000000000e+10,3.889976808086726291e-03,3.473808382895226046e-03,-7.167369733545548849e-01,1.411812944839977921e-02,5.215291386732455459e-03,7.168760077953296728e-01
1.208000000000000000e+10,3.878044557567641992e-03,2.383766149954209042e-03,-7.164637244536303795e-01,1.454347368585351928e-02,4.552095193221195914e-03,7.166113179993871540e-01
1.216000000000000000e+10,3.638288394298272790e-03,1.394701410104895282e-03,-7.162270915659538773e-01,1.500262319702671231e-02,3.896451522017704665e-03,7.163842023633807399e-01
1.224000000000000191e+10,3.212381746057816484e-03,5.716135119094799787e-04,-7.159434712274526103e-01,1.542988490470905381e-02,3.262842087720911437e-03,7.161097229764352701e-01
1.232000000000000000e+10,2.669500097757014287e-03,-2.291683071084472598e-06,-7.154238940100946520e-01,1.569863724697203103e-02,2.669501081426266676e-03,7.155961118759514017e-01
1.239999999999999809e+10,2.154435391529064929e-03,-3.518696174991682146e-04,-7.150819781513962914e-01,1.615626398672874442e-02,2.182980550529941242e-03,7.152644688106092330e-01
1.247999999999999809e+10,1.607939528199765463e-03,-5.071400161844532998e-04,-7.146984067229334991e-01,1.643015085777693035e-02,1.686019134637223435e-03,7.148872375623368525e-01
1.256000000000000000e+10,1.205303523540528655e-03,-5.625129255564568186e-04,-7.140513134502866066e-01,1.650256720814838318e-02,1.330104272332548361e-03,7.142419848794516746e-01
1.264000000000000000e+10,7.791803091039930292e-04,-4.637113577533266435e-04,-7.136800717057396604e-01,1.673854779726703310e-02,9.067249734097036730e-04,7.138763364422938684e-01
1.272000000000000000e+10,5.122992561897136716e-04,-3.355997393480358209e-04,-7.131533264264923178e-01,1.676078959923125652e-02,6.124358847610118914e-04,7.133502583311797096e-01
1.280000000000000191e+10,3.368717365589842493e-04,-1.898187545290067296e-04,-7.126390554015981094e-01,1.669235301118447354e-02,3.866700485726933217e-04,7.128345235275379554e-01
1.288000000000000000e+10,2.340341867689616677e-04,-5.336713618721826034e-05,-7.121559434693480739e-01,1.653741621488557731e-02,2.400417709512957514e-04,7.123479304060493789e-01
