# Frequency, Real(S21), Imag(S21), Real(S11), Imag(S11), Amp(S21), Amp(S11)
2.000000000000000000e+09,1.086788519810592618e-04,2.503073098910656223e-05,-7.190679065379639301e-01,-2.436065954394894990e-03,1.115241245729820007e-04,7.190720329912881903e-01
2.106666666666666746e+09,1.353948089254686541e-04,2.725828594903401190e-05,-7.189877138677568391e-01,-2.569289099117639218e-03,1.381114348518741337e-04,7.189923045062848184e-01
2.213333333333333492e+09,2.313411035273243337e-04,3.769079625275723771e-05,-7.192884908965633262e-01,-2.695361040895639156e-03,2.343913443440415341e-04,7.192935409882368347e-01
2.320000000000000000e+09,3.330721852827033089e-04,5.172748013043709141e-05,-7.194306359367698134e-01,-2.803575049026320321e-03,3.370649979004646099e-04,7.194360985921129936e-01
2.426666666666666508e+09,3.099049906202002423e-04,5.449160936834695091e-05,-7.195465674291262603e-01,-2.861818495598049926e-03,3.146592422015582991e-04,7.195522584942249944e-01
2.533333333333333492e+09,1.610607892285851879e-04,6.071438273663236026e-05,-7.195519574352623460e-01,-3.057072536821541734e-03,1.721244145902173347e-04,7.195584515113507829e-01
2.640000000000000477e+09,1.307379643606735025e-04,5.804591680351214010e-05,-7.196206728950442777e-01,-3.119134743387807877e-03,1.430445517408230000e-04,7.196274326757309270e-01
2.746666666666666985e+09,1.541182420279515444e-04,6.346980191765796769e-05,-7.197545997670833362e-01,-3.206928015201310645e-03,1.666758779225506015e-04,7.197617441022889917e-01
2.853333333333333015e+09,1.149458121721740284e-04,6.086082230543656251e-05,-7.197657952173244222e-01,-3.353997237662022061e-03,1.300637513975920739e-04,7.197736097289880730e-01
2.960000000000000000e+09,6.227152605929673745e-05,5.121783877027458447e-05,-7.198194622979032786e-01,-3.459456344059034377e-03,8.062884078325518035e-05,7.198277753331272510e-01
3.066666666666666985e+09,4.988427180263413656e-05,4.768058750399272491e-05,-7.198587101433261415e-01,-3.588996755685567620e-03,6.900636925679387991e-05,7.198676569112725243e-01
3.173333333333333015e+09,5.042263706571333974e-05,5.257119137902437176e-05,-7.198646980537478646e-01,-3.703259243346876048e-03,7.284347940392918636e-05,7.198742234814613505e-01
3.280000000000000000e+09,5.919445068093083702e-05,5.306318776755168676e-05,-7.197935107979420710e-01,-3.871011425766099617e-03,7.949644575370398041e-05,7.198039197700201175e-01
3.386666666666666508e+09,1.796503056233800813e-05,5.358629335597587542e-05,-7.198880929934617923e-01,-3.966832118205485327e-03,5.651754735246782853e-05,7.198990222182671816e-01
3.493333333333333492e+09,1.931892497793453832e-05,5.730989054306689110e-05,-7.199699009420477136e-01,-4.106056665350989003e-03,6.047846241730498091e-05,7.199816094622424334e-01
3.600000000000000000e+09,2.063031588819270985e-05,6.242651175790252249e-05,-7.200355453268566519e-01,-4.192069355559618730e-03,6.574708589668563073e-05,7.200477484025803454e-01
3.706666666666666985e+09,3.750129444514707590e-05,7.565756360349403182e-05,-7.201184043177144556e-01,-4.304931755136471271e-03,8.444177885074641591e-05,7.201312718348701347e-01
3.813333333333333969e+09,5.639723068396239271e-05,8.898086100139784198e-05,-7.201694986237716645e-01,-4.394234313887467568e-03,1.053481905557478117e-04,7.201829045757889292e-01
3.920000000000000000e+09,5.648856535447776997e-05,9.744050400192302993e-05,-7.202083779900366745e-01,-4.580832341281810063e-03,1.126304125711873755e-04,7.202229458660550643e-01
4.026666666666666985e+09,3.425973609790443038e-05,9.245840313764600200e-05,-7.202815282898499261e-01,-4.789379551761736853e-03,9.860165225928784090e-05,7.202974511630960697e-01
4.133333333333333015e+09,5.789388415920965550e-05,1.016432010732801260e-04,-7.203955833084535465e-01,-4.943259376828982275e-03,1.169745363207875264e-04,7.204125431054027029e-01
4.240000000000000000e+09,2.387140064925128246e-05,1.152118937204155364e-04,-7.206340156385427909e-01,-5.050679691498551754e-03,1.176589317629622142e-04,7.206517146726826306e-01
4.346666666666666985e+09,9.474156069312021159e-06,7.954023540456735416e-05,-7.206411572591223669e-01,-5.145200824785824655e-03,8.010248860952867787e-05,7.206595247599899556e-01
4.453333333333333015e+09,1.000013434703693779e-05,7.479250914846523519e-05,-7.206914860458155658e-01,-5.259946303331664193e-03,7.545808181819919675e-05,7.207106805744174505e-01
4.560000000000000000e+09,-1.751846000421074882e-05,7.904592944546571381e-05,-7.206922521808623028e-01,-5.402632686770358558e-03,8.096391420143096457e-05,7.207125021764724249e-01
4.666666666666666985e+09,-1.549275392089786578e-05,7.842938617466566791e-05,-7.205939192397042836e-01,-5.522615405836698264e-03,7.994494380377244560e-05,7.206150815283831612e-01
4.773333333333333015e+09,-1.366712977961183784e-05,7.923674986426948550e-05,-7.205202512878703391e-01,-5.592576326049676118e-03,8.040679676162682497e-05,7.205419553543697120e-01
4.880000000000000000e+09,-1.105466571439691386e-05,8.252908530508077072e-05,-7.205208893669652337e-01,-5.673326987409977804e-03,8.326617293565474092e-05,7.205432246945832064e-01
4.986666666666666985e+09,-7.726054941013585082e-06,8.744649409236061551e-05,-7.205951795972503904e-01,-5.777799903499619000e-03,8.778713603938119458e-05,7.206183426964084537e-01
5.093333333333333969e+09,-6.708922075065485785e-06,9.209607956475960038e-05,-7.207325316686755690e-01,-5.897023272561684529e-03,9.234011861919949181e-05,7.207566559449976040e-01
5.200000000000000000e+09,-7.242447072379790910e-06,9.509978095818943911e-05,-7.208698997117206630e-01,-6.095445156943191632e-03,9.537516122079077376e-05,7.208956698177951816e-01
5.306666666666666985e+09,-7.907905594789194878e-06,9.746551805462272183e-05,-7.209765405517998271e-01,-6.249189236459145279e-03,9.778579743782879604e-05,7.210036230090346443e-01
5.413333333333333015e+09,-9.190451642717038859e-06,1.000871624592479644e-04,-7.210248869414190853e-01,-6.376249941273940368e-03,1.005082309591658079e-04,7.210530799824654835e-01
5.520000000000000000e+09,-1.034278142247590043e-05,1.022893618095633845e-04,-7.209113063193236526e-01,-6.474967931177725948e-03,1.028109267877732751e-04,7.209403836578607283e-01
5.626666666666666985e+09,-1.203040717461815450e-05,1.029036384276929279e-04,-7.209439083197779485e-01,-6.629279040837838394e-03,1.036044858992334663e-04,7.209743867045469434e-01
5.733333333333333969e+09,-1.188623431490043708e-05,1.044548393388328926e-04,-7.210232410319981078e-01,-6.752968765059116571e-03,1.051289495214810413e-04,7.210548638594906912e-01
5.840000000000000954e+09,-1.186466385630332362e-05,1.052029615323138803e-04,-7.210409705725745466e-01,-6.905581979859895525e-03,1.058698888428271929e-04,7.210740380201751121e-01
5.946666666666666985e+09,-1.220664893750499099e-05,1.068170891312236867e-04,-7.210815972690380882e-01,-7.031933385406871108e-03,1.075122914310325690e-04,7.211158838960656237e-01
6.053333333333333969e+09,-1.184206860761471619e-05,1.084168152350695961e-04,-7.211373402306513469e-01,-7.169585897157607773e-03,1.090616358515801473e-04,7.211729795526694575e-01
6.160000000000000000e+09,-1.011098375701840401e-05,1.091789434145951196e-04,-7.212131867999119761e-01,-7.355412372075647610e-03,1.096461293327860852e-04,7.212506935215022841e-01
6.266666666666666985e+09,-1.044871049506426700e-05,1.115527226595613476e-04,-7.211787504753394140e-01,-7.470128770446914958e-03,1.120409991198341530e-04,7.212174380594377210e-01
6.373333333333333015e+09,-1.776585311277091621e-06,1.144695689485497765e-04,-7.187877148568467822e-01,-7.797786186124336556e-03,1.144833545570492016e-04,7.188300108499450225e-01
6.480000000000000000e+09,-2.169885613941371643e-06,1.163923794188766268e-04,-7.187767373146184413e-01,-7.930054701401543366e-03,1.164126040872092333e-04,7.188204809771457926e-01
6.586666666666666985e+09,-2.224034169288554875e-06,1.183085938496622816e-04,-7.187737682373950276e-01,-8.062006832223665015e-03,1.183294963509543137e-04,7.188189798971277300e-01
6.693333333333333015e+09,-2.296195926126055416e-06,1.202275811229339391e-04,-7.187726476502939166e-01,-8.194003498673286742e-03,1.202495063540920313e-04,7.188193519261636411e-01
6.799999999999999046e+09,-2.819260783630962031e-06,1.221603833219305217e-04,-7.187446368145047337e-01,-8.327510948061687956e-03,1.221929109430130501e-04,7.187928772519970311e-01
6.906666666666666031e+09,-3.135933889891939586e-06,1.240873155581033221e-04,-7.187359590379869267e-01,-8.460023199545361680e-03,1.241269348843275153e-04,7.187857474983707640e-01
7.013333333333333015e+09,-1.099178702960967632e-05,1.219987573168814399e-04,-7.213181804289989785e-01,-8.439653990459964131e-03,1.224929229342153864e-04,7.213675520682092390e-01
7.120000000000000000e+09,-1.154916637007326335e-05,1.243385138944183533e-04,-7.214185600468632220e-01,-8.548282477038197935e-03,1.248737333521989900e-04,7.214692037179388784e-01
7.226666666666666985e+09,-1.283956777665468178e-05,1.267412935908574748e-04,-7.215040233951803827e-01,-8.638985358708458837e-03,1.273899917645622624e-04,7.215557413280424548e-01
7.333333333333333015e+09,-1.315840332769564866e-05,1.285187575478931950e-04,-7.215306747109075935e-01,-8.761250411011585817e-03,1.291906135127024750e-04,7.215838648816518264e-01
7.440000000000000000e+09,-1.339241529658730416e-05,1.303621998393175079e-04,-7.215700374016076335e-01,-8.890253497818632542e-03,1.310483114520077214e-04,7.216248024306072262e-01
7.546666666666666985e+09,-1.719675244362086478e-05,1.351926378013485082e-04,-7.216305663982834906e-01,-8.904836839346402452e-03,1.362819783034198060e-04,7.216855066297527266e-01
7.653333333333333969e+09,-1.803481612321494460e-05,1.377756360018054214e-04,-7.216916306066509801e-01,-9.015514161429601103e-03,1.389510002421722541e-04,7.217479402002348055e-01
7.760000000000000954e+09,-1.834012024116105655e-05,1.395817078561840182e-04,-7.217308502493964273e-01,-9.141693746023370898e-03,1.407814376205519173e-04,7.217887438622624385e-01
7.866666666666666985e+09,-1.863793890718589037e-05,1.413395301909734642e-04,-7.217701955414241866e-01,-9.267926825728203810e-03,1.425630932650982102e-04,7.218296957313080631e-01
7.973333333333333969e+09,-1.893213652272277459e-05,1.430513310017725640e-04,-7.218095419197142482e-01,-9.394015332951156580e-03,1.442986801557578664e-04,7.218706687007192535e-01
8.080000000000000954e+09,-1.923295634931687192e-05,1.447440927025660912e-04,-7.218488885460688786e-01,-9.519978336704914071e-03,1.460162969747684589e-04,7.219116621046693938e-01
8.186666666666667938e+09,-1.904503442569953277e-05,1.472389796082081658e-04,-7.218882257066813191e-01,-9.639048283995803323e-03,1.484655867611832023e-04,7.219525757733410432e-01
8.293333333333334923e+09,-6.341789960541632676e-06,1.484489880367713215e-04,-7.187849843361204805e-01,-1.017358070468978894e-02,1.485843879721052607e-04,7.188569784396836582e-01
8.399999999999999046e+09,-4.950219029653327468e-06,1.502517394284604187e-04,-7.187396577411656606e-01,-1.030711787635122355e-02,1.503332626856728274e-04,7.188135587819729500e-01
8.506666666666666031e+09,-5.679314969590985446e-06,1.527932872258474075e-04,-7.187433392618183259e-01,-1.043579450849360830e-02,1.528988006486778350e-04,7.188190965328151716e-01
8.613333333333332062e+09,-5.320053458313605948e-06,1.555589117337399688e-04,-7.187841655763897997e-01,-1.055864460654646307e-02,1.556498570143410583e-04,7.188617124727636476e-01
8.720000000000000000e+09,-4.210420807651430323e-06,1.587408190601332899e-04,-7.187887440796294491e-01,-1.068778997184684568e-02,1.587966475693346647e-04,7.188681989558679541e-01
8.826666666666666031e+09,-4.072183590460949115e-06,1.624783975953919925e-04,-7.188286503041747544e-01,-1.081687397587077423e-02,1.625294199963831193e-04,7.189100314091683153e-01
8.933333333333332062e+09,-4.203368587731499282e-06,1.663528974418487360e-04,-7.188285277244846894e-01,-1.094750140305362010e-02,1.664059938667552011e-04,7.189118861567946883e-01
9.040000000000000000e+09,-4.338150899537192640e-06,1.701745302730881763e-04,-7.188284026340185928e-01,-1.107829553970346784e-02,1.702298161512646394e-04,7.189137646932626247e-01
9.146666666666666031e+09,-4.471253380541022546e-06,1.736269438387603157e-04,-7.188282743667101515e-01,-1.120928713784725798e-02,1.736845063141241575e-04,7.189156669228742302e-01
9.253333333333333969e+09,-4.596444990605569780e-06,1.763843973282732530e-04,-7.188281422944866605e-01,-1.134049882520619945e-02,1.764442771171959099e-04,7.189175926823234697e-01
9.360000000000000000e+09,-4.707569243697394373e-06,1.781699902740974996e-04,-7.188280058662970262e-01,-1.147194361479551145e-02,1.782321706159025745e-04,7.189195417486008433e-01
9.466666666666666031e+09,-4.799730599414519827e-06,1.788119278538456420e-04,-7.188278646429261398e-01,-1.160362387615987943e-02,1.788763342553616024e-04,7.189215138484648104e-01
9.573333333333333969e+09,-4.870390284048379031e-06,1.782858355025134520e-04,-7.188277183261282399e-01,-1.173553082945758171e-02,1.783523474539885163e-04,7.189235086695918708e-01
9.680000000000000000e+09,-4.920139438125700361e-06,1.767333890019493490e-04,-7.188275667805235081e-01,-1.186764458911476576e-02,1.768018624342089582e-04,7.189255258729526643e-01
9.786666666666667938e+09,-4.952931341260198908e-06,1.744521006393703346e-04,-7.188274100452972659e-01,-1.199993474486509004e-02,1.745223966898238460e-04,7.189275651039616077e-01
9.893333333333333969e+09,-4.975709598141482397e-06,1.718567763525719538e-04,-7.188272483389686052e-01,-1.213236144437371267e-02,1.719287912605185710e-04,7.189296260057657095e-01
1.000000000000000000e+10,-4.997446526165144535e-06,1.694190560110211507e-04,-7.188270820515528792e-01,-1.226487690788386972e-02,1.694927461912379321e-04,7.189317082284767402e-01
1.010666666666666794e+10,-5.027786289524498984e-06,1.675960764377270240e-04,-7.188269117291659072e-01,-1.239742729147927554e-02,1.676714748318674977e-04,7.189338114385340761e-01
1.021333333333333397e+10,-5.075513755014558770e-06,1.667614409898030220e-04,-7.188267380510153792e-01,-1.252995480417565428e-02,1.668386617090681994e-04,7.189359353269648700e-01
1.031999999999999809e+10,-5.147175618424284623e-06,1.671510974292676288e-04,-7.188265617981874911e-01,-1.266239997930509488e-02,1.672303285551260952e-04,7.189380796145377062e-01
1.042666666666666603e+10,-5.246099686018779963e-06,1.688338364349637052e-04,-7.188263838181797594e-01,-1.279470399620492860e-02,1.689153216474566124e-04,7.189402440561187824e-01
1.053333333333333206e+10,-5.371991774981756502e-06,1.717106775747936302e-04,-7.188262049861268155e-01,-1.292681096140753036e-02,1.717946887677998091e-04,7.189424284436057855e-01
1.064000000000000000e+10,-5.521176241320686959e-06,1.755418918307075418e-04,-7.188260261632409831e-01,-1.305867005823162057e-02,1.756286968994291351e-04,7.189446326062433057e-01
1.074666666666666603e+10,-5.687406425655140042e-06,1.799951611028368140e-04,-7.188258481576117465e-01,-1.319023749436617869e-02,1.800849927458886203e-04,7.189468564119796401e-01
1.085333333333333206e+10,-5.863050359973135672e-06,1.847045160658802680e-04,-7.188256716842109650e-01,-1.332147816636211450e-02,1.847975476424257107e-04,7.189490997649236048e-01
1.096000000000000000e+10,-6.040425994299603036e-06,1.893288260577548603e-04,-7.188254973306227313e-01,-1.345236699943055253e-02,1.894251596874084887e-04,7.189513626042477457e-01
1.106666666666666603e+10,-6.213003776232008883e-06,1.935990943391984549e-04,-7.188253255274561493e-01,-1.358288991076450972e-02,1.936987628893931113e-04,7.189536449020765829e-01
1.117333333333333397e+10,-6.376282156012622813e-06,1.973475756649225297e-04,-7.188251565247908426e-01,-1.371304436568747051e-02,1.974505573427317825e-04,7.189559466606179061e-01
1.128000000000000000e+10,-6.528185656385357724e-06,2.005154138009939725e-04,-7.188249903765835391e-01,-1.384283951189702565e-02,2.006216548126051014e-04,7.189582679096524487e-01
1.138666666666666603e+10,-6.668985936443939952e-06,2.031404544226347582e-04,-7.188248269332377927e-01,-1.397229588508196174e-02,2.032498944561965469e-04,7.189606087039119853e-01
1.149333333333333397e+10,-6.800797631982823075e-06,2.053301153935570018e-04,-7.188246658428363300e-01,-1.410144470524883967e-02,2.054427101066441295e-04,7.189629691206915751e-01
1.160000000000000000e+10,-6.926815107812635960e-06,2.072268111647802000e-04,-7.188245065606934103e-01,-1.423032678171493384e-02,2.073425475705873778e-04,7.189653492572077864e-01
1.170666666666666794e+10,-7.050468414351077865e-06,2.089736957112621658e-04,-7.188243483676804990e-01,-1.435899108164034703e-02,2.090925981570963062e-04,7.189677492287837035e-01
1.181333333333333397e+10,-7.174690647411122426e-06,2.106874222908944566e-04,-7.188241903961353207e-01,-1.448749301099373950e-02,2.108095493507533981e-04,7.189701691672631956e-01
1.192000000000000000e+10,-7.301420612443763002e-06,2.124422423037641535e-04,-7.188240316614915582e-01,-1.461589248428970568e-02,2.125676764186198054e-04,7.189726092190115159e-01
1.202666666666666794e+10,-7.431422978239631376e-06,2.142667703925718505e-04,-7.188238711001523340e-01,-1.474425186108916340e-02,2.143956038307329832e-04,7.189750695443838380e-01
1.213333333333333397e+10,-7.564415356240347462e-06,2.161520002549597902e-04,-7.188237076096116729e-01,-1.487263382582454038e-02,2.162843211929654991e-04,7.189775503161037751e-01
1.224000000000000191e+10,-7.699430284798902506e-06,2.180668255183664970e-04,-7.188235400903508765e-01,-1.500109931215573913e-02,2.182027076329901504e-04,7.189800517181248463e-01
1.234666666666666603e+10,-7.835303470359568302e-06,2.199762992853731864e-04,-7.188233674885325941e-01,-1.512970553726683196e-02,2.201157973153237924e-04,7.189825739454318576e-01
1.245333333333333206e+10,-7.971153906517359564e-06,2.218579945573749600e-04,-7.188231888350610221e-01,-1.525850423055948382e-02,2.220011464916828159e-04,7.189851172022685422e-01
1.256000000000000000e+10,-8.106741182586559645e-06,2.237124620172133214e-04,-7.188230032819957760e-01,-1.538754011598357507e-02,2.238592971364034262e-04,7.189876817012716970e-01
1.266666666666666603e+10,-8.242624225445051195e-06,2.255661603109233241e-04,-7.188228101345913723e-01,-1.551684969916717304e-02,2.257167107937182819e-04,7.189902676631843015e-01
1.277333333333333206e+10,-8.380099194097293452e-06,2.274663785042111894e-04,-7.188226088746040299e-01,-1.564646038976995335e-02,2.276206919687311407e-04,7.189928753138103978e-01
1.288000000000000000e+10,-8.520938530992298914e-06,2.294703067246064445e-04,-7.188223991777185073e-01,-1.577638998081930602e-02,2.296284565591423304e-04,7.189955048819416383e-01
1.298666666666666603e+10,-8.666994943902081789e-06,2.316308969054518753e-04,-7.188221809261334805e-01,-1.590664648384289281e-02,2.317929878201273515e-04,7.189981565996987900e-01
1.309333333333333397e+10,-8.819784361565086330e-06,2.339831717664601310e-04,-7.188219542086953240e-01,-1.603722830737752333e-02,2.341493396661141208e-04,7.190008306978445951e-01
1.320000000000000000e+10,-8.980117795053554579e-06,2.365339826529127957e-04,-7.188217193158095153e-01,-1.616812475468391505e-02,2.367043883523528959e-04,7.190035274031828516e-01
1.330666666666666603e+10,-9.147880871233896155e-06,2.392575679673453453e-04,-7.188214767277687489e-01,-1.629931680517104561e-02,2.394323861846662572e-04,7.190062469362874520e-01
1.341333333333333397e+10,-9.321990139460021666e-06,2.420976805527689883e-04,-7.188212270951103156e-01,-1.643077813525211164e-02,2.422770860588982055e-04,7.190089895075373327e-01
1.352000000000000000e+10,-9.500541761978523913e-06,2.449757450062544739e-04,-7.188209712144995045e-01,-1.656247633193813976e-02,2.451598987092720424e-04,7.190117553141966988e-01
1.362666666666666794e+10,-9.681109451434079000e-06,2.478033277474375870e-04,-7.188207099988129789e-01,-1.669437424735738251e-02,2.479923650496414418e-04,7.190145445362760013e-01
1.373333333333333397e+10,-9.861134596483839667e-06,2.504963343230158404e-04,-7.188204444453704101e-01,-1.682643143795399185e-02,2.506903577818622155e-04,7.190173573340048474e-01
1.384000000000000000e+10,-1.003832696541538959e-05,2.529881377367029002e-04,-7.188201755998191445e-01,-1.695860564822936067e-02,2.531872150084785644e-04,7.190201938435991647e-01
