# Frequency, Real(S21), Imag(S21), Real(S11), Imag(S11), Amp(S21), Amp(S11)
2.000000000000000000e+09,2.486660172525598212e-05,5.548021701430889811e-05,-7.197888114359741740e-01,-3.205205585073442418e-03,6.079804570310886908e-05,7.197959477596792555e-01
2.106666666666666746e+09,3.887581610460895030e-05,6.054594765812319486e-05,-7.198041763456812792e-01,-3.407839006618549205e-03,7.195235128624753230e-05,7.198122433325093716e-01
2.213333333333333492e+09,3.455882407633220789e-05,6.577450108395575216e-05,-7.198993281413038625e-01,-3.581824264048234178e-03,7.430072216595324814e-05,7.199082386827916347e-01
2.320000000000000000e+09,2.334579871421457330e-05,6.793694664381647107e-05,-7.199502348839128540e-01,-3.749167856534226222e-03,7.183630723310733071e-05,7.199599967838614667e-01
2.426666666666666508e+09,2.076805018237040006e-05,7.536318160675535343e-05,-7.189455917952782826e-01,-3.940327960156955224e-03,7.817238035438248047e-05,7.189563895997423959e-01
2.533333333333333492e+09,-3.639793616288590899e-06,7.668179907115152535e-05,-7.186298030149089744e-01,-4.141071237444703297e-03,7.676813405546359620e-05,7.186417342822780663e-01
2.640000000000000477e+09,-2.055095222129440880e-07,7.905992929436880898e-05,-7.187423322713647478e-01,-4.252956450036052272e-03,7.906019639612789514e-05,7.187549150005492216e-01
2.746666666666666985e+09,-4.866076644554567999e-07,8.248521570633348548e-05,-7.187871243613689343e-01,-4.431661993360413825e-03,8.248665102390490640e-05,7.188007858758290736e-01
2.853333333333333015e+09,1.173145655299498438e-05,8.588109283299147020e-05,-7.188106459807132032e-01,-4.615757281987054213e-03,8.667865469101206847e-05,7.188254655968279172e-01
2.960000000000000000e+09,2.501509594567295625e-06,8.969293227200668471e-05,-7.188404830035228787e-01,-4.803536449805956982e-03,8.972780867603136114e-05,7.188565322560286353e-01
3.066666666666666985e+09,2.614964151452146645e-06,9.328983111347947791e-05,-7.188569184062769679e-01,-4.992818111840309145e-03,9.332647334328509389e-05,7.188742569971933172e-01
3.173333333333333015e+09,-9.131135330107675422e-07,9.694885425683683923e-05,-7.188598116089158774e-01,-5.184583094617828750e-03,9.695315424491128206e-05,7.188785075715304895e-01
3.280000000000000000e+09,1.050843742492077507e-05,9.996036925426208023e-05,-7.188660051706193821e-01,-5.378753111618441059e-03,1.005112067311993797e-04,7.188861275438557241e-01
3.386666666666666508e+09,4.454783534203767208e-06,1.037850046449111205e-04,-7.188697487012147835e-01,-5.575739589895995461e-03,1.038805674102757215e-04,7.188913718147700305e-01
3.493333333333333492e+09,6.772151682566313519e-06,1.085885757492301498e-04,-7.188514355683047752e-01,-5.776197211591853689e-03,1.087995442162235314e-04,7.188746419737169768e-01
3.600000000000000000e+09,2.872703769812341582e-05,1.142928536848528934e-04,-7.188323290057119230e-01,-5.981640187660578790e-03,1.178477793525893933e-04,7.188572161723848497e-01
3.706666666666666985e+09,-1.637008900622320452e-06,1.243214812103397957e-04,-7.188838338830096930e-01,-6.187897967470081841e-03,1.243322584387237108e-04,7.189104650090930582e-01
3.813333333333333969e+09,-1.508992938367494434e-06,1.333301614381915358e-04,-7.188897428010375679e-01,-6.400390350430021531e-03,1.333387003417322149e-04,7.189182340858937259e-01
3.920000000000000000e+09,-1.083911782439484820e-06,1.413767914148883725e-04,-7.188964376502330333e-01,-6.617795170575513017e-03,1.413809464373504794e-04,7.189268970341247122e-01
4.026666666666666985e+09,-3.482568281909578648e-07,1.470687254893729044e-04,-7.189040662914284452e-01,-6.840572548000243766e-03,1.470691378226135623e-04,7.189366105319264788e-01
4.133333333333333015e+09,5.882326077443818195e-07,1.497216770857100481e-04,-7.189128155859256797e-01,-7.069249304047352939e-03,1.497228326173347796e-04,7.189475715929540822e-01
4.240000000000000000e+09,1.525728623670055814e-06,1.496055639889389401e-04,-7.189229251380988561e-01,-7.304450683639817157e-03,1.496133437373872331e-04,7.189600317743053415e-01
4.346666666666666985e+09,1.952496618727103836e-06,1.477944915979696088e-04,-7.189260228674559938e-01,-7.548364862952914971e-03,1.478073881433145706e-04,7.189656488095395037e-01
4.453333333333333015e+09,2.613874074437978133e-06,1.457340086941200606e-04,-7.189485819220388096e-01,-7.797642808949771347e-03,1.457574479322922174e-04,7.189908668968518768e-01
4.560000000000000000e+09,2.587934930807358457e-06,1.447439537896455638e-04,-7.189651219279671324e-01,-8.057733164255780067e-03,1.447670873018627247e-04,7.190102736488839241e-01
4.666666666666666985e+09,2.260876198668571660e-06,1.456398484979636281e-04,-7.189851455558975424e-01,-8.328659517329563278e-03,1.456573960761879791e-04,7.190333831606087189e-01
4.773333333333333015e+09,1.794589658500771921e-06,1.485865413410103247e-04,-7.190098664072935852e-01,-8.612232941159828070e-03,1.485973782397460971e-04,7.190614428178352391e-01
4.880000000000000000e+09,1.356963497340699444e-06,1.531729740196349429e-04,-7.190411753069165801e-01,-8.910675469097517620e-03,1.531789845897696216e-04,7.190963856980978619e-01
4.986666666666666985e+09,1.061018059878636654e-06,1.586305734958230599e-04,-7.190821477172871790e-01,-9.226527168087672245e-03,1.586341218242062398e-04,7.191413379644434611e-01
5.093333333333333969e+09,9.317150630784056236e-07,1.640889687260938402e-04,-7.191377456927523504e-01,-9.562012580102297737e-03,1.640916138946526669e-04,7.192013135170400862e-01
5.200000000000000000e+09,9.067390079129692505e-07,1.687778398317620770e-04,-7.192148880120622367e-01,-9.917466256122222171e-03,1.687802754882939543e-04,7.192832621958782369e-01
5.306666666666666985e+09,8.582633517372579437e-07,1.721207218466994104e-04,-7.193207726197961005e-01,-1.029010678947901540e-02,1.721228616570436791e-04,7.193943704395241445e-01
5.413333333333333015e+09,6.041016264993534892e-07,1.737136453332521226e-04,-7.194610517520377835e-01,-1.067484235249973636e-02,1.737146957333836079e-04,7.195402401863283393e-01
5.520000000000000000e+09,-1.245575060380498358e-07,1.732285568010611928e-04,-7.196395563187715227e-01,-1.106563681173360937e-02,1.732286015816983989e-04,7.197246274351930539e-01
5.626666666666666985e+09,-1.773366613015022711e-06,1.703052429507704668e-04,-7.198586881202692078e-01,-1.145617066972134772e-02,1.703144756198518486e-04,7.199498418005583211e-01
5.733333333333333969e+09,-5.106520720651718935e-06,1.644945653438414305e-04,-7.201197409294023410e-01,-1.184004711298679118e-02,1.645738089172446821e-04,7.202170700503198741e-01
5.840000000000000954e+09,-1.137596181275971822e-05,1.553017761277461061e-04,-7.204230759950711604e-01,-1.221085457141934082e-02,1.557178672330119520e-04,7.205265528733583169e-01
5.946666666666666985e+09,-2.247961757969646121e-05,1.423589210919562963e-04,-7.207682074736246891e-01,-1.256219628576069926e-02,1.441228490593883353e-04,7.208776717864578965e-01
6.053333333333333969e+09,-4.105903557553432725e-05,1.257321772821300382e-04,-7.211538375427103409e-01,-1.288771760622414719e-02,1.322664916239104423e-04,7.212689863481415165e-01
6.160000000000000000e+09,-7.048041009119907960e-05,1.063444295396076284e-04,-7.215778615269964336e-01,-1.318113977713047079e-02,1.275798804699556309e-04,7.216982421287289062e-01
6.266666666666666985e+09,-1.146432537503911352e-04,8.646778961887425759e-05,-7.220373529934285273e-01,-1.343630408593606169e-02,1.435958017215352661e-04,7.221623594353604458e-01
6.373333333333333015e+09,-1.827141966286473370e-04,1.794176258161458873e-04,-7.225285342474454531e-01,-1.364723029745731724e-02,2.560764770594021740e-04,7.226574082485792694e-01
6.480000000000000000e+09,-2.627525039533877495e-04,6.393745303319848779e-05,-7.230467365368388188e-01,-1.380819446536303736e-02,2.704198147957126040e-04,7.231785736946069187e-01
6.586666666666666985e+09,-3.722540231450780076e-04,7.642182962909130220e-05,-7.235863553222812161e-01,-1.391383232887751821e-02,3.800175703721528461e-04,7.237201174063483400e-01
6.693333333333333015e+09,-5.056228594196730732e-04,1.187757422952033320e-04,-7.241408085222081903e-01,-1.395927475700623269e-02,5.193863233908870307e-04,7.242753426142153339e-01
6.799999999999999046e+09,-6.586980732705515059e-04,2.038991755956761362e-04,-7.247025091791310381e-01,-1.394032046264267154e-02,6.895346441905099650e-04,7.248365742325160177e-01
6.906666666666666031e+09,-8.224510150405277189e-04,3.454648348916390839e-04,-7.252628676305604705e-01,-1.385364804966685189e-02,8.920603254757503760e-04,7.253951686687662992e-01
7.013333333333333015e+09,-9.820382918928156554e-04,5.563689846056947292e-04,-7.258123411999760632e-01,-1.369706409846978279e-02,1.128692010149327926e-03,7.259415707914157467e-01
7.120000000000000000e+09,-1.116273799870681283e-03,8.466690452860368369e-04,-7.263405504427890014e-01,-1.346977669201418655e-02,1.401040923215057018e-03,7.264654362746147953e-01
7.226666666666666985e+09,-1.197740630250778305e-03,1.221091935559107501e-03,-7.268364790690597932e-01,-1.317267519346600538e-02,1.710452610404923982e-03,7.269558354379310749e-01
7.333333333333333015e+09,-1.193757686820440082e-03,1.676275368260969536e-03,-7.272887688538375306e-01,-1.280858844231888213e-02,2.057900999825146380e-03,7.274015488289913289e-01
7.440000000000000000e+09,-1.068388457957618852e-03,2.197989690564044769e-03,-7.276861109006275141e-01,-1.238248675533915391e-02,2.443892914373067306e-03,7.277914550033728336e-01
7.546666666666666985e+09,-7.856282679000470021e-04,2.758678057261133420e-03,-7.280177209576055297e-01,-1.190159017034467422e-02,2.868364760440639694e-03,7.281149977008362084e-01
7.653333333333333969e+09,-3.138268699502374040e-04,3.315745915917368142e-03,-7.282738709227640772e-01,-1.137534842317787162e-02,3.330564258984574505e-03,7.283627047155664114e-01
7.760000000000000954e+09,3.687155615320688185e-04,3.811124032604262107e-03,-7.284464339938930832e-01,-1.081526820645584315e-02,3.828918588480262081e-03,7.285267168915611213e-01
7.866666666666666985e+09,1.267218384706475954e-03,4.172712865673707493e-03,-7.285293904922832686e-01,-1.023458009694835913e-02,4.360891548054936055e-03,7.286012760356782580e-01
7.973333333333333969e+09,2.363456426200787660e-03,4.318363637890391959e-03,-7.285192387059621355e-01,-9.647759033542537346e-03,4.922823456879572152e-03,7.285831184011086759e-01
8.080000000000000954e+09,3.609225392548575436e-03,4.163010389453898792e-03,-7.284152622966914015e-01,-9.069934185535340546e-03,5.509733517777290826e-03,7.284717276963380561e-01
8.186666666666667938e+09,4.921558891341470607e-03,3.629351914743621406e-03,-7.282196223701684623e-01,-8.516242039076407297e-03,6.115058237007680447e-03,7.282694177180715212e-01
8.293333333333334923e+09,6.181506654359333885e-03,2.661981864306911527e-03,-7.279372663089824780e-01,-8.001185456682588515e-03,6.730317374670204134e-03,7.279812378420934538e-01
8.399999999999999046e+09,7.238636873882221476e-03,1.243976394969643949e-03,-7.275756709290768232e-01,-7.538058938182753098e-03,7.344749217173385421e-03,7.276147189690790329e-01
8.506666666666666031e+09,7.923363299670305171e-03,-5.863522744628188454e-04,-7.271444591367163257e-01,-7.138486489059646389e-03,7.945029576303037563e-03,7.271794980901086225e-01
8.613333333333332062e+09,8.068346695932112830e-03,-2.722371772503206274e-03,-7.266549416339455059e-01,-6.812096551727275101e-03,8.515252578372581663e-03,7.266868712591846302e-01
8.720000000000000000e+09,7.538245402236170428e-03,-4.984852649063282841e-03,-7.261196350423130275e-01,-6.566334714834166746e-03,9.037361322709632286e-03,7.261493242753649380e-01
8.826666666666666031e+09,6.263967120338085476e-03,-7.131859381149768806e-03,-7.255517964045345991e-01,-6.406396159599199273e-03,9.492138974813345287e-03,7.255800790936869360e-01
8.933333333333332062e+09,4.273945350713711025e-03,-8.886334336465235087e-03,-7.249649960279715977e-01,-6.335251924694957834e-03,9.860707216033156447e-03,7.249926764338976426e-01
9.040000000000000000e+09,1.712334765453650152e-03,-9.980454124741796468e-03,-7.243727350317601399e-01,-6.353748269326765959e-03,1.012628040719082412e-02,7.244006000649519939e-01
9.146666666666666031e+09,-1.165585435273787298e-03,-1.020946368474903027e-02,-7.237881088637486693e-01,-6.460771232638633753e-03,1.027578406434913501e-02,7.238169437761748926e-01
9.253333333333333969e+09,-4.025690522775047381e-03,-9.481739886448587590e-03,-7.232235276192414686e-01,-6.653479106930993044e-03,1.030095022118983523e-02,7.232541321598142670e-01
9.360000000000000000e+09,-6.511260654042453494e-03,-7.849624552173034217e-03,-7.226905220602141133e-01,-6.927601722959673275e-03,1.019868231267937256e-02,7.227237247671455256e-01
9.466666666666666031e+09,-8.310371518297412358e-03,-5.509423215918797870e-03,-7.221996770343477312e-01,-7.277783367990667794e-03,9.970758193048002635e-03,7.222363461078842306e-01
9.573333333333333969e+09,-9.216420455082238727e-03,-2.768204244980422904e-03,-7.217607277753433914e-01,-7.697913786857561551e-03,9.623167916376910297e-03,7.218017775230699540e-01
9.680000000000000000e+09,-9.165418881155035918e-03,1.424765124657996636e-05,-7.213828261461381341e-01,-8.181365301654964367e-03,9.165429955141182403e-03,7.214292180087998885e-01
9.786666666666667938e+09,-8.241379921264951544e-03,2.492628262117789484e-03,-7.210749428289859875e-01,-8.721045762565594189e-03,8.610083545456307871e-03,7.211276792739397257e-01
9.893333333333333969e+09,-6.651067231151216314e-03,4.395605800775448033e-03,-7.208463308283323823e-01,-9.309187333003338463e-03,7.972330002521487921e-03,7.209064388930581657e-01
1.000000000000000000e+10,-4.677261643834984724e-03,5.565159890195659452e-03,-7.207069408331522320e-01,-9.936811327301968769e-03,7.269647934276632362e-03,7.207754399148428304e-01
1.010666666666666794e+10,-2.623216314540463383e-03,5.970347212508445717e-03,-7.206676425859088742e-01,-1.059283336358052968e-02,6.521219952645257792e-03,7.207454884971531417e-01
1.021333333333333397e+10,-7.603236853957304371e-04,5.696634181105534982e-03,-7.207400554978484752e-01,-1.126280975227927049e-02,5.747149998034997535e-03,7.208280505658459791e-01
1.031999999999999809e+10,7.120679379730358687e-04,4.916312869609458167e-03,-7.209357210952536121e-01,-1.192740296404791282e-02,4.967612402369648607e-03,7.210343798270648641e-01
1.042666666666666603e+10,1.689458559948381084e-03,3.847565133200419717e-03,-7.212642823154502558e-01,-1.256080669295098554e-02,4.202145604331485040e-03,7.213736471543711337e-01
1.053333333333333206e+10,2.165679898470437587e-03,2.710233774038986812e-03,-7.217303471837666073e-01,-1.312966194497005960e-02,3.469227079996427092e-03,7.218497641952856814e-01
1.064000000000000000e+10,2.217875871973052151e-03,1.686171095438665632e-03,-7.223289598968852809e-01,-1.359339947116977067e-02,2.786062875559892557e-03,7.224568546390149892e-01
1.074666666666666603e+10,1.976550119739207793e-03,8.914980770809931808e-04,-7.230402768020430804e-01,-1.390727860035424410e-02,2.168298687284614997e-03,7.231740138279603158e-01
1.085333333333333206e+10,1.587490447233124878e-03,3.666578565829414554e-04,-7.238252003247940269e-01,-1.402920051687219644e-02,1.629283248502366504e-03,7.239611447393918819e-01
1.096000000000000000e+10,1.160972278859801268e-03,8.523771795258155200e-05,-7.246512483656155634e-01,-1.393190256203351296e-02,1.164097118303573540e-03,7.247851610421139901e-01
1.106666666666666603e+10,8.215231587699435914e-04,-1.358052581835653659e-05,-7.253670045394069454e-01,-1.360475416146005902e-02,8.216354003308579037e-04,7.254945765546877423e-01
1.117333333333333397e+10,5.577827459209447423e-04,-6.914783838290724030e-06,-7.259789830082784556e-01,-1.307891728574218926e-02,5.578256052590625617e-04,7.260967854543232125e-01
1.128000000000000000e+10,3.815064075335842337e-04,4.751862641692205158e-05,-7.264041668015851494e-01,-1.240623379551465157e-02,3.844543651016752947e-04,7.265101019144153405e-01
1.138666666666666603e+10,2.730579857976268496e-04,1.130626897614823967e-04,-7.266136204793540720e-01,-1.165646160196944121e-02,2.955399049603254710e-04,7.267071119530845724e-01
1.149333333333333397e+10,2.098267207725622741e-04,1.723124887608085587e-04,-7.266083096032831534e-01,-1.089926793522524862e-02,2.715121480396606203e-04,7.266900505897025964e-01
1.160000000000000000e+10,1.727054580175417205e-04,2.213336817143456625e-04,-7.264119738842231833e-01,-1.019132954964092896e-02,2.807414716251877842e-04,7.264834609269248400e-01
1.170666666666666794e+10,1.497186082663479537e-04,2.654199832788397802e-04,-7.260598066224210889e-01,-9.571056011878437131e-03,3.047350147012183128e-04,7.261228876063403614e-01
1.181333333333333397e+10,1.400127815679842822e-04,3.136955956787852262e-04,-7.255887096574791251e-01,-9.060415286354239414e-03,3.435236611220135092e-04,7.256452760871296981e-01
1.192000000000000000e+10,1.546351303919779488e-04,3.693185063021991034e-04,-7.250322422881515516e-01,-8.670200054188743205e-03,4.003850429881609463e-04,7.250840811425697252e-01
1.202666666666666794e+10,2.078241907659314882e-04,4.195031421463849388e-04,-7.244200134324455531e-01,-8.404799629214249404e-03,4.681599945939468621e-04,7.244687684905898317e-01
1.213333333333333397e+10,3.003340036642197265e-04,4.361697181827836199e-04,-7.237790533205836763e-01,-8.264372422490642162e-03,5.295701434339254764e-04,7.238262345875410286e-01
1.224000000000000191e+10,4.080672965871232636e-04,3.923201513899121466e-04,-7.231345398663526769e-01,-8.244872552724994558e-03,5.660689178276147749e-04,7.231815406045235539e-01
1.234666666666666603e+10,4.891163825595478938e-04,2.834295049867619062e-04,-7.225090163042771074e-01,-8.337935960037462166e-03,5.653026799734624675e-04,7.225571256427051337e-01
1.245333333333333206e+10,5.063073344347868328e-04,1.356015476321983286e-04,-7.219212943626154289e-01,-8.532028588251248588e-03,5.241515969857446283e-04,7.219717105025824644e-01
1.256000000000000000e+10,4.480152839849426165e-04,-6.593393408637477065e-06,-7.213866803692652319e-01,-8.814359534570563939e-03,4.480637984938638666e-04,7.214405280743473314e-01
1.266666666666666603e+10,3.327769425154202161e-04,-1.027404174865924520e-04,-7.209188811814224440e-01,-9.171796090964492304e-03,3.482758775098135058e-04,7.209772223083112941e-01
1.277333333333333206e+10,1.971711234057245768e-04,-1.340601241132322789e-04,-7.205321972240599226e-01,-9.589187289476898066e-03,2.384293790251753036e-04,7.205960031455935777e-01
1.288000000000000000e+10,7.716841525599768244e-05,-1.068278258222741563e-04,-7.202411643077639702e-01,-1.004495780065923181e-02,1.317844781567094824e-04,7.203112077016576853e-01
1.298666666666666603e+10,-5.367042680842128047e-06,-4.332417872481707135e-05,-7.200545127976258897e-01,-1.050696113360463993e-02,4.365535029429809966e-05,7.201311669636923929e-01
1.309333333333333397e+10,-4.550377384348484389e-05,3.088955719707908016e-05,-7.199641307290448600e-01,-1.093548392598926028e-02,5.499780157270503029e-05,7.200471750830806927e-01
1.320000000000000000e+10,-5.091535670521779545e-05,9.524176711877631633e-05,-7.199386420386860719e-01,-1.129804008544631026e-02,1.079970728877722367e-04,7.200272869900693484e-01
1.330666666666666603e+10,-3.698035202621511870e-05,1.378427270587944081e-04,-7.199333289383847978e-01,-1.158673597607885221e-02,1.427170761996898643e-04,7.200265624036963352e-01
1.341333333333333397e+10,-2.142213742764018981e-05,1.583174271367573558e-04,-7.199114805020769836e-01,-1.182067265579736515e-02,1.597601818575929784e-04,7.200085194362132457e-01
1.352000000000000000e+10,-1.596589633903335134e-05,1.672132861860764507e-04,-7.198582875511102541e-01,-1.203162853350087623e-02,1.679737864163794716e-04,7.199588281569891945e-01
1.362666666666666794e+10,-2.014388098846371287e-05,1.778649184590540267e-04,-7.197797839179084223e-01,-1.224783496549598436e-02,1.790019697090602588e-04,7.198839814846923479e-01
1.373333333333333397e+10,-2.466490318691383872e-05,1.959748962129676257e-04,-7.196944443366734001e-01,-1.248517562973559293e-02,1.975209290047595602e-04,7.198027318783796202e-01
1.384000000000000000e+10,-2.178952373739347851e-05,2.172280670612869175e-04,-7.196241673278104267e-01,-1.274446895901235055e-02,2.183181542242545754e-04,7.197370100886099076e-01
