# Frequency, Real(S21), Imag(S21), Real(S11), Imag(S11)
4.000000000000000000e+09,5.136512479434503090e-05,1.395364129100554857e-04,-7.188442906187509918e-01,6.807571929647855333e-03
4.080000000000000000e+09,2.664236384058439703e-05,1.440357999341329164e-04,-7.188074432117922408e-01,6.959735571247933385e-03
4.160000000000000477e+09,2.080220411350612385e-06,1.463726526810985127e-04,-7.187533347263490580e-01,7.114216642660844275e-03
4.240000000000000000e+09,1.135471336554123202e-06,1.459048255837541155e-04,-7.187033110410085968e-01,7.272602857269310633e-03
4.320000000000000000e+09,3.526343261437886104e-06,1.445612770757037169e-04,-7.187264091927108023e-01,7.435221847830455685e-03
4.400000000000000000e+09,3.757675493335538945e-06,1.428772342870115791e-04,-7.187202417145730493e-01,7.599313626133606669e-03
4.480000000000000000e+09,2.988412066130841929e-05,1.418179698645604899e-04,-7.187284707185155330e-01,7.766864816256608371e-03
4.560000000000000000e+09,3.816176798781007465e-06,1.409623314784236043e-04,-7.187066687929709596e-01,7.934144046100788730e-03
4.640000000000000000e+09,3.700857853016445046e-06,1.415651938783268221e-04,-7.186991754793025100e-01,8.105179891876541920e-03
4.720000000000000000e+09,3.491697288586177579e-06,1.434668065066226604e-04,-7.187046131236755064e-01,8.280261151987475254e-03
4.800000000000000000e+09,3.428108499025442188e-06,1.464675567631063544e-04,-7.186824995292542262e-01,8.455412767548513286e-03
4.880000000000000000e+09,3.404930629948257026e-06,1.504960045863259111e-04,-7.186849892344122637e-01,8.636488932882034966e-03
4.960000000000000000e+09,3.903618431014146969e-06,1.550421951360438089e-04,-7.186431102234923651e-01,8.818703536094749107e-03
5.040000000000000000e+09,3.545093852637640777e-06,1.599387267645924757e-04,-7.186521060571512409e-01,9.004771674863697867e-03
5.120000000000000000e+09,3.786155359846433476e-06,1.647946559124387645e-04,-7.186401159047789422e-01,9.195497850021239553e-03
5.200000000000000000e+09,4.106920361800927327e-06,1.693804068008233953e-04,-7.186269470733428477e-01,9.390654506163444507e-03
5.280000000000000000e+09,4.479658434924253827e-06,1.735407241235376030e-04,-7.186123926682739249e-01,9.590701000711240182e-03
5.360000000000000000e+09,4.874563011887746921e-06,1.772053623015597875e-04,-7.185961874669023475e-01,9.796167406936534539e-03
5.440000000000000000e+09,5.264419747080794769e-06,1.803748765660835173e-04,-7.185779836708585666e-01,1.000766888929705521e-02
5.520000000000000000e+09,5.627470160955969090e-06,1.830986630501468522e-04,-7.185573128817229760e-01,1.022592178181521740e-02
5.600000000000000000e+09,5.948325230993942040e-06,1.854507008619731207e-04,-7.185335248329945967e-01,1.045175705535687088e-02
5.680000000000000000e+09,6.217252894364882496e-06,1.875074403986242040e-04,-7.185056881782071470e-01,1.068611661781499259e-02
5.760000000000000000e+09,6.428515631290685616e-06,1.893304753879780926e-04,-7.184724402731106352e-01,1.092999070286732044e-02
5.840000000000000954e+09,6.578554267859011068e-06,1.909553165532160710e-04,-7.184318208213819057e-01,1.118420806824038834e-02
5.920000000000000000e+09,6.664650459088059957e-06,1.923850250722064590e-04,-7.183812771036730549e-01,1.144902462589706370e-02
6.000000000000000000e+09,6.683944603553999977e-06,1.935872017709423494e-04,-7.183180670031962256e-01,1.172376963703322152e-02
6.080000000000000000e+09,6.631339469968186889e-06,1.944913517912036762e-04,-7.182398019143875212e-01,1.200694954946966014e-02
6.160000000000000000e+09,6.494055501254790525e-06,1.949858771246560328e-04,-7.181446638361548285e-01,1.229663587314988246e-02
6.239999999999999046e+09,6.241155453263924177e-06,1.949148600840255093e-04,-7.180313401134358342e-01,1.259075042272471932e-02
6.320000000000000000e+09,5.807415251351005401e-06,1.940759162960186757e-04,-7.178989027558145830e-01,1.288718875815001060e-02
6.400000000000000954e+09,5.071631498861967389e-06,1.922207058565501023e-04,-7.177467177306247059e-01,1.318386084352598381e-02
6.480000000000000000e+09,3.830042261336752830e-06,1.890601718775734895e-04,-7.175743874352152885e-01,1.347870139453141193e-02
6.560000000000000000e+09,1.766271280164886329e-06,1.842770172447711740e-04,-7.173817151507853040e-01,1.376967089102076880e-02
6.640000000000000000e+09,-1.580056322616040366e-06,1.775478579217952232e-04,-7.171686828073801090e-01,1.405475438089363177e-02
6.720000000000000000e+09,-6.843048548520891264e-06,1.685773456167432010e-04,-7.169354368781509779e-01,1.433196031496883870e-02
6.799999999999999046e+09,-1.485493619263124777e-05,1.571456604011146267e-04,-7.166822795445315641e-01,1.459932000864909429e-02
6.880000000000000000e+09,-2.666081740303850390e-05,1.431697806151250143e-04,-7.164096635400952762e-01,1.485488789479610418e-02
6.960000000000000954e+09,-4.351904039040846699e-05,1.267774751457990717e-04,-7.161181898129045376e-01,1.509674266726806872e-02
7.039999999999999046e+09,-6.688243695401863663e-05,1.083913636974683409e-04,-7.158086074979931324e-01,1.532298943312127015e-02
7.120000000000000000e+09,-9.835584535096910546e-05,8.881865754459071895e-05,-7.154818158674537409e-01,1.553176311707513482e-02
7.200000000000000000e+09,-1.396260557484790832e-04,6.934073134802013210e-05,-7.151388679817087812e-01,1.572123339357917732e-02
7.280000000000000000e+09,-1.923615396082396529e-04,5.179494774113936454e-05,-7.147809757509232531e-01,1.588961150871061323e-02
7.359999999999999046e+09,-2.589523126305648382e-04,4.136633535115324251e-05,-7.143468041037653871e-01,1.632981808341014626e-02
7.440000000000000000e+09,-3.379905184591337330e-04,3.299934297239497799e-05,-7.140260374164807411e-01,1.615620094768275422e-02
7.520000000000000000e+09,-4.327965517230595400e-04,3.866169866388483121e-05,-7.136322669420227527e-01,1.625113729303006432e-02
7.599999999999999046e+09,-5.424944658424614213e-04,6.004937076560762192e-05,-7.132301164967518314e-01,1.631846374211933653e-02
7.680000000000000000e+09,-6.661479057543969037e-04,1.021262507981850805e-04,-7.128216877796178519e-01,1.635679111042903644e-02
7.760000000000000954e+09,-8.016668058344739427e-04,1.702508608838321485e-04,-7.124092752717198218e-01,1.636486996094307228e-02
7.840000000000000000e+09,-9.455994860348934140e-04,2.699653634944173403e-04,-7.119953662566345098e-01,1.634161804854512151e-02
7.919999999999999046e+09,-1.092954908010495716e-03,4.067190092428070881e-04,-7.115826369594224765e-01,1.628615064328116369e-02
8.000000000000000000e+09,-1.237072992392984280e-03,5.855268115356117731e-04,-7.111739439055951850e-01,1.619781320665894878e-02
8.080000000000000000e+09,-1.369324783524857730e-03,8.107082864911518104e-04,-7.108708009753482715e-01,1.607851511468950251e-02
8.159999999999999046e+09,-1.480318705778731030e-03,1.084735122625881103e-03,-7.103809015502520197e-01,1.592126701816484746e-02
8.240000000000000000e+09,-1.557658090396310622e-03,1.409141901008349133e-03,-7.100030045348403318e-01,1.573320983830859762e-02
8.320000000000000954e+09,-1.588553057711095812e-03,1.782618549239861627e-03,-7.096419847378065970e-01,1.551265183159294091e-02
8.400000000000000000e+09,-1.559012086407927499e-03,2.201209075040377536e-03,-7.093012465966072044e-01,1.526059406564835540e-02
8.480000000000000000e+09,-1.454594291505883260e-03,2.657705713552707162e-03,-7.089841820239782821e-01,1.497845326978513962e-02
8.560000000000000000e+09,-1.261068413135375040e-03,3.141252956353759833e-03,-7.086941129453487864e-01,1.466807655100871126e-02
8.640000000000000000e+09,-9.652124413818605458e-04,3.637059864198867627e-03,-7.084342283168977294e-01,1.433174665156800726e-02
8.720000000000000000e+09,-5.557434411071519257e-04,4.126262684073216808e-03,-7.082075173636457333e-01,1.397217618277076141e-02
8.800000000000000000e+09,-2.435805235651117523e-05,4.585982342143020245e-03,-7.080167012627007761e-01,1.359248945410332886e-02
8.880000000000000000e+09,6.331466396254901725e-04,4.989621795601581651e-03,-7.078641659149965681e-01,1.319619125103187879e-02
8.959999999999998093e+09,1.415714984638199959e-03,5.307447310422553841e-03,-7.077518987033974973e-01,1.278712237011163030e-02
9.040000000000000000e+09,2.315895354421211236e-03,5.507492996661771459e-03,-7.076814323427887965e-01,1.236940259414884107e-02
9.120000000000000000e+09,3.318798174973516986e-03,5.556819648612339353e-03,-7.076537986855222506e-01,1.194736250216722057e-02
9.200000000000000000e+09,4.401242329255078585e-03,5.423144788960270780e-03,-7.076694951252957555e-01,1.152546637477623419e-02
9.280000000000000000e+09,5.531200946932799539e-03,5.076839434530712285e-03,-7.077284656303280963e-01,1.110822905437968203e-02
9.360000000000000000e+09,6.667673577369012672e-03,4.493257647440355301e-03,-7.078300976600621075e-01,1.070013017067219033e-02
9.440000000000000000e+09,7.761121780003437005e-03,3.655324695470660822e-03,-7.079732353638015230e-01,1.030552945403364305e-02
9.520000000000000000e+09,8.754605371861307744e-03,2.556260705214525100e-03,-7.081562084184377381e-01,9.928586779142314564e-03
9.600000000000000000e+09,9.585740276383829597e-03,1.202258583687318199e-03,-7.083768750257314339e-01,9.573190441448704499e-03
9.680000000000000000e+09,1.018956071614979947e-02,-3.851265247780304504e-04,-7.086326766330549587e-01,9.242896473715456196e-03
9.760000000000000000e+09,1.050230230459344230e-02,-2.167177173178384993e-03,-7.089207014029552667e-01,8.940881302253842963e-03
9.840000000000000000e+09,1.046602495947747055e-02,-4.087146658973628104e-03,-7.092377530260084439e-01,8.669908825659806625e-03
9.920000000000000000e+09,1.003386691478475382e-02,-6.070681387999645080e-03,-7.095804213214227385e-01,8.432312438969044241e-03
1.000000000000000000e+10,9.175571119220000613e-03,-8.027853768661986217e-03,-7.099451512455656754e-01,8.229991297717738352e-03
1.008000000000000000e+10,7.882771639462538699e-03,-9.857028708545028522e-03,-7.103283072890607119e-01,8.064419511055775577e-03
1.016000000000000000e+10,6.173397260189800867e-03,-1.145061472811538875e-02,-7.107262308358697211e-01,7.936666228045466398e-03
1.024000000000000000e+10,4.094479120785391064e-03,-1.270251057059047436e-02,-7.111352887148542079e-01,7.847424207482051051e-03
1.032000000000000000e+10,1.722675900227070957e-03,-1.351676861421791456e-02,-7.115519119268198800e-01,7.797044270475034233e-03
1.040000000000000000e+10,-8.380160350518971700e-04,-1.381670275750942686e-02,-7.119726242037616171e-01,7.785573087887754859e-03
1.048000000000000000e+10,-3.461611057131194595e-03,-1.355342997247126896e-02,-7.123940606679550758e-01,7.812791933609420161e-03
1.056000000000000000e+10,-6.008383707891268993e-03,-1.271271837285206652e-02,-7.128129772256452945e-01,7.878254438941190152e-03
1.064000000000000000e+10,-8.335406852084382284e-03,-1.131907576126197842e-02,-7.132262517226720666e-01,7.981321745429283826e-03
1.072000000000000000e+10,-1.030834495396774214e-02,-9.436272959686445652e-03,-7.136308777370418133e-01,8.121193873554867840e-03
1.080000000000000000e+10,-1.181317560323572047e-02,-7.163933240116904591e-03,-7.140239521040036008e-01,8.296936348427231059e-03
1.088000000000000000e+10,-1.276642365918095878e-02,-4.630360220559457014e-03,-7.144026568322124904e-01,8.507501388810335269e-03
1.096000000000000000e+10,-1.312264073640446484e-02,-1.982318535045038931e-03,-7.147642361003290201e-01,8.751742855433978716e-03
1.104000000000000000e+10,-1.287822557241967772e-02,6.270850598981066474e-04,-7.151059688339694853e-01,9.028424040430993794e-03
1.112000000000000191e+10,-1.207118422334848076e-02,3.051031148177737930e-03,-7.154251373560525096e-01,9.336217049620395420e-03
1.120000000000000000e+10,-1.077697119696923930e-02,5.160724604106813398e-03,-7.157189928434599668e-01,9.673692176208396193e-03
1.128000000000000000e+10,-9.101031858711991149e-03,6.855031688697393530e-03,-7.159847186990130341e-01,1.003929518673881034e-02
1.135999999999999809e+10,-7.169007928595667184e-03,8.067156121332524563e-03,-7.162193936518732595e-01,1.043131006981803943e-02
1.143999999999999809e+10,-5.115737278459271675e-03,8.767909074522821020e-03,-7.164199573915919217e-01,1.084780442514955527e-02
1.152000000000000000e+10,-3.074182531794393200e-03,8.965537354346055088e-03,-7.165831829046201973e-01,1.128655461629011689e-02
1.160000000000000000e+10,-1.165295255936333544e-03,8.702418696500464901e-03,-7.167056614965332528e-01,1.174494792376695566e-02
1.168000000000000191e+10,5.103872365104585203e-04,8.049183345664812431e-03,-7.167838087733124919e-01,1.221985984066509615e-02
1.176000000000000000e+10,1.878860044176183103e-03,7.096971314744457589e-03,-7.168139026268302016e-01,1.270750630003268308e-02
1.184000000000000000e+10,2.896173695815587590e-03,5.948598580084812903e-03,-7.167921672712552761e-01,1.320327395879327542e-02
1.191999999999999809e+10,3.471235267310972868e-03,4.076844612619819064e-03,-7.167149201997349284e-01,1.370153686663990594e-02
1.200000000000000000e+10,3.856786124369869506e-03,3.379466463240006491e-03,-7.166142325021934711e-01,1.422796839615429743e-02
1.208000000000000000e+10,3.852164266856868569e-03,2.341179585332587611e-03,-7.163810969009776208e-01,1.467692877209205229e-02
1.216000000000000000e+10,3.603213661372729228e-03,1.362782588101456522e-03,-7.161201831618607683e-01,1.513631111297062716e-02
1.224000000000000191e+10,3.179087624644738423e-03,5.850102793648846982e-04,-7.157960623853849569e-01,1.556266593487490302e-02
1.232000000000000000e+10,2.654931728598586543e-03,2.453791077629816943e-05,-7.154109848647198788e-01,1.594390679772212521e-02
1.239999999999999809e+10,2.101279681136626869e-03,-3.255888630066176934e-04,-7.149700752124734660e-01,1.626732182527188680e-02
1.247999999999999809e+10,1.577031054599767204e-03,-4.919752604460105342e-04,-7.144818548429768823e-01,1.652038291029468003e-02
1.256000000000000000e+10,1.124377412157388702e-03,-5.147533700295099180e-04,-7.139585066216576070e-01,1.669185319219503721e-02
1.264000000000000000e+10,7.664350777783399647e-04,-4.401676107648293257e-04,-7.134157134819181234e-01,1.677310232280040600e-02
1.272000000000000000e+10,5.079538861103491659e-04,-3.130724271284484011e-04,-7.128719379975129167e-01,1.675943850327782716e-02
1.280000000000000191e+10,3.388752587432881718e-04,-1.706835351840240290e-04,-7.123471105900219813e-01,1.665118199240743155e-02
1.288000000000000000e+10,2.398503742501045149e-04,-3.871542401367414517e-05,-7.118608491200612010e-01,1.645418318696836857e-02
1.295999999999999809e+10,1.883401309267107191e-04,6.954956883795397529e-05,-7.114304967017605064e-01,1.617956559313426038e-02
1.303999999999999809e+10,1.638419205929326876e-04,1.515226571042972345e-04,-7.110693683601820858e-01,1.584264725042797833e-02
1.312000000000000000e+10,1.512086719042045899e-04,2.118766066741130209e-04,-7.107855838405651161e-01,1.546121081978008016e-02
1.320000000000000000e+10,1.417792114231496300e-04,2.587054346767081719e-04,-7.105817256491907541e-01,1.505346844700902048e-02
1.328000000000000000e+10,1.327792352342670396e-04,3.003460260749347467e-04,-7.104553499680213990e-01,1.463613327852306308e-02
1.335999999999999809e+10,1.258454293115216340e-04,3.433488143794830049e-04,-7.104001773027569522e-01,1.422294939521579968e-02
1.344000000000000000e+10,1.254453049872189540e-04,3.914661169745405501e-04,-7.104076660626538198e-01,1.382388668498367099e-02
1.351999999999999809e+10,1.375410053313647204e-04,4.451842680730214077e-04,-7.104686461219196225e-01,1.344504353657379955e-02
1.359999999999999809e+10,1.683678137599019340e-04,5.013920890052802780e-04,-7.105747355050475722e-01,1.308916943347947573e-02
1.368000000000000000e+10,2.229572708667137428e-04,5.531605139184679176e-04,-7.107193412634503771e-01,1.275663813847029149e-02
1.376000000000000000e+10,3.031899230894620598e-04,5.900513972208604446e-04,-7.108981275318679849e-01,1.244665810188358944e-02
1.384000000000000000e+10,4.056632398540137752e-04,5.995601760357051769e-04,-7.111089168785210690e-01,1.215848265959667933e-02
1.392000000000000000e+10,5.202346096963127034e-04,5.700050579135250515e-04,-7.113510863596013145e-01,1.189237915181981346e-02
1.400000000000000000e+10,6.303348725360399200e-04,4.944261274354819387e-04,-7.116246283659649619e-01,1.165015407053352804e-02
1.407999999999999809e+10,7.157229553902916350e-04,3.742168115062256308e-04,-7.119291388106722129e-01,1.143513342600753317e-02
1.415999999999999809e+10,7.573170741519931123e-04,2.208451188316757317e-04,-7.122630199793532624e-01,1.125165339099054931e-02
1.424000000000000000e+10,7.426143149944213363e-04,5.452309796843138800e-05,-7.126231072091788743e-01,1.110426907583097859e-02
1.432000000000000000e+10,6.696991534780197351e-04,-1.000993279912258454e-04,-7.130047682926061725e-01,1.099696404307588284e-02
1.440000000000000000e+10,5.483004398174828268e-04,-2.198659811536010427e-04,-7.134023566328312471e-01,1.093260202580616756e-02
1.448000000000000000e+10,3.975244169362781568e-04,-2.886875501823410743e-04,-7.138098012588631747e-01,1.091273476361175401e-02
1.456000000000000000e+10,2.411140592103467044e-04,-3.010299004655830868e-04,-7.142211180798889725e-01,1.093773687187160788e-02
1.463999999999999809e+10,1.018047732994157835e-04,-2.624649255574303531e-04,-7.146306992412737591e-01,1.100714102336438315e-02
1.471999999999999809e+10,-3.598753699088060119e-06,-1.874236827552363106e-04,-7.150333313220202935e-01,1.112001122837401670e-02
1.480000000000000000e+10,-6.723270690332452818e-05,-9.503035246736862233e-05,-7.154239738728507270e-01,1.127520132074083525e-02
1.488000000000000000e+10,-9.072005452948251778e-05,-4.256261026742302498e-06,-7.157973928742737968e-01,1.147137503007316685e-02
1.496000000000000191e+10,-8.334759578220635233e-05,7.033564922963620749e-05,-7.161478023241037993e-01,1.170670734316321335e-02
1.504000000000000191e+10,-5.853833527356954185e-05,1.212055146592428919e-04,-7.164687271226830578e-01,1.197826459372648700e-02
1.511999999999999809e+10,-2.972943829093659408e-05,1.482092537274359292e-04,-7.167533289423153597e-01,1.228120349861212129e-02
1.519999999999999809e+10,-6.972618669497020953e-06,1.568134663903062353e-04,-7.169953526267607291e-01,1.260812799282610801e-02
1.527999999999999809e+10,4.673963171606098635e-06,1.550360933499400260e-04,-7.171905757971283046e-01,1.294908310019272230e-02
1.536000000000000000e+10,4.709997195501532336e-06,1.505192642826350016e-04,-7.173382429575559938e-01,1.329254131266820182e-02
1.544000000000000000e+10,-4.489482323703536566e-06,1.488963818002201072e-04,-7.174417343047836404e-01,1.362725077362179731e-02
1.552000000000000191e+10,-1.930234418352678473e-05,1.536045666307237075e-04,-7.175079855832161568e-01,1.394422894572989666e-02
1.560000000000000191e+10,-3.565679138294884290e-05,1.663085869358788265e-04,-7.175458651027375456e-01,1.423801093186365455e-02
1.567999999999999809e+10,-4.925840199655722579e-05,1.870308292672571613e-04,-7.175642879617174508e-01,1.450670624045066574e-02
1.575999999999999809e+10,-5.602406683794601658e-05,2.138643835068776465e-04,-7.175708550343834480e-01,1.475110028169201136e-02
1.583999999999999809e+10,-1.500677402729464968e-04,2.651675978470470051e-04,-7.175713527076198472e-01,1.497342149379747751e-02
1.592000000000000000e+10,-4.009296332383890623e-05,2.689431107729719616e-04,-7.175699733331120100e-01,1.517633396158019586e-02
