# Frequency, Real(S21), Imag(S21), Real(S11), Imag(S11)
4.000000000000000000e+09,5.136699155507285376e-05,1.395344676901536093e-04,-7.188442569933178872e-01,6.808106530719449691e-03
4.080000000000000000e+09,2.664406707036325831e-05,1.440346191054905033e-04,-7.188074130372970050e-01,6.960289804896361079e-03
4.160000000000000477e+09,2.079353059028589083e-06,1.463725191419891903e-04,-7.187533052079920770e-01,7.114790689112755750e-03
4.240000000000000000e+09,1.134902043455773425e-06,1.459051226597514353e-04,-7.187032878703024652e-01,7.273196324425862912e-03
4.320000000000000000e+09,3.525588987095449322e-06,1.445622191710452882e-04,-7.187263790981437417e-01,7.435836151067990937e-03
4.400000000000000000e+09,3.756936948941389205e-06,1.428788695937775028e-04,-7.187202095728628670e-01,7.599949355879192375e-03
4.480000000000000000e+09,2.988157065009968430e-05,1.418206749560284264e-04,-7.187284335541234137e-01,7.767523250579503463e-03
4.560000000000000000e+09,3.815223047068961798e-06,1.409654538132897657e-04,-7.187066320772506067e-01,7.934825307128577296e-03
4.640000000000000000e+09,3.699698667225408865e-06,1.415690165112523798e-04,-7.186991362022088214e-01,8.105885404706815109e-03
4.720000000000000000e+09,3.490329569687818142e-06,1.434712851838739075e-04,-7.187045686477020467e-01,8.280992593802414398e-03
4.800000000000000000e+09,3.426473750630930279e-06,1.464725617287340059e-04,-7.186824544751830857e-01,8.456170169918586846e-03
4.880000000000000000e+09,3.403082985267396528e-06,1.505015220449198131e-04,-7.186849390093229539e-01,8.637274900612416581e-03
4.960000000000000000e+09,3.901610807664036532e-06,1.550481499347637930e-04,-7.186430583721816756e-01,8.819518717608826677e-03
5.040000000000000000e+09,3.542968175005910667e-06,1.599451272869954657e-04,-7.186520502764559559e-01,9.005616860477091631e-03
5.120000000000000000e+09,3.783976046365912128e-06,1.648015494927787625e-04,-7.186400558491909951e-01,9.196375418384713715e-03
5.200000000000000000e+09,4.104737618909293829e-06,1.693878652610908138e-04,-7.186268823095449676e-01,9.391566253131906558e-03
5.280000000000000000e+09,4.477510302823836322e-06,1.735488419517429567e-04,-7.186123226969867162e-01,9.591648890803480820e-03
5.360000000000000000e+09,4.872473201452716266e-06,1.772142442294315744e-04,-7.185961117079765481e-01,9.797153595811781274e-03
5.440000000000000000e+09,5.262397980598691871e-06,1.803846260787138691e-04,-7.185779014432432943e-01,1.000869575244181173e-02
5.520000000000000000e+09,5.625515050798124346e-06,1.831093766006789574e-04,-7.185572233761305938e-01,1.022699194884430472e-02
5.600000000000000000e+09,5.946427106926762684e-06,1.854624629169730993e-04,-7.185334270739541784e-01,1.045287344975336097e-02
5.680000000000000000e+09,6.215396070625849948e-06,1.875203049877201310e-04,-7.185055809681778483e-01,1.068728250414038676e-02
5.760000000000000000e+09,6.426682112838631371e-06,1.893445093521935695e-04,-7.184723221112349067e-01,1.093120973617480243e-02
5.840000000000000954e+09,6.576722331889016847e-06,1.909705252563898112e-04,-7.184316897833469273e-01,1.118548433489979614e-02
5.920000000000000000e+09,6.662793059480494150e-06,1.924014331721190271e-04,-7.183811306826697329e-01,1.145036264635965022e-02
6.000000000000000000e+09,6.682027973869857387e-06,1.936048043832803327e-04,-7.183179019309613444e-01,1.172517431064804341e-02
6.080000000000000000e+09,6.629317505460800821e-06,1.945101286086957479e-04,-7.182396140034451593e-01,1.200842603248768008e-02
6.160000000000000000e+09,6.491860896088716616e-06,1.950057631999434226e-04,-7.181444478623280059e-01,1.229818941888500931e-02
6.239999999999999046e+09,6.238686369642738850e-06,1.949357415374635436e-04,-7.180310897391835034e-01,1.259238620432655102e-02
6.320000000000000000e+09,5.804513536773324190e-06,1.940976074915292575e-04,-7.178986104872562279e-01,1.288891168644223928e-02
6.400000000000000954e+09,5.068045135517454489e-06,1.922429189741357413e-04,-7.177463749044158403e-01,1.318567538081798218e-02
6.480000000000000000e+09,3.825369430873463874e-06,1.890824983917073563e-04,-7.175739842283034298e-01,1.348061136837488613e-02
6.560000000000000000e+09,1.759871961727561612e-06,1.842988529495060042e-04,-7.173812406145295695e-01,1.377167931269929375e-02
6.640000000000000000e+09,-1.589158770774225498e-06,1.775686005835288368e-04,-7.171681249214458820e-01,1.405686326445930792e-02
6.720000000000000000e+09,-6.856337809050104689e-06,1.685961283375908494e-04,-7.169347826249322653e-01,1.433417049854882747e-02
6.799999999999999046e+09,-1.487456971240451085e-05,1.571616286821185256e-04,-7.166815150027412429e-01,1.460163097774350507e-02
6.880000000000000000e+09,-2.668983514699749824e-05,1.431821875645256776e-04,-7.164087739996787274e-01,1.485729761498330581e-02
6.960000000000000954e+09,-4.356158058405268851e-05,1.267859202131102470e-04,-7.161171599105115027e-01,1.509924741210786486e-02
7.039999999999999046e+09,-6.694393507112502144e-05,1.083961400576056604e-04,-7.158074213743611525e-01,1.532558362299117106e-02
7.120000000000000000e+09,-9.844318592641340421e-05,8.882123511128786934e-05,-7.154804573503600329e-01,1.553443916621663132e-02
7.200000000000000000e+09,-1.397476306104139738e-04,6.934435360436835296e-05,-7.151373207938376275e-01,1.572398156092583849e-02
7.280000000000000000e+09,-1.925271496082886025e-04,5.180539504348664784e-05,-7.147792237487935463e-01,1.589241976211047680e-02
7.359999999999999046e+09,-2.570775571687798416e-04,1.709442590016023596e-04,-7.144075434857694029e-01,1.603801322072871335e-02
7.440000000000000000e+09,-3.382774368555972700e-04,3.305535977232129706e-05,-7.140238292686762467e-01,1.615908354482484613e-02
7.520000000000000000e+09,-4.331608658395686958e-04,3.876610342250377079e-05,-7.136298092102182355e-01,1.625402906352522991e-02
7.599999999999999046e+09,-5.429454838925254143e-04,6.022716177621443168e-05,-7.132273966033960688e-01,1.632134255429789141e-02
7.680000000000000000e+09,-6.666914668178286051e-04,1.024093135604612617e-04,-7.128186949685659801e-01,1.635963223490418186e-02
7.760000000000000954e+09,-8.023030837177500506e-04,1.706783123815963470e-04,-7.124060010475279370e-01,1.636764613669174778e-02
7.840000000000000000e+09,-9.463203717254438894e-04,2.705834364982386171e-04,-7.119918048448693471e-01,1.634429962055115870e-02
7.919999999999999046e+09,-1.093741035582476272e-03,4.075802670989356856e-04,-7.115787857904390945e-01,1.628870576962594685e-02
8.000000000000000000e+09,-1.237890525771350239e-03,5.866885534774666892e-04,-7.111698040959539835e-01,1.620020816453505985e-02
8.080000000000000000e+09,-1.370358923454673746e-03,8.120899160908711268e-04,-7.107678864021470533e-01,1.607841519890326060e-02
8.159999999999999046e+09,-1.481023467474725745e-03,1.086674420929950331e-03,-7.103762049082438246e-01,1.592323499910094226e-02
8.240000000000000000e+09,-1.558174367419639696e-03,1.411549976420740709e-03,-7.099980493172136642e-01,1.573490963674587656e-02
8.320000000000000954e+09,-1.588759721009976034e-03,1.785533589418852657e-03,-7.096367911643970405e-01,1.551404718339162783e-02
8.400000000000000000e+09,-1.558762249537223562e-03,2.204648746030144803e-03,-7.092958404351502599e-01,1.526164984141802766e-02
8.480000000000000000e+09,-1.453716522109602810e-03,2.661658530846919279e-03,-7.089785946788129678e-01,1.497913636528100563e-02
8.560000000000000000e+09,-1.259370173430508994e-03,3.145668741635623041e-03,-7.086883813948965383e-01,1.466835684249916984e-02
8.640000000000000000e+09,-9.624862401952194273e-04,3.641839795091394646e-03,-7.084283948834604328e-01,1.433159797972887416e-02
8.720000000000000000e+09,-5.517761717411163612e-04,4.131249549461991563e-03,-7.082016292817917558e-01,1.397157734258418389e-02
8.800000000000000000e+09,-1.894389951751357371e-05,4.590951728468167965e-03,-7.080108100648576652e-01,1.359142512918356561e-02
8.880000000000000000e+09,6.401894915386520044e-04,4.994275349752483328e-03,-7.078583266080838987e-01,1.319465287134135266e-02
8.959999999999998093e+09,1.424523800273615843e-03,5.311409100684641622e-03,-7.077461687879196273e-01,1.278510882478282873e-02
9.040000000000000000e+09,2.326538763913658416e-03,5.510310673314921213e-03,-7.076758706603772930e-01,1.236692077921511604e-02
9.120000000000000000e+09,3.331249257888040886e-03,5.557971750572938095e-03,-7.076484641615863325e-01,1.194442765268374264e-02
9.200000000000000000e+09,4.415350149514376751e-03,5.422055931182464747e-03,-7.076644454454317223e-01,1.152210215942649739e-02
9.280000000000000000e+09,5.546662453974508106e-03,5.072904945533873028e-03,-7.077237559014687429e-01,1.110446741971038952e-02
9.360000000000000000e+09,6.684008533099729255e-03,4.485878772980089225e-03,-7.078257791195959880e-01,1.069601093783322486e-02
9.440000000000000000e+09,7.777654240480260869e-03,3.643955069134599892e-03,-7.079693541849662042e-01,1.030109967920667634e-02
9.520000000000000000e+09,8.770455882052798774e-03,2.540463634054442379e-03,-7.081528046719766101e-01,9.923899914961823235e-03
9.600000000000000000e+09,9.599833511219535778e-03,1.181773393445060931e-03,-7.083739818276640898e-01,9.568305330893958974e-03
9.680000000000000000e+09,1.020065337647449964e-02,-4.103128055101060156e-04,-7.086303195150032153e-01,9.237876251988701506e-03
9.760000000000000000e+09,1.050903554035713221e-02,-2.196758492789572213e-03,-7.089188978948628428e-01,8.935792226094927196e-03
9.840000000000000000e+09,1.046700410036332553e-02,-4.120435207887721343e-03,-7.092365124891074624e-01,8.664819118206486953e-03
9.920000000000000000e+09,1.002776866659895426e-02,-6.106563483314096825e-03,-7.095797449715489646e-01,8.427291189844105662e-03
1.000000000000000000e+10,9.161274691046890351e-03,-8.064776001930243354e-03,-7.099450323600479118e-01,8.225107459548791980e-03
1.008000000000000000e+10,7.859505408417450170e-03,-9.893025355049069741e-03,-7.103287315442525784e-01,8.059741027404620714e-03
1.016000000000000000e+10,6.140887498723685001e-03,-1.148338583062578043e-02,-7.107271767481214697e-01,7.932259309897791988e-03
1.024000000000000000e+10,4.053082371171812422e-03,-1.272955505913352797e-02,-7.111367281175897670e-01,7.843352765989717451e-03
1.032000000000000000e+10,1.673473655341827220e-03,-1.353556991907493498e-02,-7.115538104611336401e-01,7.793369511466077468e-03
1.040000000000000000e+10,-8.931819315569490374e-04,-1.382495542702917753e-02,-7.119749417707180728e-01,7.782353238841183476e-03
1.048000000000000000e+10,-3.520179964151212010e-03,-1.354928652598528203e-02,-7.123967518091639528e-01,7.810082083250511828e-03
1.056000000000000000e+10,-6.067204185158265109e-03,-1.269502775065553708e-02,-7.128159914292336863e-01,7.876106494530724436e-03
1.064000000000000000e+10,-8.390948944344065255e-03,-1.128758062637401360e-02,-7.132295335883070964e-01,7.979784427117069326e-03
1.072000000000000000e+10,-1.035698106254843986e-02,-9.391734169467610624e-03,-7.136343670333461509e-01,8.120312776923927292e-03
1.080000000000000000e+10,-1.185150181195328278e-02,-7.108157023099621538e-03,-7.140275836633034334e-01,8.296754018291278149e-03
1.088000000000000000e+10,-1.279158455161332440e-02,-4.566115606873730019e-03,-7.144063602779313626e-01,8.508057371686070236e-03
1.096000000000000000e+10,-1.313261773447654303e-02,-1.913147952253547741e-03,-7.147679353855892481e-01,8.753073701586967445e-03
1.104000000000000000e+10,-1.287205246903951744e-02,6.971440594738271407e-04,-7.151095815639678666e-01,9.030563201453961283e-03
1.112000000000000191e+10,-1.204906295282290665e-02,3.117782707148505049e-03,-7.154285738725496557e-01,9.339194610713799291e-03
1.120000000000000000e+10,-1.074027421536932411e-02,5.220172282580850566e-03,-7.157221550560216583e-01,9.677534329613272229e-03
1.128000000000000000e+10,-9.052191903469546802e-03,6.903718069960712231e-03,-7.159874986627510207e-01,1.004402333492857013e-02
1.135999999999999809e+10,-7.111309064868377716e-03,8.102449365885510540e-03,-7.162216719098837281e-01,1.043693940963956283e-02
1.143999999999999809e+10,-5.053031155794909454e-03,8.788209359980694510e-03,-7.164216011504223047e-01,1.085434184729009745e-02
1.152000000000000000e+10,-3.010559764397941103e-03,8.970386172528590704e-03,-7.165840441585753506e-01,1.129399569932509895e-02
1.160000000000000000e+10,-1.104744034769416681e-03,8.692504870143589329e-03,-7.167055753170401555e-01,1.175327279967379804e-02
1.168000000000000191e+10,5.643044186613762475e-04,8.026248713428007359e-03,-7.167825920857472388e-01,1.222902769031579059e-02
1.176000000000000000e+10,1.923284012011702328e-03,7.063627796216653647e-03,-7.168113539868741224e-01,1.271744827230727841e-02
1.184000000000000000e+10,2.929157985711769961e-03,5.908074236968716489e-03,-7.167880683104830286e-01,1.321388441112206907e-02
1.191999999999999809e+10,3.569905264091966131e-03,4.665241687495264369e-03,-7.167090396838359245e-01,1.371266302128962451e-02
1.200000000000000000e+10,3.864471353294830422e-03,3.335297984414147508e-03,-7.166063710665068198e-01,1.423973246236481804e-02
1.208000000000000000e+10,3.849562628647103940e-03,2.300002373164713315e-03,-7.163709521294524540e-01,1.468838204010614740e-02
1.216000000000000000e+10,3.635204524848359171e-03,1.287028165849598334e-03,-7.161075901797585574e-01,1.514742563715475165e-02
1.224000000000000191e+10,3.160905267949247737e-03,5.569681616390054820e-04,-7.157808719337235281e-01,1.557299482526787286e-02
1.232000000000000000e+10,2.686172965793830018e-03,-1.863138219422165627e-05,-7.153276675153361630e-01,1.584835463931330221e-02
1.239999999999999809e+10,2.108232438111752420e-03,-3.479094429157975499e-04,-7.148379155889751368e-01,1.623004025354650437e-02
1.247999999999999809e+10,1.555611706248479983e-03,-4.964612313747746074e-04,-7.144590024768375791e-01,1.652493993058374092e-02
1.256000000000000000e+10,1.106080518353799291e-03,-5.136639363493200518e-04,-7.139336540890188765e-01,1.669324492271892502e-02
1.264000000000000000e+10,7.521945605539557666e-04,-4.353851576788219779e-04,-7.133894445896498127e-01,1.677078486209471198e-02
1.272000000000000000e+10,4.979238794906970089e-04,-3.064479316161692474e-04,-7.128450076981998063e-01,1.675301538431863899e-02
1.280000000000000191e+10,3.325694714115952052e-04,-1.637480508654763460e-04,-7.123203947779566114e-01,1.664046887778593969e-02
1.288000000000000000e+10,2.363824571049973956e-04,-3.249464917934465720e-05,-7.118352662032761957e-01,1.643925051299990892e-02
1.295999999999999809e+10,1.867003350724452519e-04,7.458534741500258717e-05,-7.114069129335135466e-01,1.616074567119574201e-02
1.303999999999999809e+10,1.631389398675191075e-04,1.553815022628383708e-04,-7.110485054935450355e-01,1.582050004588118550e-02
1.312000000000000000e+10,1.508250775203240834e-04,2.148853755291496061e-04,-7.107679488130886902e-01,1.543645324537841132e-02
1.320000000000000000e+10,1.414257518325034622e-04,2.613280329333843343e-04,-7.105675768174674056e-01,1.502688154621674432e-02
1.328000000000000000e+10,1.324690413540290557e-04,3.030292026101501896e-04,-7.104447050575876110e-01,1.460846655114888398e-02
1.335999999999999809e+10,1.258268415172982793e-04,3.464160490318663474e-04,-7.103928584509476840e-01,1.419484051799154052e-02
1.344000000000000000e+10,1.261254589317672525e-04,3.950511241762811243e-04,-7.104033703678227507e-01,1.379580968746056506e-02
1.351999999999999809e+10,1.394083218438502538e-04,4.491825870153035635e-04,-7.104670269935540183e-01,1.341729159925582684e-02
1.359999999999999809e+10,1.718985039107573864e-04,5.054191356243488897e-04,-7.105754800634677126e-01,1.306187232546275438e-02
1.368000000000000000e+10,2.284838003478646977e-04,5.565314502959580476e-04,-7.107222305912739291e-01,1.272980918940260116e-02
1.376000000000000000e+10,3.107301077487099666e-04,5.918241660610545733e-04,-7.109030690311437528e-01,1.242026111574020750e-02
1.384000000000000000e+10,4.147497626794594190e-04,5.986869655166609464e-04,-7.111159421456255680e-01,1.213250483740269635e-02
1.392000000000000000e+10,5.298257319080791096e-04,5.656027353675245877e-04,-7.113603146946809730e-01,1.186689306436265919e-02
1.400000000000000000e+10,6.388939756397159046e-04,4.861101275853719475e-04,-7.116362051906901520e-01,1.162535251634741300e-02
1.407999999999999809e+10,7.215056493510162063e-04,3.623787788637352855e-04,-7.119431666531577108e-01,1.141132777481673223e-02
1.415999999999999809e+10,7.588119776756928683e-04,2.067388688280572266e-04,-7.122795027604681417e-01,1.122923766289942414e-02
1.424000000000000000e+10,7.389960431940861222e-04,4.008128946471480958e-05,-7.126419233772941508e-01,1.108366378270991826e-02
1.432000000000000000e+10,6.611252159036459103e-04,-1.126872241173129652e-04,-7.130256768026753678e-01,1.097855962289040303e-02
1.440000000000000000e+10,5.359366242164473977e-04,-2.286835230533759266e-04,-7.134250277291172004e-01,1.091671894161599064e-02
1.448000000000000000e+10,3.832861759136452391e-04,-2.925576705838863097e-04,-7.138338569735673822e-01,1.089960850909772044e-02
1.456000000000000000e+10,2.272096123907762176e-04,-2.997782273989483062e-04,-7.142461671989094318e-01,1.092752620867729237e-02
1.463999999999999809e+10,9.021995707974238797e-05,-2.569154431330665663e-04,-7.146563560595375897e-01,1.099995082882384949e-02
1.471999999999999809e+10,-1.153238854052519033e-05,-1.791464155355183569e-04,-7.150592135393372129e-01,1.111591814915284353e-02
1.480000000000000000e+10,-7.108097906622967742e-05,-8.592195431886420027e-05,-7.154496808039116917e-01,1.127426970833197116e-02
1.488000000000000000e+10,-9.834104092421827766e-05,6.851638020537314535e-06,-7.156678787384951335e-01,1.129061873818188420e-02
1.496000000000000191e+10,-8.110058690563352825e-05,7.638413002212757848e-05,-7.161717122816319003e-01,1.171218313075844848e-02
1.504000000000000191e+10,-5.524794089756876871e-05,1.246540703413252967e-04,-7.164908349927711084e-01,1.198680826633537894e-02
1.511999999999999809e+10,-2.670134692659208940e-05,1.493240683386472365e-04,-7.167729477835010909e-01,1.229247468185706328e-02
1.519999999999999809e+10,-5.151948960213894777e-06,1.567735284364947556e-04,-7.168714617145679480e-01,1.269402302385397134e-02
1.527999999999999809e+10,5.115518302881741060e-06,1.539134310972506317e-04,-7.172035274670853777e-01,1.296371480102880350e-02
1.536000000000000000e+10,3.806661312745406533e-06,1.495334266069367674e-04,-7.173475719658416461e-01,1.330740467334982045e-02
1.544000000000000000e+10,-6.371530346313588190e-06,1.486126280517203373e-04,-7.174477549803862653e-01,1.364138478577871412e-02
1.552000000000000191e+10,-2.167803003216172602e-05,1.543642653478563868e-04,-7.175113196950748673e-01,1.395691059070382385e-02
1.560000000000000191e+10,-4.687974659855684550e-04,1.466469885755915638e-04,-7.175472703424887744e-01,1.424884820780648875e-02
1.567999999999999809e+10,-5.091338371260607375e-05,1.900586419149161079e-04,-7.175644849428330918e-01,1.451561278019094549e-02
1.575999999999999809e+10,-5.649101638685954615e-05,2.175874111646748058e-04,-7.175704221411192130e-01,1.475819131496676311e-02
1.583999999999999809e+10,-5.209544559769507636e-05,2.466505342899554367e-04,-7.175707075189731166e-01,1.497889586302343125e-02
1.592000000000000000e+10,-3.772239300948758629e-05,2.719823044477880916e-04,-7.175694177426849008e-01,1.518039215076808640e-02
