# Frequency, Real(S21), Imag(S21), Real(S11), Imag(S11)
4.000000000000000000e+09,3.793338035178074884e-05,1.405016057042984194e-04,-7.188498803541847337e-01,6.802988356586206140e-03
4.080000000000000000e+09,2.195499731905599309e-06,1.453679557300786612e-04,-7.187430380068029478e-01,6.950672326077881463e-03
4.160000000000000477e+09,2.086847476671429390e-06,1.463732811386092895e-04,-7.187535577305939061e-01,7.109875393280047293e-03
4.240000000000000000e+09,1.139836282982444485e-06,1.459021897345727254e-04,-7.187034859074621362e-01,7.268114626308984708e-03
4.320000000000000000e+09,3.532106486103028482e-06,1.445537523291634411e-04,-7.187266366396746209e-01,7.430575835614116990e-03
4.400000000000000000e+09,3.763322568112445903e-06,1.428644622007448062e-04,-7.187204846435540917e-01,7.594505378314331777e-03
4.480000000000000000e+09,2.990370640166349056e-05,1.417970933848639265e-04,-7.187287516934314224e-01,7.761884618922057846e-03
4.560000000000000000e+09,3.823463184773627559e-06,1.409383046362708920e-04,-7.187069463181028350e-01,7.928991015375501036e-03
4.640000000000000000e+09,3.709706187075738221e-06,1.415358568547406498e-04,-7.186994723789258410e-01,8.099843205885292122e-03
4.720000000000000000e+09,3.502129725879653075e-06,1.434324886002435486e-04,-7.187049494414786688e-01,8.274728071565304321e-03
4.800000000000000000e+09,3.440571496841166057e-06,1.464292306820817301e-04,-7.186828401304514724e-01,8.449683098909845091e-03
4.880000000000000000e+09,3.419009854015049407e-06,1.504537712325579508e-04,-7.186853690417096541e-01,8.630542880448248758e-03
4.960000000000000000e+09,3.418998214726499612e-06,1.550081519131129659e-04,-7.186634743323940810e-01,8.811913803287965002e-03
5.040000000000000000e+09,3.561290033284709640e-06,1.598897271414450108e-04,-7.186525278155703189e-01,8.998377107206797371e-03
5.120000000000000000e+09,3.802761451193970825e-06,1.647418771507881880e-04,-7.186405700105981120e-01,9.188857984133790013e-03
5.200000000000000000e+09,4.123554708246954389e-06,1.693233051183653929e-04,-7.186274368075734609e-01,9.383755726193055910e-03
5.280000000000000000e+09,4.496032853496843566e-06,1.734785905914037389e-04,-7.186129218117461859e-01,9.583528416382687889e-03
5.360000000000000000e+09,4.890498347099502711e-06,1.771374038647019976e-04,-7.185967604132549313e-01,9.788704674954410573e-03
5.440000000000000000e+09,5.279842470562468783e-06,1.803003087095386096e-04,-7.185786055782545922e-01,9.999897999181215844e-03
5.520000000000000000e+09,5.642392064681934770e-06,1.830167679573484673e-04,-7.185579898788240216e-01,1.021782279980856106e-02
5.600000000000000000e+09,5.962821831607527604e-06,1.853608764283114631e-04,-7.185342643100984805e-01,1.044330781616609888e-02
5.680000000000000000e+09,6.231439133253938503e-06,1.874091905068907878e-04,-7.185064992064761347e-01,1.067729237135373391e-02
5.760000000000000000e+09,6.442533305245644369e-06,1.892234638933951065e-04,-7.184733342249229882e-01,1.092076373553282388e-02
5.840000000000000954e+09,6.592569245677286194e-06,1.908392789412975980e-04,-7.184328122748185885e-01,1.117454740189447598e-02
5.920000000000000000e+09,6.678864569977334807e-06,1.922598629536033409e-04,-7.183823850575704606e-01,1.143889597803687819e-02
6.000000000000000000e+09,6.698613283574473545e-06,1.934529341640146881e-04,-7.183193162271085397e-01,1.171313586141518003e-02
6.080000000000000000e+09,6.646816768088787992e-06,1.943481935010657599e-04,-7.182412241492326377e-01,1.199577155154953403e-02
6.160000000000000000e+09,6.510852997014227888e-06,1.948342990247442410e-04,-7.181462986860688291e-01,1.228487382149335595e-02
6.239999999999999046e+09,6.260043409340012170e-06,1.947557231933684865e-04,-7.180332356255961779e-01,1.257836509383697919e-02
6.320000000000000000e+09,5.829596429364156953e-06,1.939106411848269854e-04,-7.179011157410404298e-01,1.287414293084576493e-02
6.400000000000000954e+09,5.099016212260995155e-06,1.920514644194460372e-04,-7.177493138688070262e-01,1.317012070248800397e-02
6.480000000000000000e+09,3.865681982379312544e-06,1.888900910935804216e-04,-7.175774411887029247e-01,1.346423793284647411e-02
6.560000000000000000e+09,1.814988801259574008e-06,1.841103098633935405e-04,-7.173853095102452615e-01,1.375446129936862792e-02
6.640000000000000000e+09,-1.510800501071290548e-06,1.773898381335569882e-04,-7.171729088772257343e-01,1.403878342049507538e-02
6.720000000000000000e+09,-6.742029656058435953e-06,1.684342360516396543e-04,-7.169403933122198147e-01,1.431522166473187148e-02
6.799999999999999046e+09,-1.470579947000110778e-05,1.570239775702879338e-04,-7.166880718301747999e-01,1.458181758725820253e-02
6.880000000000000000e+09,-2.644051667112591098e-05,1.430752082353153789e-04,-7.164164031288783319e-01,1.483663716241936763e-02
6.960000000000000954e+09,-4.319621322757224752e-05,1.267130804133384005e-04,-7.161259930927597050e-01,1.507777188703691984e-02
7.039999999999999046e+09,-6.641587568426978675e-05,1.083550429221771263e-04,-7.158175945959932562e-01,1.530334089938641465e-02
7.120000000000000000e+09,-9.769336336002429431e-05,8.879938725600177633e-05,-7.154921092694587204e-01,1.551149432560947929e-02
7.200000000000000000e+09,-1.387040553723835909e-04,6.931398947802525014e-05,-7.151505909476572054e-01,1.570041815740335495e-02
7.280000000000000000e+09,-1.911057166002509342e-04,5.171706054819523468e-05,-7.147942505175917116e-01,1.586834096757597928e-02
7.359999999999999046e+09,-2.556998892001072286e-04,1.763652623024628409e-04,-7.143637766555975821e-01,1.629149611238282433e-02
7.440000000000000000e+09,-3.358149044913229112e-04,3.257815925362207493e-05,-7.140427679616352385e-01,1.613436686533614717e-02
7.520000000000000000e+09,-4.300338971455283524e-04,3.787549162818633439e-05,-7.136508882169172452e-01,1.622923341217308302e-02
7.599999999999999046e+09,-5.390738771368393375e-04,5.870911484694163202e-05,-7.132507237122784893e-01,1.629665759635271979e-02
7.680000000000000000e+09,-6.719834435294537445e-04,1.898589868532992711e-04,-7.128443623610740687e-01,1.633526986884540483e-02
7.760000000000000954e+09,-7.968385486921965126e-04,1.670248406423027222e-04,-7.124340815555191275e-01,1.634383990964919167e-02
7.840000000000000000e+09,-9.401265144853251151e-04,2.652989713874077601e-04,-7.120223479958381896e-01,1.632130357440263885e-02
7.919999999999999046e+09,-1.086982238907892610e-03,4.002145439656696821e-04,-7.116118137036839819e-01,1.626679263980164783e-02
8.000000000000000000e+09,-1.230854688606820629e-03,5.767505731789503804e-04,-7.112053073441796380e-01,1.617966681767346593e-02
8.080000000000000000e+09,-1.363485446256660098e-03,7.990701684240535986e-04,-7.108058199497320206e-01,1.605954725589280041e-02
8.159999999999999046e+09,-1.474929768720788670e-03,1.070076848023708213e-03,-7.104164842995497331e-01,1.590635056152751858e-02
8.240000000000000000e+09,-1.553678344373673201e-03,1.390934561145946687e-03,-7.100405472955844122e-01,1.572032212439378185e-02
8.320000000000000954e+09,-1.586895066890600973e-03,1.760569966137922292e-03,-7.096813349342526722e-01,1.550206725549956553e-02
8.400000000000000000e+09,-1.560783049870089660e-03,2.175180553084320612e-03,-7.093422097831139084e-01,1.525257850920590068e-02
8.480000000000000000e+09,-1.461087184769959768e-03,2.627777270462872995e-03,-7.090265211921172872e-01,1.497325737606306460e-02
8.560000000000000000e+09,-1.273736486521510284e-03,3.107794907569153171e-03,-7.087375489764525804e-01,1.466592854225134447e-02
8.640000000000000000e+09,-9.856233509663763284e-04,3.600807646949703584e-03,-7.084784417431306824e-01,1.433284490236509147e-02
8.720000000000000000e+09,-5.855095637034969745e-04,4.088390511658813314e-03,-7.082521515580810778e-01,1.397668179273535774e-02
8.800000000000000000e+09,-6.504007645459288791e-05,4.548169566545901682e-03,-7.080613670972936147e-01,1.360051916708698676e-02
8.880000000000000000e+09,5.801646770164897281e-04,4.954104528533877227e-03,-7.079084478672610370e-01,1.320781102400222541e-02
8.959999999999998093e+09,1.349379417867311659e-03,5.277046048650073200e-03,-7.077953623270524242e-01,1.280234193351444290e-02
9.040000000000000000e+09,2.235663233609932760e-03,5.485605629238782775e-03,-7.077236328603750959e-01,1.238817133917131420e-02
9.120000000000000000e+09,3.224838979623267758e-03,5.547368053137080243e-03,-7.076942904561923653e-01,1.196956694106213366e-02
9.200000000000000000e+09,4.294651687607551650e-03,5.430462829769735177e-03,-7.077078416172061237e-01,1.155092938452765075e-02
9.280000000000000000e+09,5.414212169978688954e-03,5.105490954918423703e-03,-7.077642494872792289e-01,1.113671100144488120e-02
9.360000000000000000e+09,6.543847098094179686e-03,4.547775057457677933e-03,-7.078629304542048972e-01,1.073133191520408633e-02
9.440000000000000000e+09,7.635486864550206088e-03,3.739863709962876204e-03,-7.080027665838726225e-01,1.033909710166834410e-02
9.520000000000000000e+09,8.633722892254459477e-03,2.674173722080823261e-03,-7.081821333565064824e-01,9.964117979519942353e-03
9.600000000000000000e+09,9.477651486859417496e-03,1.355599733499036333e-03,-7.083989412271557429e-01,9.610241877305856703e-03
9.680000000000000000e+09,1.010358611808147983e-02,-1.961381584976789824e-04,-7.086506887313338554e-01,9.280992193632689805e-03
9.760000000000000000e+09,1.044865859338182761e-02,-1.944693547504908974e-03,-7.089345242215250309e-01,8.979521449285713525e-03
9.840000000000000000e+09,1.050241043316958375e-02,-4.172294197734774737e-03,-7.092473130042109553e-01,8.708578361616564623e-03
9.920000000000000000e+09,1.007598259948730077e-02,-5.799389992811891138e-03,-7.095857063519720453e-01,8.470489465459477701e-03
1.000000000000000000e+10,9.279178063039232593e-03,-7.747744001304140808e-03,-7.099462091932690067e-01,8.267154653560976688e-03
1.008000000000000000e+10,8.053910413956397868e-03,-9.582716168594533970e-03,-7.103252434525939574e-01,8.100055388344275242e-03
1.016000000000000000e+10,6.414443648600011080e-03,-1.119927977006961867e-02,-7.107192046922713446e-01,7.970273672845258617e-03
1.024000000000000000e+10,4.403139989748781555e-03,-1.249293033944010728e-02,-7.111245102919666605e-01,7.878519433164372920e-03
1.032000000000000000e+10,2.091255168531140629e-03,-1.336795445432984591e-02,-7.115376381243418979e-01,7.825163827481792719e-03
1.040000000000000000e+10,-4.229205038602120402e-04,-1.374622355715180225e-02,-7.119551553585091730e-01,7.810275972571940721e-03
1.048000000000000000e+10,-3.018845375458190615e-03,-1.357557107273032505e-02,-7.123737375925752735e-01,7.833660799086877499e-03
1.056000000000000000e+10,-5.561334501700833030e-03,-1.283668489934314434e-02,-7.127901789574232483e-01,7.894896081202982044e-03
1.064000000000000000e+10,-7.910465385199964145e-03,-1.154748227537085760e-02,-7.132013940625006043e-01,7.993367056098321655e-03
1.072000000000000000e+10,-9.932846733980196449e-03,-9.764156500596423219e-03,-7.136044128114154006e-01,8.128297451950186950e-03
1.080000000000000000e+10,-1.151301725576514730e-02,-7.578477789481646854e-03,-7.139963690144363051e-01,8.298775996885698544e-03
1.088000000000000000e+10,-1.256362675257984701e-02,-5.111433435524245436e-03,-7.143744835476686372e-01,8.503777687834328247e-03
1.096000000000000000e+10,-1.303315873597376065e-02,-2.503810653610954833e-03,-7.147360427753753909e-01,8.742179130814866847e-03
1.104000000000000000e+10,-1.291026792529556370e-02,9.524362332160489844e-05,-7.150783726943542584e-01,9.012767059396152580e-03
1.112000000000000191e+10,-1.222426552165533850e-02,2.540390466633507018e-03,-7.153988093328864650e-01,9.314238942990563097e-03
1.120000000000000000e+10,-1.104179760204467182e-02,4.701649066332620405e-03,-7.156946660625823631e-01,9.645194208036110203e-03
1.128000000000000000e+10,-9.460230252223974373e-03,6.474136709005921808e-03,-7.159631988581628415e-01,1.000411420060235389e-02
1.135999999999999809e+10,-7.598604731227544783e-03,7.785112043606093844e-03,-7.162015711275260266e-01,1.038932865667772931e-02
1.143999999999999809e+10,-5.587216987109118287e-03,8.597820310805970312e-03,-7.164068206246806403e-01,1.079896608398792784e-02
1.152000000000000000e+10,-3.556908111264951364e-03,8.912030956845238064e-03,-7.165758322231250421e-01,1.123088543389556306e-02
1.160000000000000000e+10,-1.629053613192613754e-03,8.761499511837817639e-03,-7.167053218609926724e-01,1.168258642415937951e-02
1.168000000000000191e+10,9.294577901531957641e-05,8.208839383172090304e-03,-7.167918391119120214e-01,1.215109677270016092e-02
1.176000000000000000e+10,1.530095630954485687e-03,7.338452138699522002e-03,-7.168317982541155819e-01,1.263283586368036879e-02
1.184000000000000000e+10,2.631816535364255895e-03,6.248240736298395909e-03,-7.168215504324998433e-01,1.312345732858948705e-02
1.191999999999999809e+10,3.377396707422499443e-03,5.040841699102038310e-03,-7.167575121766532886e-01,1.361767743943929389e-02
1.200000000000000000e+10,3.530595306283857739e-03,3.820111670424969613e-03,-7.166363672482111147e-01,1.410910322730647010e-02
1.208000000000000000e+10,3.858002571163511585e-03,2.658297737247880370e-03,-7.164553581218946476e-01,1.459008390859141586e-02
1.216000000000000000e+10,3.680298142894020651e-03,1.640121321657584709e-03,-7.162126785496175652e-01,1.505162144654288540e-02
1.224000000000000191e+10,3.308885694101236681e-03,8.081754280998680075e-04,-7.159079666244653195e-01,1.548338933597891501e-02
1.232000000000000000e+10,2.854732550304314720e-03,-4.634239530411916712e-04,-7.155428761967319584e-01,1.587391958362155756e-02
1.239999999999999809e+10,2.273784997006232829e-03,-2.258840220195205192e-04,-7.151216722321390717e-01,1.621102007700365305e-02
1.247999999999999809e+10,1.740062066979963361e-03,-4.709256730031540416e-04,-7.146055592939049017e-01,1.651194241074272623e-02
1.256000000000000000e+10,1.261396549858671747e-03,-5.152626493721872624e-04,-7.141787220742682463e-01,1.663850359056965461e-02
1.264000000000000000e+10,8.807455372879199364e-04,-4.714049169322726517e-04,-7.136126275371084127e-01,1.678547952769959134e-02
1.272000000000000000e+10,5.904764638136170054e-04,-3.609852039890340254e-04,-7.130748499800282358e-01,1.680221786536077039e-02
1.280000000000000191e+10,3.923417972068122183e-04,-2.231917124887068389e-04,-7.125496093247931650e-01,1.672603216403035359e-02
1.288000000000000000e+10,2.703785750495346749e-04,-8.726970071725348877e-05,-7.120560984700154972e-01,1.656092608674600980e-02
1.295999999999999809e+10,2.034100002673214626e-04,2.938375356636015005e-05,-7.116119183690724492e-01,1.631607455199398163e-02
1.303999999999999809e+10,1.704245047353624668e-04,1.204465651790860591e-04,-7.112313329671772211e-01,1.600504391701259091e-02
1.312000000000000000e+10,1.544634058658069203e-04,1.879267861466686401e-04,-7.109239659786640297e-01,1.564433959444128455e-02
1.320000000000000000e+10,1.444872336275188887e-04,2.385805808792055313e-04,-7.106942082972753649e-01,1.525155502676390010e-02
1.328000000000000000e+10,1.354091104558280412e-04,2.806025684609676643e-04,-7.105414273270208581e-01,1.484349174198380805e-02
1.335999999999999809e+10,1.269858462843347969e-04,3.212644710957351544e-04,-7.104608767453927110e-01,1.443460159547896478e-02
1.344000000000000000e+10,1.223499938142318404e-04,3.655911328346700927e-04,-7.104450651669311778e-01,1.403599095921832102e-02
1.351999999999999809e+10,1.266810584435301961e-04,4.157275727514534282e-04,-7.104852883507566386e-01,1.365507811278822599e-02
1.359999999999999809e+10,1.460673422181098843e-04,4.705561130729353590e-04,-7.105730519269779499e-01,1.329586214577932295e-02
1.368000000000000000e+10,1.862741624764921119e-04,5.253675577931019632e-04,-7.107011760182738724e-01,1.295967211227284227e-02
1.376000000000000000e+10,2.511090146644893062e-04,5.718010432790192939e-04,-7.108644479507291170e-01,1.264621546288987458e-02
1.384000000000000000e+10,3.404017120640175000e-04,5.985762047015011616e-04,-7.110597630844205375e-01,1.235471871908674565e-02
1.392000000000000000e+10,4.515492576920188562e-04,5.913566231804739341e-04,-7.111654723803197964e-01,1.211556325664808927e-02
1.400000000000000000e+10,5.617626774025122772e-04,5.467246212608490316e-04,-7.115421446277457873e-01,1.183787983726246329e-02
1.407999999999999809e+10,6.633758973632702905e-04,4.545041945132600970e-04,-7.118286473324344499e-01,1.161597158429278007e-02
1.415999999999999809e+10,7.333418860436401350e-04,3.219954172024177912e-04,-7.121442929506837105e-01,1.142286753979184291e-02
1.424000000000000000e+10,7.552032589642453109e-04,1.637650379731253104e-04,-7.124867868721527220e-01,1.126280686073592198e-02
1.432000000000000000e+10,7.204327542249485718e-04,1.359268680917288981e-06,-7.128523931258085033e-01,1.113987404164337551e-02
1.440000000000000000e+10,6.312248692238635675e-04,-1.414768315948477509e-04,-7.132361878001770572e-01,1.105736437394278480e-02
1.448000000000000000e+10,5.003183039097558980e-04,-2.443967760603192206e-04,-7.136325451489773375e-01,1.101742644237772850e-02
1.456000000000000000e+10,3.479577137624042995e-04,-2.950837756679386458e-04,-7.140356561329752605e-01,1.102102308809573342e-02
1.463999999999999809e+10,1.970569958335984494e-04,-2.916106106214165841e-04,-7.144399125476338375e-01,1.106814081901260141e-02
1.471999999999999809e+10,6.804820389684048862e-05,-2.420784860562226774e-04,-7.148400661415132973e-01,1.115811603810979054e-02
1.480000000000000000e+10,-2.522249309150245396e-05,-1.619078223619001820e-04,-7.152311521281986550e-01,1.128993453003818148e-02
1.488000000000000000e+10,-7.765329064242387520e-05,-6.969874174735931705e-05,-7.156082309501797800e-01,1.146237841769552970e-02
1.496000000000000191e+10,-9.277727233972666698e-05,1.719801576373288258e-05,-7.159660549165071108e-01,1.167392673844805211e-02
1.504000000000000191e+10,-8.061631125783585950e-05,8.629741911633029554e-05,-7.162988173227643474e-01,1.192236514137641999e-02
1.511999999999999809e+10,-5.420804169741924659e-05,1.319279473840547228e-04,-7.166001848063865420e-01,1.220414888647944167e-02
1.519999999999999809e+10,-2.586964465004244610e-05,1.551065474185765757e-04,-7.168638060546960178e-01,1.251370765694554722e-02
1.527999999999999809e+10,-4.398787269834793755e-06,1.620179559846192971e-04,-7.169424849893190066e-01,1.291344500508731855e-02
1.536000000000000000e+10,6.203869528995215022e-06,1.589794533082501053e-04,-7.172589138707794465e-01,1.318203029037617012e-02
1.544000000000000000e+10,5.734739389865451645e-06,1.542853855203985274e-04,-7.173880612204758256e-01,1.351959921182235846e-02
1.552000000000000191e+10,-4.583224827099083342e-06,1.533385774963414252e-04,-7.172763584110420920e-01,1.388791386503482675e-02
1.560000000000000191e+10,-1.791066787938730279e-05,1.570770597439474878e-04,-7.175306355087905930e-01,1.415217495013135554e-02
1.567999999999999809e+10,-3.384098214190605291e-05,1.692758332467803658e-04,-7.175600803583220832e-01,1.443524488042833252e-02
1.575999999999999809e+10,-4.714540269369032045e-05,1.892072496247232014e-04,-7.175728819155959837e-01,1.469369683541638105e-02
1.583999999999999809e+10,-5.395327412776857021e-05,2.150513274003156645e-04,-7.175759945240677284e-01,1.492876154085310582e-02
1.592000000000000000e+10,-5.156954397394212424e-05,2.431148342566701785e-04,-7.175746496964511278e-01,1.514283371567081739e-02
