# Frequency, Real(S21), Imag(S21), Real(S11), Imag(S11), Amp(S21), Amp(S11)
2.000000000000000000e+09,4.570518706414697249e-05,5.695329031765109917e-05,-7.197211798264440130e-01,-3.228172345345513977e-03,7.302493685430558356e-05,7.197284194663010615e-01
2.106666666666666746e+09,5.075276236029257484e-05,6.035565242255204617e-05,-7.197803076239335240e-01,-3.397683856556635816e-03,7.885840263758989123e-05,7.197883268703331172e-01
2.213333333333333492e+09,4.564528517311342975e-05,6.929244162438808700e-05,-7.198081017475528309e-01,-3.598152779874963080e-03,8.297550557124723145e-05,7.198170948545489223e-01
2.320000000000000000e+09,3.556798252027335862e-05,6.963846674162524786e-05,-7.199517479554661259e-01,-3.726440769984751874e-03,7.819589139262315925e-05,7.199613918433009907e-01
2.426666666666666508e+09,3.167731068564792562e-05,7.369969757671378686e-05,-7.200748525389742971e-01,-3.877087278973035626e-03,8.021905905191194588e-05,7.200852901322136734e-01
2.533333333333333492e+09,2.256263219424747114e-05,7.591712858082903369e-05,-7.201088777416960740e-01,-4.041758194857680668e-03,7.919900746531499929e-05,7.201202202491683302e-01
2.640000000000000477e+09,1.470369021939363455e-05,7.861690155286222528e-05,-7.187672377002239932e-01,-4.207294950883402711e-03,7.998009574788169957e-05,7.187795512686862009e-01
2.746666666666666985e+09,3.410918017589106603e-06,8.147198988912571270e-05,-7.187879330844473280e-01,-4.382989043110777430e-03,8.154335962061237068e-05,7.188012961457178607e-01
2.853333333333333015e+09,6.045690571578991258e-06,8.502762119310446694e-05,-7.187839546491749942e-01,-4.565576345345870833e-03,8.524228258467359183e-05,7.187984543308870711e-01
2.960000000000000000e+09,2.735374772567605739e-06,8.862346034565816739e-05,-7.188071575469380248e-01,-4.743727404758660282e-03,8.866566414788107874e-05,7.188228103576006500e-01
3.066666666666666985e+09,1.457210549189996690e-05,9.245283272595687641e-05,-7.188377282855979988e-01,-4.925244375677818344e-03,9.359419072528392641e-05,7.188546011809059388e-01
3.173333333333333015e+09,1.097605182104414425e-05,9.583760714368199339e-05,-7.188422240195243562e-01,-5.109429523551673770e-03,9.646408998484862316e-05,7.188603823437429430e-01
3.280000000000000000e+09,1.682472843935788706e-07,9.871996183292514266e-05,-7.188407646100116732e-01,-5.295334687894781567e-03,9.872010520376738626e-05,7.188602683655308523e-01
3.386666666666666508e+09,1.626558814002921960e-05,1.026753717155704491e-04,-7.188490959109508083e-01,-5.482930133619589794e-03,1.039557661434497920e-04,7.188700057832720924e-01
3.493333333333333492e+09,-9.057350732488554514e-07,1.071298910177916639e-04,-7.188508677812882608e-01,-5.672882555518008948e-03,1.071337197408305799e-04,7.188732514890228131e-01
3.600000000000000000e+09,6.548506488382060026e-07,1.138820904458198789e-04,-7.188290560923296102e-01,-5.866828577121507848e-03,1.138839732081831704e-04,7.188529971838073518e-01
3.706666666666666985e+09,-2.739707825897968544e-06,1.220785077040419401e-04,-7.189006282022533112e-01,-6.060399158797201251e-03,1.221092463420240290e-04,7.189261726127088581e-01
3.813333333333333969e+09,-2.837784036647514198e-06,1.309441293955968292e-04,-7.189057350203681418e-01,-6.258702576265145513e-03,1.309748756113532364e-04,7.189329782414449754e-01
3.920000000000000000e+09,-9.032525207099309512e-07,1.389113353871686653e-04,-7.188847742470463320e-01,-6.460321329822577008e-03,1.389142719959422540e-04,7.189138017842691131e-01
4.026666666666666985e+09,-3.595194961744065231e-07,1.444762270256941597e-04,-7.188809393139347081e-01,-6.666044318089262705e-03,1.444766743451968063e-04,7.189118451213164507e-01
4.133333333333333015e+09,1.702411097196142249e-07,1.470072818174529431e-04,-7.188958857972833627e-01,-6.873785940779963792e-03,1.470073803908887881e-04,7.189287471992062972e-01
4.240000000000000000e+09,7.779836688917635398e-07,1.467772176177072280e-04,-7.189024103710475178e-01,-7.086140811625544871e-03,1.467792794306636785e-04,7.189373331723037941e-01
4.346666666666666985e+09,7.710638304622567898e-07,1.448682169679034514e-04,-7.188973303288543892e-01,-7.303618304738157020e-03,1.448702689542964836e-04,7.189344298295188285e-01
4.453333333333333015e+09,1.434644565044926181e-06,1.428051962357483801e-04,-7.189179431646026686e-01,-7.523503785379006582e-03,1.428124023919442832e-04,7.189573089643302994e-01
4.560000000000000000e+09,1.359318285644683550e-06,1.418843390937940855e-04,-7.189272443428497139e-01,-7.749262876109171139e-03,1.418908503966497306e-04,7.189690074916488260e-01
4.666666666666666985e+09,1.079134299300896152e-06,1.429597319604029989e-04,-7.189274748838810902e-01,-7.981472429181880879e-03,1.429638048354414767e-04,7.189717783369882209e-01
4.773333333333333015e+09,6.936576599238118885e-07,1.462318198124819009e-04,-7.189499353652070157e-01,-8.217453501646676886e-03,1.462334650024383091e-04,7.189968957538600547e-01
4.880000000000000000e+09,3.463022634615726324e-07,1.513086389488238449e-04,-7.189639073232139133e-01,-8.461210866952891679e-03,1.513090352417964849e-04,7.190136939744596889e-01
4.986666666666666985e+09,1.204030550724275743e-07,1.574697308554221951e-04,-7.189801708808332137e-01,-8.712513490236160549e-03,1.574697768861529088e-04,7.190329575277822904e-01
5.093333333333333969e+09,4.737963972639354403e-08,1.639120243228268188e-04,-7.189993080939262038e-01,-8.972390581736613968e-03,1.639120311704947322e-04,7.190552891344975661e-01
5.200000000000000000e+09,1.006830170168596195e-07,1.699663252228197224e-04,-7.190221272046393164e-01,-9.242067609916446852e-03,1.699663550436357321e-04,7.190815219594999252e-01
5.306666666666666985e+09,2.131718997375053954e-07,1.752113191956069442e-04,-7.190497873310557342e-01,-9.522992060027256692e-03,1.752114488739925141e-04,7.191128451353179241e-01
5.413333333333333015e+09,3.009457249140665044e-07,1.794854075212103063e-04,-7.190840050805402672e-01,-9.816823100313230507e-03,1.794856598210126672e-04,7.191510108304467463e-01
5.520000000000000000e+09,2.834925499015131416e-07,1.828235454951450747e-04,-7.191273705184179077e-01,-1.012529023448313983e-02,1.828237652917181068e-04,7.191986488662686083e-01
5.626666666666666985e+09,9.429065423420955575e-08,1.853579659287787830e-04,-7.191836801441291449e-01,-1.044972436568325849e-02,1.853579899113652889e-04,7.192595932797641867e-01
5.733333333333333969e+09,-3.196361755830300529e-07,1.872169182722396917e-04,-7.192578494279575629e-01,-1.079018717332483161e-02,1.872171911300861706e-04,7.193387811754388128e-01
5.840000000000000954e+09,-1.009961025190712047e-06,1.884418309521316138e-04,-7.193550059521974793e-01,-1.114484173576200769e-02,1.884445373945982903e-04,7.194413333175967429e-01
5.946666666666666985e+09,-2.055217413079792822e-06,1.889313350396633687e-04,-7.194794575268665948e-01,-1.151028048776900521e-02,1.889425131580623428e-04,7.195715227550777415e-01
6.053333333333333969e+09,-3.610421300344356967e-06,1.884155553629726686e-04,-7.196343607745564475e-01,-1.188227887185353167e-02,1.884501436579537239e-04,7.197324515113883159e-01
6.160000000000000000e+09,-5.980443310530801811e-06,1.864634437653647531e-04,-7.198218593046040725e-01,-1.225629140400482688e-02,1.865593245137584085e-04,7.199261946975655801e-01
6.266666666666666985e+09,-9.714688686409063726e-06,1.825255001080531463e-04,-7.200432834587848774e-01,-1.262766415983714897e-02,1.827838432848176008e-04,7.201540029439825741e-01
6.373333333333333015e+09,-1.571506229428926886e-05,1.760179492137917611e-04,-7.202992909194709803e-01,-1.299171454848598375e-02,1.767180851761991265e-04,7.204164442501309606e-01
6.480000000000000000e+09,-2.534203234505143069e-05,1.664555067415924043e-04,-7.205899511257901624e-01,-1.334376311973718178e-02,1.683735559046548914e-04,7.207134893129615305e-01
6.586666666666666985e+09,-4.049623424859374811e-05,1.536411195832666440e-04,-7.209147923631065158e-01,-1.367915008405565930e-02,1.588884470788125432e-04,7.210445596459091888e-01
6.693333333333333015e+09,-6.364581877960182217e-05,1.379156569838426100e-04,-7.212728244950498135e-01,-1.399324846537516182e-02,1.518931160040205754e-04,7.214085516250002827e-01
6.799999999999999046e+09,-9.776567990997438737e-05,1.204607790017988536e-04,-7.216625445687451235e-01,-1.428147906523178322e-02,1.551416367258634922e-04,7.218038437676310703e-01
6.906666666666666031e+09,-1.461547975506419944e-04,1.036331888074229046e-04,-7.220819293185813947e-01,-1.453933065550611255e-02,1.791676942684258312e-04,7.222282913209333577e-01
7.013333333333333015e+09,-2.121037797015135301e-04,9.129100250713508783e-05,-7.225284172936248250e-01,-1.476238857166196732e-02,2.309156999912000889e-04,7.226792109319121193e-01
7.120000000000000000e+09,-2.983972514894018364e-04,8.905556030140205671e-05,-7.229988832785987363e-01,-1.494637510279861643e-02,3.114029744832666068e-04,7.231533581134877986e-01
7.226666666666666985e+09,-4.066547067168711132e-04,1.044392475512922439e-04,-7.234896083735351535e-01,-1.508720504395207399e-02,4.198518868887748251e-04,7.236469008988634100e-01
7.333333333333333015e+09,-5.365381312168015625e-04,1.467643863307205266e-04,-7.239962501693947283e-01,-1.518105940942638538e-02,5.562490012077782146e-04,7.241553941138167971e-01
7.440000000000000000e+09,-6.848827274494940272e-04,2.268033410474986494e-04,-7.245138187390651741e-01,-1.522447943102731190e-02,7.214597049516805046e-04,7.246737599208410430e-01
7.546666666666666985e+09,-8.448357622534213504e-04,3.560854463145425239e-04,-7.250366653437727571e-01,-1.521448156889811977e-02,9.168120364934932622e-04,7.251962813902372851e-01
7.653333333333333969e+09,-1.005114596311868468e-03,5.458423272085280095e-04,-7.255584916594064460e-01,-1.514869224571492590e-02,1.143765359630895739e-03,7.257166166595804269e-01
7.760000000000000954e+09,-1.149515085324332494e-03,8.055970674954973827e-04,-7.260723877780284052e-01,-1.502549859299785219e-02,1.403699243622205531e-03,7.262278415908163254e-01
7.866666666666666985e+09,-1.256813087936178592e-03,1.141442826347101314e-03,-7.265709068715253682e-01,-1.484420858773283745e-02,1.697784104009379593e-03,7.267225283701523875e-01
7.973333333333333969e+09,-1.301201993435612296e-03,1.554101389058776955e-03,-7.270461831439563039e-01,-1.460521084685892888e-02,2.026908422991831240e-03,7.271928661696815954e-01
8.080000000000000954e+09,-1.253395926661654992e-03,2.036900377820567275e-03,-7.274900971116169401e-01,-1.431012147797481454e-02,2.391644726571569898e-03,7.276308273926993531e-01
8.186666666666667938e+09,-1.082498938908504861e-03,2.573859020671543860e-03,-7.278944887387640561e-01,-1.396190297142759461e-02,2.792231045424128054e-03,7.280283795779187717e-01
8.293333333333334923e+09,-7.586927817851712606e-04,3.138124374199528083e-03,-7.282514137336033588e-01,-1.356493891985184434e-02,3.228535167080901023e-03,7.283777379717828460e-01
8.399999999999999046e+09,-2.567264150170843733e-04,3.691049506171186628e-03,-7.285534328018252737e-01,-1.312504892468161453e-02,3.699966879469880447e-03,7.286716485198247995e-01
8.506666666666666031e+09,4.399028257337312189e-04,4.182244942953691584e-03,-7.287939176204194514e-01,-1.264943068720628984e-02,4.205316546819068066e-03,7.289036853091286350e-01
8.613333333333332062e+09,1.334306609746118560e-03,4.550956273522768769e-03,-7.289673521153953173e-01,-1.214652151661499944e-02,4.742528558936511852e-03,7.290685416578364109e-01
8.720000000000000000e+09,2.411478446714513790e-03,4.729106836577161993e-03,-7.290696042076891814e-01,-1.162577884578325921e-02,5.308453613881305468e-03,7.291622909293428156e-01
8.826666666666666031e+09,3.634029285885844070e-03,4.646277547875483568e-03,-7.290981426885072558e-01,-1.109738815863458260e-02,5.898649328665656055e-03,7.291825928365092135e-01
8.933333333333332062e+09,4.939114714251444972e-03,4.236750666157764432e-03,-7.290521767352104998e-01,-1.057191601125262101e-02,6.507296701989497868e-03,7.291288238785362807e-01
9.040000000000000000e+09,6.237450197912703873e-03,3.448495174291779999e-03,-7.289327021671605511e-01,-1.005993363998149322e-02,7.127264828709181481e-03,7.290021169746759844e-01
9.146666666666666031e+09,7.415416799822419427e-03,2.253597165315551591e-03,-7.287424480675054328e-01,-9.571641790674106573e-03,7.750297187760405923e-03,7.288053045512153938e-01
9.253333333333333969e+09,8.341232177829234484e-03,6.591371074316048056e-04,-7.284857287125695580e-01,-9.116528672775417452e-03,8.367234666892469502e-03,7.285427702152599272e-01
9.360000000000000000e+09,8.852250323268950546e-03,-1.295642881791332721e-03,-7.281839764443521767e-01,-8.604192225571297842e-03,8.946565053860155992e-03,7.282348080627315534e-01
9.466666666666666031e+09,8.889077932890022612e-03,-3.470094140190401345e-03,-7.277966636303359049e-01,-8.338627804770975052e-03,9.542392773239640955e-03,7.278444313897818319e-01
9.573333333333333969e+09,8.278938329782992156e-03,-5.747267450653388218e-03,-7.273785965856914837e-01,-8.029150648395025694e-03,1.007828869489706125e-02,7.274229100262822323e-01
9.680000000000000000e+09,6.962025358436284284e-03,-7.923870809876745053e-03,-7.269000216586944951e-01,-7.776717105375080888e-03,1.054786830137381844e-02,7.269416199505621679e-01
9.786666666666667938e+09,5.052296301905658850e-03,-9.751522029088825413e-03,-7.264351970079070409e-01,-7.592673537921017062e-03,1.098261716559647064e-02,7.264748750943629263e-01
9.893333333333333969e+09,2.555556731557084935e-03,-1.102996684463603341e-02,-7.259263807812247338e-01,-7.471417890238767415e-03,1.132214815315437002e-02,7.259648286242372794e-01
1.000000000000000000e+10,-3.107916294115625148e-04,-1.156266277893126110e-02,-7.254037561003414680e-01,-7.416886633345347660e-03,1.156683889298172445e-02,7.254416720673106944e-01
1.010666666666666794e+10,-3.291260949387241844e-03,-1.123107259004350530e-02,-7.248753337826583376e-01,-7.429517181492799154e-03,1.170339225010372589e-02,7.249134067266727044e-01
1.021333333333333397e+10,-6.090515126681056608e-03,-1.001509804523078445e-02,-7.243489360116274201e-01,-7.508998834018190682e-03,1.172162801678658731e-02,7.243878561686867279e-01
1.031999999999999809e+10,-8.415479060024341415e-03,-8.006777844746701053e-03,-7.238322039859057533e-01,-7.654359392642397231e-03,1.161588478183365851e-02,7.238726744012413672e-01
1.042666666666666603e+10,-1.002156208159937084e-02,-5.404151007926293569e-03,-7.233326200257859107e-01,-7.864023819392445755e-03,1.138580496371780805e-02,7.233753673328943146e-01
1.053333333333333206e+10,-1.075294302563507137e-02,-2.484751249795733898e-03,-7.228575372652873421e-01,-8.135851772325940548e-03,1.103629342152134818e-02,7.229033208287933832e-01
1.064000000000000000e+10,-1.056770612255630154e-02,4.364385493694673823e-04,-7.224142194700080566e-01,-8.467159124357682282e-03,1.057671457968350701e-02,7.224638380404226901e-01
1.074666666666666603e+10,-9.542319274256852099e-03,3.055678348085640213e-03,-7.220098991438924640e-01,-8.854720025979945577e-03,1.001963209398494883e-02,7.220641941881014159e-01
1.085333333333333206e+10,-7.855161704748953033e-03,5.125565063294038742e-03,-7.216518605985201562e-01,-9.294734578580573017e-03,9.379497994339297193e-03,7.217117152964832583e-01
1.096000000000000000e+10,-5.753671181993290362e-03,6.487870724106453366e-03,-7.213475454528002206e-01,-9.782737070570904706e-03,8.671631830469837821e-03,7.214138779337223584e-01
1.106666666666666603e+10,-3.512728277087246928e-03,7.089067872072606948e-03,-7.211046627153172572e-01,-1.031341435040790573e-02,7.911646051454803569e-03,7.211784114248946942e-01
1.117333333333333397e+10,-1.392616023610539688e-03,6.977657516916979663e-03,-7.209312660532161132e-01,-1.088030506785537393e-02,7.115271169295296801e-03,7.210133642391537423e-01
1.128000000000000000e+10,3.963218962335433686e-04,6.285920421011983485e-03,-7.208357380619159205e-01,-1.147535983925734686e-02,6.298401907208654900e-03,7.209270733927999331e-01
1.138666666666666603e+10,1.717486093165196967e-03,5.200920821871627547e-03,-7.208265959897262043e-01,-1.208836338871215575e-02,5.477164948729743715e-03,7.209279506410841698e-01
1.149333333333333397e+10,2.517989003604672107e-03,3.930490671095103992e-03,-7.209120083113257360e-01,-1.270625840819263226e-02,4.667871628251969197e-03,7.210239751424390997e-01
1.160000000000000000e+10,2.824750869426864708e-03,2.669844201611211876e-03,-7.210988967035185659e-01,-1.331247723486968931e-02,3.886809171441896020e-03,7.212217695529999917e-01
1.170666666666666794e+10,2.728534450858663678e-03,1.573815188236541264e-03,-7.213915154392834816e-01,-1.388648624961020747e-02,3.149888013286600980e-03,7.215251575989201083e-01
1.181333333333333397e+10,2.359232328651017160e-03,7.387060585607909801e-04,-7.217894868934306984e-01,-1.440387010925877308e-02,2.472177951019408071e-03,7.219331927983408947e-01
1.192000000000000000e+10,1.866966676095701411e-03,1.807464196187422807e-04,-7.223519340529742649e-01,-1.484302256093865055e-02,1.875695561080429220e-03,7.225044165600769119e-01
1.202666666666666794e+10,1.396701781832684289e-03,-1.012701514380525119e-04,-7.228629653778807507e-01,-1.515936307721473322e-02,1.400368348309430052e-03,7.230219035435994090e-01
1.213333333333333397e+10,9.084587565978976230e-04,-1.512591194228045952e-04,-7.234951177796953292e-01,-1.534564877313168707e-02,9.209650556063244927e-04,7.236578434504276069e-01
1.224000000000000191e+10,5.879442595525417523e-04,-1.012224362798500163e-04,-7.241455835417883735e-01,-1.538046133560206155e-02,5.965940277502070673e-04,7.243089014736552311e-01
1.234666666666666603e+10,3.827964970101093638e-04,-3.150883148624924860e-07,-7.247721740070890428e-01,-1.526097471416146788e-02,3.827966266881891616e-04,7.249328255529531306e-01
1.245333333333333206e+10,2.668622551560694846e-04,1.029324281257160546e-04,-7.253330110893320137e-01,-1.499972645015304473e-02,2.860254324126420156e-04,7.254880900259469412e-01
1.256000000000000000e+10,2.064194523795775406e-04,1.867785981499808464e-04,-7.257935928657760494e-01,-1.462341128742815181e-02,2.783796599027247892e-04,7.259408953921064889e-01
1.266666666666666603e+10,1.741568355562553609e-04,2.500582676889186629e-04,-7.261323572684791339e-01,-1.416795680220611295e-02,3.047289625397485761e-04,7.262705634074861916e-01
1.277333333333333206e+10,1.553773874626982105e-04,3.017210946388178532e-04,-7.263427486130651367e-01,-1.367145565938886025e-02,3.393784782286288866e-04,7.264714014760863536e-01
1.288000000000000000e+10,1.474196432250234078e-04,3.515410281097805902e-04,-7.264312960363508154e-01,-1.316743712220947923e-02,3.812002697442313419e-04,7.265506240183265962e-01
1.298666666666666603e+10,1.556866157215975005e-04,4.043137500595558095e-04,-7.264128457815168805e-01,-1.268057909353533484e-02,4.332527331732199624e-04,7.265235162075273090e-01
1.309333333333333397e+10,1.887695204135956075e-04,4.569870585515503885e-04,-7.263049363027690442e-01,-1.222571799084713751e-02,4.944401920564074149e-04,7.264078253145137554e-01
1.320000000000000000e+10,2.530288742959287086e-04,4.978609603261155382e-04,-7.261231802143321978e-01,-1.180973645960583553e-02,5.584703636221952181e-04,7.262192112026649715e-01
1.330666666666666603e+10,3.465201123248692503e-04,5.086352935256693852e-04,-7.258788154155966232e-01,-1.143510677534712028e-02,6.154559692338549539e-04,7.259688811072506631e-01
1.341333333333333397e+10,4.541415918282347766e-04,4.708549403766178719e-04,-7.255787208509711927e-01,-1.110358493720023376e-02,6.541780799639738617e-04,7.256636753690990371e-01
1.352000000000000000e+10,5.480344297152273548e-04,3.759908842869347299e-04,-7.252273465056424673e-01,-1.081870787895620675e-02,6.646133321113605356e-04,7.253080370158498935e-01
1.362666666666666794e+10,5.960326743626440972e-04,2.341894191166128247e-04,-7.248293488112034222e-01,-1.058635227248293058e-02,6.403902192679572112e-04,7.249066531302567062e-01
1.373333333333333397e+10,5.756260342322905938e-04,7.503633439061383609e-05,-7.243915713272266466e-01,-1.041355630226697276e-02,5.804961522394220304e-04,7.244664179689691563e-01
1.384000000000000000e+10,4.856930211071193481e-04,-6.227881798203131411e-05,-7.239235676220248106e-01,-1.030662000078095067e-02,4.896696457014664472e-04,7.239969324344135426e-01
