# Frequency, Real(S21), Imag(S21), Real(S11), Imag(S11), Amp(S21), Amp(S11)
4.000000000000000000e+09,1.944622414356931399e-06,1.443600230380751980e-04,-7.188073895780271449e-01,6.863534357535385974e-03,1.443731201016588918e-04,7.188401570696052456e-01
4.080000000000000000e+09,1.982016450607346336e-06,1.471961016842776343e-04,-7.187383973216473487e-01,7.020032237707547057e-03,1.472094451462224610e-04,7.187726793897418753e-01
4.160000000000000477e+09,-2.186390478093366407e-05,1.529205910805103491e-04,-7.187326461581616810e-01,7.183508269638256075e-03,1.544756858171614981e-04,7.187685437222286478e-01
4.240000000000000000e+09,2.214777219877667934e-05,1.490637692241710195e-04,-7.187265075361273237e-01,7.349306547785469657e-03,1.507001363923928807e-04,7.187640815607108102e-01
4.320000000000000000e+09,1.234664123235296217e-09,1.468736337929229846e-04,-7.187282443167521961e-01,7.518651461088637217e-03,1.468736337981124641e-04,7.187675697319922952e-01
4.400000000000000000e+09,-3.175656975729446385e-07,1.453325942449181082e-04,-7.187213503005300819e-01,7.689573132611016680e-03,1.453329412003014499e-04,7.187624843526400076e-01
4.480000000000000000e+09,1.997772783483771656e-07,1.440402719668312814e-04,-7.187053210386756819e-01,7.862111548801573382e-03,1.440404105077448859e-04,7.187483226326942809e-01
4.560000000000000000e+09,1.382871273819348741e-06,1.437323530399649231e-04,-7.187101921702887530e-01,8.040288884670150973e-03,1.437390052955879840e-04,7.187551645552207047e-01
4.640000000000000000e+09,3.045860071213495109e-07,1.443203361995653124e-04,-7.186882976757351660e-01,8.218750579784420487e-03,1.443206576114150572e-04,7.187352899900900649e-01
4.720000000000000000e+09,1.547848149645490658e-06,1.464073285100182971e-04,-7.186901068572405515e-01,8.403800964172952748e-03,1.464155103646289763e-04,7.187392389212635679e-01
4.800000000000000000e+09,5.540798037594844912e-07,1.494095469230767115e-04,-7.186681740723572798e-01,8.589629961729789223e-03,1.494105743118203712e-04,7.187195045129743942e-01
4.880000000000000000e+09,2.904470169106347774e-05,1.540187352755130706e-04,-7.186566455690530653e-01,8.781274713274439883e-03,1.567334218097449748e-04,7.187102928205172381e-01
4.960000000000000000e+09,3.682391743517432844e-05,1.568430714694062284e-04,-7.186439166496921827e-01,8.977629644403534864e-03,1.611078829953078539e-04,7.186999907970235135e-01
5.040000000000000000e+09,1.898370374953303188e-07,1.631166917470008686e-04,-7.186297633651158590e-01,9.179213520503522530e-03,1.631168022142014140e-04,7.186883850147137709e-01
5.120000000000000000e+09,-2.692278561533580027e-07,1.680279047990375146e-04,-7.186138940684984044e-01,9.386633712139181088e-03,1.680281204881877571e-04,7.186751962053072873e-01
5.200000000000000000e+09,-9.096233502392465116e-07,1.726429907265870640e-04,-7.185959188374826390e-01,9.600605408343693831e-03,1.726453870268757692e-04,7.186600491150824110e-01
5.280000000000000000e+09,-1.722550021665385990e-06,1.767931283798732870e-04,-7.185752997148043830e-01,9.821973862111513590e-03,1.768015198490089225e-04,7.186424232751424945e-01
5.360000000000000000e+09,-2.696098078779389238e-06,1.803913497739291548e-04,-7.185512669871658709e-01,1.005173351785008766e-02,1.804114963579384794e-04,7.186215698374042171e-01
5.440000000000000000e+09,-3.820216501181264103e-06,1.834181600938663843e-04,-7.185226774935905558e-01,1.029102022471639621e-02,1.834579393385173042e-04,7.185963701340438714e-01
5.520000000000000000e+09,-5.089764911613329189e-06,1.858986225605277487e-04,-7.184877971222125570e-01,1.054100240430776679e-02,1.859682864812090680e-04,7.185651169832956153e-01
5.600000000000000000e+09,-6.505059884529201138e-06,1.878756353200651649e-04,-7.184440980482073025e-01,1.080252281202287792e-02,1.879882181175709509e-04,7.185253068051300485e-01
5.680000000000000000e+09,-8.070174236160661366e-06,1.893823046463972851e-04,-7.183884299286793507e-01,1.107550058404659608e-02,1.895541743813172286e-04,7.184738011706343075e-01
5.760000000000000000e+09,-9.791189918197831761e-06,1.904142170980063168e-04,-7.183177266581347586e-01,1.135867066534367031e-02,1.906657847466631779e-04,7.184075276822999845e-01
5.840000000000000954e+09,-1.167895755504022283e-05,1.909022053645240342e-04,-7.182295706056219808e-01,1.164998333792754970e-02,1.912591175934139488e-04,7.183240481872440464e-01
5.920000000000000000e+09,-1.376127959475541125e-05,1.906877996169455863e-04,-7.181222320401933201e-01,1.194709076762182597e-02,1.911837067818212903e-04,7.182216044705136415e-01
6.000000000000000000e+09,-1.610758252350328069e-05,1.895045728055707777e-04,-7.179945059847021582e-01,1.224758412708850525e-02,1.901879000593185531e-04,7.180989583206249804e-01
6.080000000000000000e+09,-1.886715053302667094e-05,1.869687267989396655e-04,-7.178455728895353216e-01,1.254906908300037517e-02,1.879182645994061595e-04,7.179552532379404051e-01
6.160000000000000000e+09,-2.232039398999565409e-05,1.825821934304392086e-04,-7.176749123368059147e-01,1.284918294993816178e-02,1.839414508634172856e-04,7.177899283913943274e-01
6.239999999999999046e+09,-2.694098163646575371e-05,1.757531224507353248e-04,-7.174822524565855897e-01,1.314559552032143301e-02,1.778060081738509714e-04,7.176026681052402045e-01
6.320000000000000000e+09,-3.346485349407252597e-05,1.658346889271313917e-04,-7.172675399502904670e-01,1.343600676831834331e-02,1.691775412722923237e-04,7.173933719684201238e-01
6.400000000000000954e+09,-4.296023584238762021e-05,1.521916044518138852e-04,-7.170309219557876590e-01,1.371814503191058632e-02,1.581387565691944692e-04,7.171621368588022571e-01
6.480000000000000000e+09,-5.689082720142550013e-05,1.342924313569263009e-04,-7.167727350966407451e-01,1.398976644731556723e-02,1.458458890041718699e-04,7.169092462391383203e-01
6.560000000000000000e+09,-7.716258533780638649e-05,1.118327876336060238e-04,-7.164934992353574339e-01,1.424865567389084660e-02,1.358699266427912497e-04,7.166351642468016259e-01
6.640000000000000000e+09,-1.061431331343281096e-04,8.488814610786918889e-05,-7.161939146429474601e-01,1.449262785317111113e-02,1.359130680295410234e-04,7.163405332896358724e-01
6.720000000000000000e+09,-1.466419954870063934e-04,5.409290223774412061e-05,-7.158748618690139454e-01,1.471953187855787326e-02,1.563007258873526178e-04,7.160261744340800094e-01
6.799999999999999046e+09,-2.018398215172735231e-04,2.083850302183068383e-05,-7.155374039085375948e-01,1.492725516656562106e-02,2.029126825960262228e-04,7.156930901852954774e-01
6.880000000000000000e+09,-2.751557974385686464e-04,-1.252071336664564391e-05,-7.151827903343919157e-01,1.511373031594734871e-02,2.754405219412429441e-04,7.153424693351778663e-01
6.960000000000000954e+09,-3.700446433169757906e-04,-4.246980235104655388e-05,-7.148124630882118913e-01,1.527694402752636724e-02,3.724737872110261386e-04,7.149756935764015608e-01
7.039999999999999046e+09,-4.897180988279835464e-04,-6.416336142395429780e-05,-7.144280634909310201e-01,1.541494890080100100e-02,4.939035870176644756e-04,7.145943454527303729e-01
7.120000000000000000e+09,-6.367906323297484921e-04,-7.130652060958179604e-05,-7.140314399417776459e-01,1.552587848112581964e-02,6.407705746243078050e-04,7.142002171155782397e-01
7.200000000000000000e+09,-8.128550735665750551e-04,-5.611189135001459598e-05,-7.136246555928994484e-01,1.560796617383130788e-02,8.147894912023583101e-04,7.137953191764203620e-01
7.280000000000000000e+09,-1.018000855655917239e-03,-9.358065361977549977e-06,-7.132099951307321328e-01,1.565956826528354384e-02,1.018043867180338548e-03,7.133818887753137217e-01
7.359999999999999046e+09,-1.250295071502008099e-03,7.942621749860534312e-05,-7.127899696297698151e-01,1.567919134085377780e-02,1.252815345471289818e-03,7.129623958147521812e-01
7.440000000000000000e+09,-1.505254312219291794e-03,2.216314295976433944e-04,-7.123673183221354011e-01,1.566552410061873221e-02,1.521483169489649219e-03,7.125395461718722068e-01
7.520000000000000000e+09,-1.775342673096129680e-03,4.290748359233580861e-04,-7.119450059934240294e-01,1.561747326534091741e-02,1.826457451390195268e-03,7.121162805540751650e-01
7.599999999999999046e+09,-2.049537975257249237e-03,7.133387238879998829e-04,-7.115262147172423113e-01,1.553420310129584835e-02,2.170128578453300785e-03,7.116957676534542143e-01
7.680000000000000000e+09,-2.313013536144832138e-03,1.084941201372972407e-03,-7.111143286069694369e-01,1.541517754588789431e-02,2.554824657158657163e-03,7.112813902028592983e-01
7.760000000000000954e+09,-2.546986327401606909e-03,1.552352566558435048e-03,-7.107129104006209008e-01,1.526020379121891327e-02,2.982773515182017034e-03,7.108767226670673622e-01
7.840000000000000000e+09,-2.728783548446763515e-03,2.120883423579745554e-03,-7.103256689057320106e-01,1.506947556864314877e-02,3.456068018816911645e-03,7.104854995003695439e-01
7.919999999999999046e+09,-2.832177941918491079e-03,2.791484302102201220e-03,-7.099564165678299288e-01,1.484361418186556578e-02,3.976633815625053858e-03,7.101115731403158104e-01
8.000000000000000000e+09,-2.828037381320244303e-03,3.559511702357815582e-03,-7.096090169960065364e-01,1.458370503871243319e-02,4.546198300708725708e-03,7.097588614837401222e-01
8.080000000000000000e+09,-2.685325464133816575e-03,4.413530570448588250e-03,-7.092873226302515155e-01,1.429132702430723975e-02,5.166258311835533919e-03,7.094312849544387456e-01
8.159999999999999046e+09,-2.372477112178398954e-03,5.334238105464413071e-03,-7.089951035707872107e-01,1.396857227525773008e-02,5.838042806763147491e-03,7.091326941403565121e-01
8.240000000000000000e+09,-1.859155625980459664e-03,6.293608054164756896e-03,-7.087359691370060943e-01,1.361805371298607098e-02,6.562466150850783560e-03,7.088667895560498700e-01
8.320000000000000954e+09,-1.118375109059108544e-03,7.254366222019689031e-03,-7.085132845300978754e-01,1.324289818803725712e-02,7.340067586047364749e-03,7.086370359415644637e-01
8.400000000000000000e+09,-1.289445356849559245e-04,8.169916563593154074e-03,-7.083300856218671671e-01,1.284672347874923903e-02,8.170934056113583754e-03,7.084465742038852376e-01
8.480000000000000000e+09,1.121843441975949951e-03,8.984840422983668071e-03,-7.081889955027250716e-01,1.243359815929537260e-02,9.054606017645704108e-03,7.082981347669536909e-01
8.560000000000000000e+09,2.635393749580909693e-03,9.636087506330662938e-03,-7.080921467118426182e-01,1.200798429162400031e-02,9.989969101303166829e-03,7.081939564284162048e-01
8.640000000000000000e+09,4.399017350562908421e-03,1.005496356126024671e-02,-7.080411132557502540e-01,1.157466392033248449e-02,1.097513762414052164e-02,7.081357150330088723e-01
8.720000000000000000e+09,6.383368997306093987e-03,1.016999342142307049e-02,-7.080368563286008055e-01,1.113865154779160663e-02,1.200733800421880174e-02,7.081244660919370215e-01
8.800000000000000000e+09,8.540361547674974602e-03,9.910696283473805282e-03,-7.080796869609552457e-01,1.070509562846816941e-02,1.308280077767244587e-02,7.081606047777149193e-01
8.880000000000000000e+09,1.080184467550857931e-02,9.212249327301028773e-03,-7.081692482277474054e-01,1.027917335483095537e-02,1.419666813242358334e-02,7.082438461012644515e-01
8.959999999999998093e+09,1.307936734390637706e-02,8.020933795022501880e-03,-7.083045182019491737e-01,9.865983281065337715e-03,1.534292113845921526e-02,7.083732265772032521e-01
9.040000000000000000e+09,1.526535505676817304e-02,6.300153113590752432e-03,-7.084838337890905224e-01,9.470440832944591880e-03,1.651432693947545854e-02,7.085471275716654915e-01
9.120000000000000000e+09,1.723601565726756366e-02,4.036686923128703086e-03,-7.087049341673551384e-01,9.097181560748532000e-03,1.770240314344159738e-02,7.087633190462838684e-01
9.200000000000000000e+09,1.885622672019116736e-02,1.246704111227152877e-03,-7.089650212281339847e-01,8.750476421678662561e-03,1.889739551536671544e-02,7.090190210160901563e-01
9.280000000000000000e+09,1.998653997617989495e-02,-2.019084765260033276e-03,-7.092608335123291585e-01,8.434162567254014850e-03,2.008826730976920674e-02,7.093109790866166664e-01
9.360000000000000000e+09,2.060372299061109455e-02,-5.726615302665815158e-03,-7.095887293252013395e-01,8.151591944321431513e-03,2.138474979742719523e-02,7.096355495862510798e-01
9.440000000000000000e+09,2.025422749727942215e-02,-9.583653253130755209e-03,-7.099447744465139376e-01,7.905598730486495737e-03,2.240714486916603118e-02,7.099887895278340633e-01
9.520000000000000000e+09,1.918084921537096740e-02,-1.358924842034744951e-02,-7.103248298938202865e-01,7.698485417720781279e-03,2.350686387531762331e-02,7.103665466795374694e-01
9.600000000000000000e+09,1.722008844694195712e-02,-1.749230752344877945e-02,-7.107246356333366544e-01,7.532026179292693364e-03,2.454612532794955490e-02,7.107645454821904796e-01
9.680000000000000000e+09,1.437038367042880321e-02,-2.107541006207671458e-02,-7.111398867720332140e-01,7.407485268558567856e-03,2.550844636821324174e-02,7.111784652224392156e-01
9.760000000000000000e+09,1.068876030164001359e-02,-2.411422634158479419e-02,-7.115662998003978723e-01,7.325647664111170805e-03,2.637698824428402061e-02,7.116040079463635815e-01
9.840000000000000000e+09,6.294600833079220213e-03,-2.639490173309000376e-02,-7.119996670831471031e-01,7.286858747383008136e-03,2.713508498507567410e-02,7.120369542635526239e-01
9.920000000000000000e+09,1.367716909410470697e-03,-2.773318885488874549e-02,-7.124358990006739445e-01,7.291070028584764086e-03,2.776689420164258487e-02,7.124732064345017379e-01
1.000000000000000000e+10,-3.860058115900553890e-03,-2.799324501663606399e-02,-7.128710534905333684e-01,7.337887984878502072e-03,2.825812830354391264e-02,7.129088185068139794e-01
1.008000000000000000e+10,-9.119684050544644288e-03,-2.710365858454037366e-02,-7.133013534600529670e-01,7.426623535673704431e-03,2.859679957353772686e-02,7.133400140081053165e-01
1.016000000000000000e+10,-1.377116416101213138e-02,-2.500510020044732079e-02,-7.137231926377010094e-01,7.556339981857424816e-03,2.854645334159666703e-02,7.137631918100528772e-01
1.024000000000000000e+10,-1.859638912734931648e-02,-2.197016278498278852e-02,-7.141331306426220715e-01,7.725897622252936477e-03,2.878391462908473988e-02,7.141749209931008702e-01
1.032000000000000000e+10,-2.228415999351828977e-02,-1.796706806126187328e-02,-7.145278778949001319e-01,7.933993281790537380e-03,2.862515190064041787e-02,7.145719253779739821e-01
1.040000000000000000e+10,-2.499051390331410299e-02,-1.327972643937493091e-02,-7.149042710680452162e-01,8.179193088438084513e-03,2.829976889404521231e-02,7.149510584584870543e-01
1.048000000000000000e+10,-2.658556096512638967e-02,-8.173291810216644707e-03,-7.152592397207511166e-01,8.459956567868538030e-03,2.781357134287875538e-02,7.153092693870513052e-01
1.056000000000000000e+10,-2.701662827422959476e-02,-2.934905536375823770e-03,-7.155897649531155480e-01,8.774649852439064465e-03,2.717557494912207702e-02,7.156435608497347944e-01
1.064000000000000000e+10,-2.630970418838900551e-02,2.150010132847005907e-03,-7.158928312466812383e-01,9.121545414299775043e-03,2.639740665390975100e-02,7.159509399540825436e-01
1.072000000000000000e+10,-2.456343477997550637e-02,6.819926178155098773e-03,-7.161653732588224575e-01,9.498805294689169690e-03,2.549262091793614779e-02,7.162283638316587764e-01
1.080000000000000000e+10,-2.193699320588653190e-02,1.085556311817859401e-02,-7.164042201527295317e-01,9.904444360751427090e-03,2.447600705850264471e-02,7.164726824316024478e-01
1.088000000000000000e+10,-1.863375923983616456e-02,1.409292352557661200e-02,-7.166060412833222815e-01,1.033626983186059119e-02,2.336295094601558223e-02,7.166805821827403333e-01
1.096000000000000000e+10,-1.488296684013842852e-02,1.643037179177950571e-02,-7.167672987113046235e-01,1.079179297129454970e-02,2.216889305267098070e-02,7.168485358131352347e-01
1.104000000000000000e+10,-1.092134742308592879e-02,1.782993031538008047e-02,-7.168842143492218932e-01,1.126810908055277984e-02,2.090890347643929725e-02,7.169727659160788358e-01
1.112000000000000191e+10,-6.976415582169515420e-03,1.831356822083381186e-02,-7.169527625494812595e-01,1.176174268808318803e-02,1.959737623648307933e-02,7.170492328413674565e-01
1.120000000000000000e+10,-3.252534567204392463e-03,1.795562475554567800e-02,-7.169687028731767109e-01,1.226845677490845041e-02,1.824783388440458926e-02,7.170736614402201115e-01
1.128000000000000000e+10,-3.698327728197470590e-04,1.680394345944696832e-02,-7.169276722554888126e-01,1.278302894291015804e-02,1.680801273405461288e-02,7.170416257614538047e-01
1.135999999999999809e+10,2.890132311244767490e-03,1.521182050737788713e-02,-7.168253604321268568e-01,1.329900446323975527e-02,1.548393838547491332e-02,7.169487156543080664e-01
1.143999999999999809e+10,5.093452365177750067e-03,1.313911794787262638e-02,-7.166577957496446105e-01,1.380844737666553357e-02,1.409183016660516680e-02,7.167908128789692856e-01
1.152000000000000000e+10,6.649347794126487556e-03,1.082772569484837313e-02,-7.164217679102741210e-01,1.430172714042681620e-02,1.270643418942287231e-02,7.165645043782742363e-01
1.160000000000000000e+10,7.642179748233564329e-03,8.418762813296804676e-03,-7.161025407151621058e-01,1.469074885252136774e-02,1.137006941979073170e-02,7.162532142479769437e-01
1.168000000000000191e+10,7.907891173240012839e-03,5.742760987581321808e-03,-7.157389072072734004e-01,1.519226228360314769e-02,9.773128801376420802e-03,7.159001244053220248e-01
1.176000000000000000e+10,7.664711434486221574e-03,4.084074267271026529e-03,-7.152953774726681369e-01,1.556168768122157334e-02,8.684898617400736362e-03,7.154646344559979498e-01
1.184000000000000000e+10,7.043390247284553145e-03,2.340846602631571106e-03,-7.147916758090021583e-01,1.586032570566322727e-02,7.422190309645457229e-03,7.149676144674884659e-01
1.191999999999999809e+10,6.045813304441793531e-03,9.119157455711509458e-04,-7.140882777141198678e-01,1.592549885478182145e-02,6.114200588726705597e-03,7.142658397841041840e-01
1.200000000000000000e+10,5.085930452475364259e-03,7.087255564740789493e-05,-7.136536491291918249e-01,1.618749210264900512e-02,5.086424233836601104e-03,7.138372124062914992e-01
1.208000000000000000e+10,4.023287728125913253e-03,-4.428619176798133383e-04,-7.130556970660723026e-01,1.619389101371692535e-02,4.047588272220831347e-03,7.132395594921431270e-01
1.216000000000000000e+10,3.068605347180244046e-03,-6.029675241199642689e-04,-7.124687702675477352e-01,1.608879888741845260e-02,3.127284542840089426e-03,7.126504038139538366e-01
1.224000000000000191e+10,2.310717543019735407e-03,-4.981045079420765020e-04,-7.119175740448910883e-01,1.587535566844951868e-02,2.363794336326953058e-03,7.120945577320211273e-01
1.232000000000000000e+10,1.798202452011492085e-03,-2.370903366237587292e-04,-7.114254532738594206e-01,1.556382832169631025e-02,1.813765113276939647e-03,7.115956775570967396e-01
1.239999999999999809e+10,1.534845156900733251e-03,6.802158052859592994e-05,-7.110118143533321611e-01,1.517080412154101290e-02,1.536351714640643356e-03,7.111736450739097881e-01
1.247999999999999809e+10,1.482688584631855749e-03,3.198580304661682297e-04,-7.106900964616834626e-01,1.471730733351790839e-02,1.516797481093409535e-03,7.108424666154001814e-01
1.256000000000000000e+10,1.572674251914246441e-03,4.508397821885739730e-04,-7.104667652904453901e-01,1.422623655800468907e-02,1.636019807898998410e-03,7.106091825953793073e-01
1.264000000000000000e+10,1.720828190511242833e-03,4.320926187672492671e-04,-7.103415104927309764e-01,1.371971147432828747e-02,1.774247359431975566e-03,7.104739910876636255e-01
1.272000000000000000e+10,1.846470998749569822e-03,2.742347926494146824e-04,-7.103084902023508729e-01,1.321689954715186445e-02,1.866724369242203163e-03,7.104314447483182082e-01
1.280000000000000191e+10,1.888494298585846913e-03,2.008445545656272965e-05,-7.103582211174295225e-01,1.273269803330282120e-02,1.888601096352068853e-03,7.104723245196297166e-01
1.288000000000000000e+10,1.816305280601724628e-03,-2.688741184163167381e-04,-7.104796302133428165e-01,1.227738059829019089e-02,1.836098625862963001e-03,7.105857013917770137e-01
