# Frequency, Real(S21), Imag(S21), Real(S11), Imag(S11), Amp(S21), Amp(S11)
4.000000000000000000e+09,1.995595638001268493e-06,1.478937775516480833e-04,-7.187287199963479090e-01,7.068862188890098416e-03,1.479072406626760587e-04,7.187634810980829680e-01
4.080000000000000000e+09,1.152322524861064824e-06,1.509319740078819802e-04,-7.187211053363398161e-01,7.248311257311878739e-03,1.509363727705063908e-04,7.187576540614875054e-01
4.160000000000000477e+09,2.140237649367458087e-07,1.522653930962806850e-04,-7.187127616573105726e-01,7.431824905926020033e-03,1.522655435117769597e-04,7.187511848967697015e-01
4.240000000000000000e+09,3.352777490293112135e-09,1.522552183295076424e-04,-7.187156347443434123e-01,7.621548785633866681e-03,1.522552183664230188e-04,7.187560445880480930e-01
4.320000000000000000e+09,-1.580199429357371745e-06,1.510778089109197778e-04,-7.186933851755802349e-01,7.812619018840330151e-03,1.510860727385583235e-04,7.187358477988060601e-01
4.400000000000000000e+09,-2.286910751023653189e-06,1.496505511183762824e-04,-7.186820160469219454e-01,8.010871703641736161e-03,1.496680240091947695e-04,7.187266617113354794e-01
4.480000000000000000e+09,2.865009775331379027e-05,1.470873242379794386e-04,-7.186692177893484468e-01,8.215172395533227451e-03,1.498516234572149441e-04,7.187161704424370745e-01
4.560000000000000000e+09,-3.220949071126571887e-06,1.480332715176350868e-04,-7.186546613451320065e-01,8.426290504635291362e-03,1.480683085239129122e-04,7.187040591542215306e-01
4.640000000000000000e+09,-3.539432316772317297e-06,1.486427499647186273e-04,-7.186378909319666164e-01,8.645167197301959969e-03,1.486848838927443714e-04,7.186898894509470281e-01
4.720000000000000000e+09,-3.875447722630280061e-06,1.503973225807549987e-04,-7.186182479125302613e-01,8.872962926335515102e-03,1.504472456860228547e-04,7.186730241938728003e-01
4.800000000000000000e+09,-4.335107036056779067e-06,1.531940615709490743e-04,-7.185947291443320895e-01,9.111109047658589796e-03,1.532553870296825900e-04,7.186524869936055104e-01
4.880000000000000000e+09,-5.018831543846531386e-06,1.567714657379929517e-04,-7.185657149056724480e-01,9.361317887341439117e-03,1.568517807986386957e-04,7.186266909254679369e-01
4.960000000000000000e+09,-6.006677992207479257e-06,1.607654777104021839e-04,-7.185285035557610334e-01,9.625355042608993092e-03,1.608776522825836302e-04,7.185929709381921882e-01
5.040000000000000000e+09,-7.347454575918557711e-06,1.647641828347515670e-04,-7.184789754319158561e-01,9.904158250965211865e-03,1.649279267860619992e-04,7.185472360870618358e-01
5.120000000000000000e+09,-9.053249792264283789e-06,1.683448794735881800e-04,-7.184124189525814552e-01,1.019671331418139926e-02,1.685881365244247196e-04,7.184847783131602661e-01
5.200000000000000000e+09,-1.110570208779289471e-05,1.710810188677543478e-04,-7.183249939977059961e-01,1.050032424241945789e-02,1.714411025270536743e-04,7.184017356681429156e-01
5.280000000000000000e+09,-1.348508723923000740e-05,1.725180601488659538e-04,-7.182140756980559537e-01,1.081167395849112756e-02,1.730442968010716402e-04,7.182954481441445882e-01
5.360000000000000000e+09,-1.623006948431063461e-05,1.721304019453023663e-04,-7.180779213733999855e-01,1.112735575901092899e-02,1.728938704214724471e-04,7.181641311080151358e-01
5.440000000000000000e+09,-1.953014853056582825e-05,1.692770514597881576e-04,-7.179153899576770081e-01,1.144399879860234608e-02,1.703999614217847468e-04,7.180065962416960490e-01
5.520000000000000000e+09,-2.139646595488255750e-05,1.643199528970721852e-04,-7.177745692621405604e-01,1.177073123886005108e-02,1.657071382754963498e-04,7.178710764429424573e-01
5.600000000000000000e+09,-3.006848418426585272e-05,1.529260549941976511e-04,-7.175088163721118351e-01,1.206691133487802076e-02,1.558540728926511188e-04,7.176102785780543725e-01
5.680000000000000000e+09,-3.965139246693482277e-05,1.375743162967951055e-04,-7.172644876087158616e-01,1.236664292869520294e-02,1.431744580192204595e-04,7.173710887970879968e-01
5.760000000000000000e+09,-5.478671247815592761e-05,1.162835718578462984e-04,-7.169931506721372028e-01,1.265425292467468009e-02,1.285435838468145149e-04,7.171048097927106291e-01
5.840000000000000954e+09,-7.850905337241921274e-05,8.857221516198343647e-05,-7.166954598356195527e-01,1.292655603124766989e-02,1.183583911690846529e-04,7.168120241735758125e-01
5.920000000000000000e+09,-1.147499074437201370e-04,5.465030656852322595e-05,-7.163723763504560305e-01,1.318041041678683425e-02,1.270991631222484128e-04,7.164936181270245008e-01
6.000000000000000000e+09,-1.682879846474626150e-04,1.583331439938272413e-05,-7.160251698010067223e-01,1.341272894971662702e-02,1.690311794361451839e-04,7.161507837644521812e-01
6.080000000000000000e+09,-2.445606154965345477e-04,-2.499040486771268211e-05,-7.156554224353485205e-01,1.362049359233396401e-02,2.458341208772614386e-04,7.157850246455397247e-01
6.160000000000000000e+09,-2.910817383440875302e-04,-6.862690689734795278e-05,-7.152650357976770845e-01,1.380077311303662228e-02,2.990622522949245394e-04,7.153981638033255486e-01
6.239999999999999046e+09,-4.879817085995179996e-04,-9.039602201651889078e-05,-7.148562391717142583e-01,1.395074463302865136e-02,4.962837784212938185e-04,7.149923537762785664e-01
6.320000000000000000e+09,-6.650332582602189700e-04,-9.728699674659382120e-05,-7.144315992472753951e-01,1.406771981006059262e-02,6.721115936570168587e-04,7.145700880555201362e-01
6.400000000000000954e+09,-8.828782795823337647e-04,-7.033888025700842789e-05,-7.139940301693028513e-01,1.414917661556718692e-02,8.856757954432713026e-04,7.141342130974412949e-01
6.480000000000000000e+09,-1.140782688062525916e-03,6.477538136214801290e-06,-7.135468027432126936e-01,1.419279785369827879e-02,1.140801078139159304e-03,7.136879396598888592e-01
6.560000000000000000e+09,-1.433606670044998248e-03,1.515075070404737871e-04,-7.130935510402557354e-01,1.419651736024649634e-02,1.441590305560885594e-03,7.132348516725480758e-01
6.640000000000000000e+09,-1.750544902698117789e-03,3.844783787983079883e-04,-7.126382740976509034e-01,1.415857461878738954e-02,1.792269812312236119e-03,7.127789102829252821e-01
6.720000000000000000e+09,-2.079368103312007662e-03,7.347001319785331601e-04,-7.121619146872866235e-01,1.410949975206421576e-02,2.205347136620593174e-03,7.123016711438459048e-01
6.799999999999999046e+09,-2.381357542252556404e-03,1.189157325338702741e-03,-7.117505884737514998e-01,1.395313498804395119e-02,2.661758608223110945e-03,7.118873437340532684e-01
6.880000000000000000e+09,-2.631164580933236050e-03,1.795728320412335894e-03,-7.113055486035646524e-01,1.378313296114344610e-02,3.185540339202830046e-03,7.114390755563280155e-01
6.960000000000000954e+09,-2.790353993781963596e-03,2.545341121895866240e-03,-7.108889921484597973e-01,1.356941332439099215e-02,3.776881893497473653e-03,7.110184864937205695e-01
7.039999999999999046e+09,-2.808283399069142709e-03,3.435874076364658740e-03,-7.104952099039518743e-01,1.331225726109157639e-02,4.437531556859290217e-03,7.106199121118449424e-01
7.120000000000000000e+09,-2.632381834504641648e-03,4.450044702635510760e-03,-7.101297610784846892e-01,1.301325587641585270e-02,5.170331902120442816e-03,7.102489861998332321e-01
7.200000000000000000e+09,-2.208663962374536431e-03,5.554501978364391121e-03,-7.097981876139756174e-01,1.267481103173022546e-02,5.977515263581175201e-03,7.099113451514735829e-01
7.280000000000000000e+09,-1.486124155588980627e-03,6.697676843498017590e-03,-7.095058779491436596e-01,1.230017565100422622e-02,6.860571412481224728e-03,7.096124894373200265e-01
7.359999999999999046e+09,-4.222310132477332225e-04,7.808696186169906267e-03,-7.092579137846696247e-01,1.189346724287495584e-02,7.820103270191043274e-03,7.093576268915695593e-01
7.440000000000000000e+09,1.086305578424024906e-03,8.756956969637590474e-03,-7.089304683279412655e-01,1.151994455709216651e-02,8.824078148894621415e-03,7.090240602731846531e-01
7.520000000000000000e+09,2.818482579043180350e-03,9.558750034373026533e-03,-7.089128293109114853e-01,1.100447146517730644e-02,9.965618208018819923e-03,7.089982355082622423e-01
7.599999999999999046e+09,4.978330525234211587e-03,9.973444938159204548e-03,-7.088228620515755196e-01,1.053438129882263742e-02,1.114689996155757146e-02,7.089011376463828507e-01
7.680000000000000000e+09,7.432460281451828098e-03,9.919255744588496848e-03,-7.087912476958407870e-01,1.005638465737941113e-02,1.239488202291215424e-02,7.088625844848942537e-01
7.760000000000000954e+09,1.008358509670128147e-02,9.278871585955202062e-03,-7.088191823317870899e-01,9.577883727447427525e-03,1.370314366527122796e-02,7.088838897155159691e-01
7.840000000000000000e+09,1.279289776625868250e-02,7.952594703584279709e-03,-7.089067404255749993e-01,9.106485776145324326e-03,1.506326643784219703e-02,7.089652281346418006e-01
7.919999999999999046e+09,1.538173879092740587e-02,5.872457985746178458e-03,-7.090528436932046485e-01,8.649797934634658597e-03,1.646461815611510032e-02,7.091056015529211276e-01
8.000000000000000000e+09,1.763793857018333341e-02,3.017170338942500810e-03,-7.092552759642209992e-01,8.215218929839913226e-03,1.789413853360243001e-02,7.093028523170821220e-01
8.080000000000000000e+09,1.932763250668245725e-02,-5.735927839140954679e-04,-7.095107431316193258e-01,7.809739919240151450e-03,1.933614198838865331e-02,7.095537235874312953e-01
8.159999999999999046e+09,2.021292805931329539e-02,-4.787522187537750738e-03,-7.098149736730391401e-01,7.439765391021151315e-03,2.077216477469647285e-02,7.098539617129220325e-01
8.240000000000000000e+09,2.007512374195109806e-02,-9.433007197927400361e-03,-7.101628524909343598e-01,7.110963085437205580e-03,2.218089759344284845e-02,7.101984531481767560e-01
8.320000000000000954e+09,1.874221967385139576e-02,-1.424004230783964403e-02,-7.105485789207552916e-01,6.828149108747278047e-03,2.353825828798650557e-02,7.105813863496257543e-01
8.400000000000000000e+09,1.611825669467221306e-02,-1.887109947459485182e-02,-7.109658389774539122e-01,6.595211442643337911e-03,2.481766697849335790e-02,7.109964282659148038e-01
8.480000000000000000e+09,1.221072100794490939e-02,-2.294359883624454491e-02,-7.114079821938908976e-01,6.415072234835700327e-03,2.599058358506767252e-02,7.114369053408471366e-01
8.560000000000000000e+09,7.151136481557417851e-03,-2.606413010905839905e-02,-7.118681943850023730e-01,6.289687057518407107e-03,2.702734969100348272e-02,7.118959800000594917e-01
8.640000000000000000e+09,1.203457664402822046e-03,-2.787237277392101351e-02,-7.123396589685139224e-01,6.220077895246334601e-03,2.789834178581987456e-02,7.123668149966011498e-01
8.720000000000000000e+09,-5.296402428619193491e-03,-2.810279552801388248e-02,-7.128142325314634764e-01,6.213830060440712379e-03,2.859753477443886804e-02,7.128413159907605046e-01
8.800000000000000000e+09,-1.170975081918894725e-02,-2.656725076203408226e-02,-7.132899070016222032e-01,6.248007522801604825e-03,2.903337867524716578e-02,7.133172709449756566e-01
8.880000000000000000e+09,-1.766121683902440245e-02,-2.331845896743824087e-02,-7.137562211358775555e-01,6.343604316617880434e-03,2.925182231675729425e-02,7.137844103970704124e-01
8.959999999999998093e+09,-2.258196685091936468e-02,-1.853774897346513809e-02,-7.142090050116211009e-01,6.491321241253369262e-03,2.921632016286837205e-02,7.142385036464689030e-01
9.040000000000000000e+09,-2.603568036967453606e-02,-1.258918990704244872e-02,-7.146430660728680939e-01,6.688865517090990254e-03,2.891961885688391215e-02,7.146743683720128137e-01
9.120000000000000000e+09,-2.772674040689713376e-02,-5.970093530384850723e-03,-7.150536471503858849e-01,6.933641808058790823e-03,2.836219579568911506e-02,7.150872629908820999e-01
9.200000000000000000e+09,-2.757801554077709411e-02,7.016498338298722721e-04,-7.154363783831360069e-01,7.222865665010500848e-03,2.758693991106401025e-02,7.154728375713452770e-01
9.280000000000000000e+09,-2.556687298138707667e-02,6.990522568546749492e-03,-7.157871933328430192e-01,7.553654248841544516e-03,2.650532776306948474e-02,7.158270488266141873e-01
9.360000000000000000e+09,-2.207022545161933802e-02,1.225225792156768925e-02,-7.161022140276036563e-01,7.923083578026252766e-03,2.524307183490005074e-02,7.161460438965088215e-01
9.440000000000000000e+09,-1.746558487957965144e-02,1.615626856345728571e-02,-7.163776121971501265e-01,8.328202150547820565e-03,2.379226069713341607e-02,7.164260200525598421e-01
9.520000000000000000e+09,-1.225228659846715716e-02,1.849268684581842348e-02,-7.166094562513445343e-01,8.765991468968406530e-03,2.218328185072000747e-02,7.166630696465959849e-01
9.600000000000000000e+09,-6.949806947968803494e-03,1.923157083675107459e-02,-7.167935556893897386e-01,9.233264575836239510e-03,2.044879295858339704e-02,7.168530216526716181e-01
9.680000000000000000e+09,-2.035023835084822860e-03,1.851094903610626952e-02,-7.169253175157997982e-01,9.726493423211187567e-03,1.862247449257715959e-02,7.169912939286237075e-01
9.760000000000000000e+09,2.108908209433877842e-03,1.660458549756358565e-02,-7.169996339088569037e-01,1.024155563285508892e-02,1.673797339529838404e-02,7.170727748891431164e-01
9.840000000000000000e+09,5.226680510360061545e-03,1.387637647818889403e-02,-7.170108280773643816e-01,1.077339125386500215e-02,1.482808191647900717e-02,7.170917608920748254e-01
9.920000000000000000e+09,7.205890185677320259e-03,1.072892118442488746e-02,-7.169526972625529515e-01,1.131556347190225409e-02,1.292418675002964673e-02,7.170419876748757027e-01
1.000000000000000000e+10,8.073773912835481917e-03,7.553147803754201722e-03,-7.168187081744028522e-01,1.185972692602270395e-02,1.105603305625212432e-02,7.169168107330022854e-01
1.008000000000000000e+10,7.978285872610367535e-03,4.684470738521144886e-03,-7.166024192434397033e-01,1.239502918512794261e-02,9.251881514867936473e-03,7.167096092658802320e-01
1.016000000000000000e+10,7.157243159370121899e-03,2.369327467746932397e-03,-7.162982200464617089e-01,1.290751163516362134e-02,7.539220270808546717e-03,7.164145056448405491e-01
1.024000000000000000e+10,5.899628059372817937e-03,7.444830444227343649e-04,-7.159024779477087819e-01,1.337964148741315785e-02,5.946416252027100086e-03,7.160274944008794273e-01
1.032000000000000000e+10,4.524623577630736831e-03,-2.082608923486299266e-04,-7.153986874022840725e-01,1.382746169256088634e-02,4.529413992839892260e-03,7.155323057932256869e-01
1.040000000000000000e+10,3.232132482493100135e-03,-4.606503105039662371e-04,-7.148417496528949311e-01,1.411481120780801526e-02,3.264793882154647282e-03,7.149810871220609876e-01
1.048000000000000000e+10,2.280431131964518604e-03,-3.019865339879568983e-04,-7.141955584489605435e-01,1.432756160984128939e-02,2.300339543272478422e-03,7.143392574469825673e-01
1.056000000000000000e+10,1.744434617688605561e-03,8.376966246187726901e-05,-7.134992704580076506e-01,1.440382780528726842e-02,1.746444814971079545e-03,7.136446449035777073e-01
1.064000000000000000e+10,1.612528935108200733e-03,4.707279319643185378e-04,-7.127855005725445281e-01,1.432439870812339533e-02,1.679831644091928566e-03,7.129294202267164593e-01
1.072000000000000000e+10,1.776171210420798841e-03,6.783528888607392570e-04,-7.120951304731529818e-01,1.408015093680463174e-02,1.901301346592221709e-03,7.122343192334809059e-01
1.080000000000000000e+10,2.064110651746273346e-03,6.111862578354807212e-04,-7.114730996244023054e-01,1.367600179859881915e-02,2.152696314954657790e-03,7.116045281716172344e-01
1.088000000000000000e+10,2.293889444520026168e-03,2.769225072200085370e-04,-7.109621387558060501e-01,1.313253544147744561e-02,2.310544277585999638e-03,7.110834172102113993e-01
1.096000000000000000e+10,2.345879296653768757e-03,-1.958094372028401425e-04,-7.105960492056513367e-01,1.248419386343460093e-02,2.354037172639054324e-03,7.107057057904490049e-01
1.104000000000000000e+10,2.106096166884975900e-03,-7.461140735610885142e-04,-7.103946723924352558e-01,1.177419583617013779e-02,2.234351645317609984e-03,7.104922394024749677e-01
1.112000000000000191e+10,1.670181843478743197e-03,-1.138571221764680518e-03,-7.103621656805303441e-01,1.104774727506547052e-02,2.021349009279884562e-03,7.104480692845798195e-01
1.120000000000000000e+10,1.127573770264351204e-03,-1.310310935675301856e-03,-7.104888182963235987e-01,1.034575758315359195e-02,1.728680813666435244e-03,7.105641389938530672e-01
1.128000000000000000e+10,6.127655101969609920e-04,-1.249722730533907224e-03,-7.107552469251560145e-01,9.700806109050198744e-03,1.391865106143575642e-03,7.108214449992380501e-01
1.135999999999999809e+10,2.344727104525140397e-04,-1.021898030309328865e-03,-7.111371723457868832e-01,9.135920337085927379e-03,1.048452686723170364e-03,7.111958541304687076e-01
1.143999999999999809e+10,3.763936721390859653e-05,-7.352548800554732297e-04,-7.116092459018357186e-01,8.665583112473351085e-03,7.362176720302574537e-04,7.116620062808316494e-01
1.152000000000000000e+10,-5.874200286862539576e-06,-4.924652436671163053e-04,-7.121471917439010646e-01,8.297777567127932394e-03,4.925002765980161833e-04,7.121955320144026658e-01
1.160000000000000000e+10,2.699848754377941109e-05,-3.470897185500974305e-04,-7.127283922324932908e-01,8.035879791494233981e-03,3.481381781029444541e-04,7.127736923163888738e-01
1.168000000000000191e+10,5.751044784771351388e-05,-2.881112506003860574e-04,-7.133316619847147599e-01,7.879672901681965963e-03,2.937950720045573341e-04,7.133751812580199081e-01
1.176000000000000000e+10,4.868378071800136394e-05,-2.621939304263054202e-04,-7.139371384934060094e-01,7.825469578983662924e-03,2.666753975480166592e-04,7.139800247165772884e-01
1.184000000000000000e+10,1.765987343579911162e-05,-2.199689472865753721e-04,-7.145268633074611797e-01,7.865973590431963799e-03,2.206767067457111886e-04,7.145701588567245910e-01
1.191999999999999809e+10,8.828660764046564191e-06,-1.538667439641719045e-04,-7.150859032257474990e-01,7.990678881489122337e-03,1.541198239975073584e-04,7.151305474814861896e-01
1.200000000000000000e+10,3.061849716622700476e-04,-5.201670894515624042e-05,-7.156032824038869311e-01,8.187139605986449784e-03,3.105720123921506810e-04,7.156501149599188150e-01
1.208000000000000000e+10,1.203792183010391858e-04,-1.066313712324207155e-04,-7.160720221147816034e-01,8.442725912811931827e-03,1.608148175065829183e-04,7.161217916502689018e-01
1.216000000000000000e+10,1.668559843211823567e-04,-1.905008632832312187e-04,-7.164881245851286717e-01,8.746095129773976892e-03,2.532419760139440054e-04,7.165415039280934595e-01
1.224000000000000191e+10,1.319464419734360668e-04,-3.195946004089606982e-04,-7.168488901679677117e-01,9.087737814098705361e-03,3.457608597860847995e-04,7.169064920292079757e-01
1.232000000000000000e+10,-2.098008356181311172e-04,-4.071456067820374632e-04,-7.171512151067210850e-01,9.459310811883434034e-03,4.580217633999278783e-04,7.172135971174015134e-01
1.239999999999999809e+10,-2.035426397032885745e-04,-4.412906730999378727e-04,-7.173906101857858708e-01,9.851764898335071963e-03,4.859702298931272780e-04,7.174582530393989188e-01
1.247999999999999809e+10,-3.937165906732694202e-04,-3.423798528589828949e-04,-7.175618561730031653e-01,1.025263364717674507e-02,5.217630855236134310e-04,7.176350980346131170e-01
1.256000000000000000e+10,-5.021682735751320514e-04,-1.634704593252078383e-04,-7.176622929147216112e-01,1.064372445298172008e-02,5.281056391077671016e-04,7.177412176696045254e-01
1.264000000000000000e+10,-5.041029543014870955e-04,2.185168012619214566e-05,-7.176976924389688595e-01,1.100189089449549358e-02,5.045763415577711767e-04,7.177820138004818995e-01
1.272000000000000000e+10,-4.336802197586845926e-04,1.510401851992057608e-04,-7.176874193645198519e-01,1.130573194423544793e-02,4.592294312813055535e-04,7.177764634542561639e-01
1.280000000000000191e+10,-3.494159491641691379e-04,2.112892656909405782e-04,-7.176625012693141903e-01,1.154664940281636271e-02,4.083315556340387834e-04,7.177553837071234399e-01
1.288000000000000000e+10,-2.860641761205960708e-04,2.298585124588542353e-04,-7.176540474692716387e-01,1.173571868858381412e-02,3.669709097590061848e-04,7.177499975215361205e-01
