# Frequency, Real(S21), Imag(S21), Real(S11), Imag(S11), Amp(S21), Amp(S11)
4.000000000000000000e+09,2.085884227192725523e-05,1.464326365633241030e-04,-7.187378752173091412e-01,6.945784253122836913e-03,1.479108121531746121e-04,7.187714359869784575e-01
4.080000000000000000e+09,1.741724751296596511e-06,1.488282923955789596e-04,-7.187316617193794110e-01,7.114201904681928881e-03,1.488384836743952811e-04,7.187668700118565734e-01
4.160000000000000477e+09,1.077097304224762513e-06,1.500671938515268564e-04,-7.187249717755238576e-01,7.285491734135975811e-03,1.500710591988825516e-04,7.187618962100980058e-01
4.240000000000000000e+09,4.254850509580342566e-07,1.498655175290666418e-04,-7.187177463075166139e-01,7.459854009388584666e-03,1.498661215277941668e-04,7.187564596434575792e-01
4.320000000000000000e+09,-1.390200515099636601e-07,1.487202381688026043e-04,-7.187099151163589550e-01,7.637520018908829436e-03,1.487203031450652017e-04,7.187504948162491969e-01
4.400000000000000000e+09,4.415912179227932083e-07,1.473656284618837125e-04,-7.187139646151001759e-01,7.820371069448427484e-03,1.473662900895917097e-04,7.187565103262851807e-01
4.480000000000000000e+09,2.264402687989128973e-05,1.467375473148583393e-04,-7.186920805931118483e-01,8.003886077202336524e-03,1.484744413874574287e-04,7.187366478061298913e-01
4.560000000000000000e+09,9.254734994633663844e-08,1.458061171574937280e-04,-7.186928417576824435e-01,8.194978515350646170e-03,1.458061465287275530e-04,7.187395623357601959e-01
4.640000000000000000e+09,-9.723316752718177565e-07,1.463943563656966581e-04,-7.186705430625774937e-01,8.387348853345336433e-03,1.463975853783569948e-04,7.187194842820443519e-01
4.720000000000000000e+09,-9.746458245519039587e-07,1.483369553211117927e-04,-7.186579623326865285e-01,8.586634291159401383e-03,1.483401572347179277e-04,7.187092577062154097e-01
4.800000000000000000e+09,-1.035166126834379122e-06,1.514160385056820973e-04,-7.186438478156200738e-01,8.791737934616055544e-03,1.514195769564304073e-04,7.186976239414953893e-01
4.880000000000000000e+09,-1.230844687442871743e-06,1.553936904733257398e-04,-7.186278537167514191e-01,9.003389185739476414e-03,1.553985650434532484e-04,7.186842513610373073e-01
4.960000000000000000e+09,-1.624241847291612183e-06,1.599404355809226120e-04,-7.186095038188374806e-01,9.222464584074456864e-03,1.599486826935243866e-04,7.186686808479691990e-01
5.040000000000000000e+09,-2.257849956897108858e-06,1.646975766521978606e-04,-7.185881161139375806e-01,9.450020799813031724e-03,1.647130524322054212e-04,7.186502511745854749e-01
5.120000000000000000e+09,-3.153263550973787266e-06,1.693295539391561190e-04,-7.185626683069825660e-01,9.687319422021648321e-03,1.693589115111911658e-04,7.186279652518644534e-01
5.200000000000000000e+09,-4.314199787780636887e-06,1.735593531148628128e-04,-7.185315605925796101e-01,9.935788428261494928e-03,1.736129643012252865e-04,7.186002528939849920e-01
5.280000000000000000e+09,-5.731268112164171954e-06,1.771836073003159122e-04,-7.184922792612068454e-01,1.019674897899697751e-02,1.772762762755526484e-04,7.185646310859620245e-01
5.360000000000000000e+09,-7.386419875804795980e-06,1.800673222571178911e-04,-7.184412977797931532e-01,1.047069280831561255e-02,1.802187552488098636e-04,7.185175946094845001e-01
5.440000000000000000e+09,-9.256677831880430162e-06,1.821190384677835738e-04,-7.183748080760280486e-01,1.075659923471143468e-02,1.823541341919981398e-04,7.184553356370640964e-01
5.520000000000000000e+09,-1.132124078353164822e-05,1.832490265042553267e-04,-7.182896972545754766e-01,1.105222922097355218e-02,1.835984101446305381e-04,7.183747218219908026e-01
5.600000000000000000e+09,-1.357896101704914344e-05,1.833175398785979700e-04,-7.181837673703237446e-01,1.135485553361882671e-02,1.838197720851701537e-04,7.182735248207472445e-01
5.680000000000000000e+09,-1.608186731831748442e-05,1.820838080209374703e-04,-7.180555184974231064e-01,1.166165434748610286e-02,1.827926136359168540e-04,7.181502084012253428e-01
5.760000000000000000e+09,-1.898730826856852874e-05,1.791667792591592064e-04,-7.179039441028846058e-01,1.196982030333625970e-02,1.801700659526602214e-04,7.180037253082827142e-01
5.840000000000000954e+09,-2.262920727035414915e-05,1.740276185130249962e-04,-7.177284102083842932e-01,1.227658725755860492e-02,1.754927150254380482e-04,7.178333966979714154e-01
5.920000000000000000e+09,-2.760584281861104886e-05,1.659831294250555520e-04,-7.175285890916190956e-01,1.257922662256062175e-02,1.682631326567427259e-04,7.176388458732089193e-01
6.000000000000000000e+09,-3.521037979729216402e-05,1.552656678230796038e-04,-7.174523575647228091e-01,1.289266740092162231e-02,1.592080351301920066e-04,7.175681892669780737e-01
6.080000000000000000e+09,-4.587181365376267399e-05,1.380831713197532235e-04,-7.170561008902341937e-01,1.316137300029424084e-02,1.455032147054004103e-04,7.171768774599182050e-01
6.160000000000000000e+09,-6.256185369685082721e-05,1.168418032223344035e-04,-7.167840518357958546e-01,1.343558352353009348e-02,1.325367591207544222e-04,7.169099607836110222e-01
6.239999999999999046e+09,-8.753663142075176779e-05,9.026790262030190111e-05,-7.164889341957419999e-01,1.369507638790693795e-02,1.257416243093783517e-04,7.166198071098934808e-01
6.320000000000000000e+09,-1.240085414679050141e-04,5.868956221072619563e-05,-7.161716362227054100e-01,1.393729182111844850e-02,1.371954192729619472e-04,7.163072389926086192e-01
6.400000000000000954e+09,-1.757591118058817684e-04,2.330977059641457992e-05,-7.158332767026710508e-01,1.415971511612567138e-02,1.772980845583220640e-04,7.159733078593452094e-01
6.480000000000000000e+09,-2.469955273939249889e-04,-1.348814864074837470e-05,-7.154752086390775423e-01,1.435988508846650601e-02,2.473635395654704382e-04,7.156192985637583881e-01
6.560000000000000000e+09,-3.491866815674318607e-04,-3.498362012197185297e-05,-7.151700465100839788e-01,1.437466309342068718e-02,3.509347407437934095e-04,7.153144947254215236e-01
6.640000000000000000e+09,-4.652744336651353819e-04,-7.414459225589390464e-05,-7.147065665340649465e-01,1.468395718122652606e-02,4.711451147822772866e-04,7.148573947616487789e-01
6.720000000000000000e+09,-6.200284096795253370e-04,-8.482220621903947995e-05,-7.142999300567458576e-01,1.480331981385679500e-02,6.258035118770000679e-04,7.144533073312652194e-01
6.799999999999999046e+09,-8.085954294925151806e-04,-7.025890851062460436e-05,-7.138814781574772672e-01,1.489139051117812154e-02,8.116420903460401168e-04,7.140367766212473155e-01
6.880000000000000000e+09,-1.031214734044533189e-03,-1.884377383930247417e-05,-7.134538475828475779e-01,1.494621354881355869e-02,1.031386889349987773e-03,7.136103852454894758e-01
6.960000000000000954e+09,-1.285358704024893188e-03,8.277321061585804843e-05,-7.130199559809236032e-01,1.496601358129815221e-02,1.288021118774148807e-03,7.131770041087652778e-01
7.039999999999999046e+09,-1.564936662316936816e-03,2.491911778699635021e-04,-7.125830050066369603e-01,1.494923543231234213e-02,1.584652327859929722e-03,7.127397973063518410e-01
7.120000000000000000e+09,-1.859539679412125848e-03,4.955018832875201368e-04,-7.121464779935151590e-01,1.489458989287050644e-02,1.924424572605959926e-03,7.123022216213038549e-01
7.200000000000000000e+09,-2.153802571692810947e-03,8.362504143636924174e-04,-7.117141301137857035e-01,1.480110502740512868e-02,2.310450231741426746e-03,7.118680184652594889e-01
7.280000000000000000e+09,-2.426970904702765476e-03,1.284115987244425269e-03,-7.112899689655687308e-01,1.466818169210324339e-02,2.745749741140019601e-03,7.114411960978870297e-01
7.359999999999999046e+09,-2.652767879484293871e-03,1.848339916845306331e-03,-7.108782236401068877e-01,1.449565155659683982e-02,3.233193138466570332e-03,7.110260000589037066e-01
7.440000000000000000e+09,-2.799657745999026975e-03,2.532955851161241244e-03,-7.104833006206380253e-01,1.428383505485989954e-02,3.775440217863914108e-03,7.106268700272106997e-01
7.520000000000000000e+09,-2.831596691368644652e-03,3.334908379932988425e-03,-7.101097254100551259e-01,1.403359616428049260e-02,4.374877566871685983e-03,7.102483818659821591e-01
7.599999999999999046e+09,-2.709348247017312299e-03,4.242178423282450851e-03,-7.097620695287567560e-01,1.374639041043002399e-02,5.033551996212909732e-03,7.098951743680609328e-01
7.680000000000000000e+09,-2.392416612254639422e-03,5.232065256539471243e-03,-7.094448634785608387e-01,1.342430205548784949e-02,5.753100389814122528e-03,7.095718611964476619e-01
7.760000000000000954e+09,-1.841617502920479604e-03,6.269803756109263750e-03,-7.091624973819395938e-01,1.307006650494437275e-02,6.534676286334686543e-03,7.092829296771727687e-01
7.840000000000000000e+09,-1.022261455078097171e-03,7.307718107762474664e-03,-7.089191121789858441e-01,1.268707407865309923e-02,7.378872706928745438e-03,7.090326293347286590e-01
7.919999999999999046e+09,9.213078857145496161e-05,8.285127220610368284e-03,-7.087184855067344413e-01,1.227935204927185601e-02,8.285639452927075210e-03,7.088248543792107226e-01
8.000000000000000000e+09,1.515726476369509603e-03,9.129218874812872891e-03,-7.085639172393310981e-01,1.185152275025839856e-02,9.254191699733000862e-03,7.086630252842641697e-01
8.080000000000000000e+09,3.246112295331133463e-03,9.757094441938087698e-03,-7.084581206814368759e-01,1.140873708040263459e-02,1.028290508478995301e-02,7.085499756836091123e-01
8.159999999999999046e+09,5.260158376914061615e-03,1.007915081920665069e-02,-7.084031254283443824e-01,1.095658423117673065e-02,1.136919290831733993e-02,7.084878508871281788e-01
8.240000000000000000e+09,7.510395833261473281e-03,1.000390420820853297e-02,-7.084001979203868871e-01,1.050098027222981685e-02,1.250936229307008686e-02,7.084780243594864801e-01
8.320000000000000954e+09,9.922365532311090003e-03,9.444267861775133138e-03,-7.084497849081170529e-01,1.004803992604937947e-02,1.369845002917314744e-02,7.085210376853412484e-01
8.400000000000000000e+09,1.239345810756976515e-02,8.325167063990024721e-03,-7.085514837487213446e-01,9.603937308409806264e-03,1.493004388832903061e-02,7.086165682047932401e-01
8.480000000000000000e+09,1.479379987298278312e-02,6.592206733566509380e-03,-7.087040417942095383e-01,9.174762426985269559e-03,1.619610151548652940e-02,7.087634267659699283e-01
8.560000000000000000e+09,1.696972682602172766e-02,4.220900044507720945e-03,-7.089053851174874632e-01,8.766380652308336519e-03,1.748678431660683277e-02,7.089595859273745138e-01
8.640000000000000000e+09,1.867221274954236621e-02,1.388419576025171683e-03,-7.091457769686118073e-01,8.298970305828825070e-03,1.872376131772840110e-02,7.091943357786729685e-01
8.720000000000000000e+09,1.995719522568843024e-02,-2.331948828145096256e-03,-7.094423872542034992e-01,8.033567729030164500e-03,2.009297455861944540e-02,7.094878709628517077e-01
8.800000000000000000e+09,2.041779540547795230e-02,-6.338341181861269040e-03,-7.097704132312135927e-01,7.718655308147260793e-03,2.137898356231266589e-02,7.098123816461456848e-01
8.880000000000000000e+09,1.998128717274082547e-02,-1.062539396964271715e-02,-7.101321698709767150e-01,7.443411235413837333e-03,2.263074974652092355e-02,7.101711787002350507e-01
8.959999999999998093e+09,1.853648710659579202e-02,-1.497402753379781064e-02,-7.105227189611736938e-01,7.211006783485289506e-03,2.382903386283059116e-02,7.105593098248804695e-01
9.040000000000000000e+09,1.602989010598694988e-02,-1.912356742841153645e-02,-7.109368855070343773e-01,7.023920067952984722e-03,2.495332058061653854e-02,7.109715821518910461e-01
9.120000000000000000e+09,1.248160931341957269e-02,-2.278792736884859352e-02,-7.113693709825993361e-01,6.883941345895573660e-03,2.598230561017942156e-02,7.114026782495500578e-01
9.200000000000000000e+09,7.996500530468931070e-03,-2.567821262582666367e-02,-7.118148567897436552e-01,6.792198835434731102e-03,2.689450918665283602e-02,7.118472619260562961e-01
9.280000000000000000e+09,2.767702059230348847e-03,-2.753023110657958766e-02,-7.122680945155761556e-01,6.749201541789850642e-03,2.766900430934135166e-02,7.123000703259135813e-01
9.360000000000000000e+09,-2.929672242530675583e-03,-2.813411078405685800e-02,-7.127239805963413444e-01,6.754895347630894900e-03,2.828623638906807916e-02,7.127559898929306526e-01
9.440000000000000000e+09,-8.755789527364660554e-03,-2.736212006487502568e-02,-7.131776138287553302e-01,6.808728598091303048e-03,2.872889598804912598e-02,7.132101146587868090e-01
9.520000000000000000e+09,-1.433367727973306263e-02,-2.519023147494534737e-02,-7.136243347780147905e-01,6.909723602634187771e-03,2.898278913632818671e-02,7.136577859644136490e-01
9.600000000000000000e+09,-1.928449540886835803e-02,-2.170927133936158618e-02,-7.140597464858791099e-01,7.056550428017000290e-03,2.903763463611819945e-02,7.140946130978871320e-01
9.680000000000000000e+09,-2.326606943152703666e-02,-1.712278404562284431e-02,-7.144797162068713403e-01,7.247599457421639163e-03,2.888770880955554565e-02,7.145164746658726473e-01
9.760000000000000000e+09,-2.600917440730791952e-02,-1.173084806379074904e-02,-7.148803581878732105e-01,7.481048807710405195e-03,2.853226155854990051e-02,7.149195007929810552e-01
9.840000000000000000e+09,-2.733665954884425750e-02,-5.734084987032797912e-03,-7.152579980087068190e-01,7.754922428915483890e-03,2.793157149048246593e-02,7.153000367239622515e-01
9.920000000000000000e+09,-2.722710153798474364e-02,-3.411365043915056891e-05,-7.156091195952148931e-01,8.067134383723865293e-03,2.722712290898319371e-02,7.156545889638407099e-01
1.000000000000000000e+10,-2.572289630683170097e-02,5.481121705316754043e-03,-7.159302969074859968e-01,8.415514377128402099e-03,2.630038192803500763e-02,7.159797559374655451e-01
1.008000000000000000e+10,-2.301291758852320318e-02,1.029998472605851700e-02,-7.162181132321320254e-01,8.797809435381767282e-03,2.521277575542207883e-02,7.162721460259754425e-01
1.016000000000000000e+10,-1.936237292311685301e-02,1.415450539136347413e-02,-7.164690722459551298e-01,9.211656274304733799e-03,2.398440134937677298e-02,7.165282870175437857e-01
1.024000000000000000e+10,-1.509173047285041272e-02,1.687239619307947733e-02,-7.166795065050255431e-01,9.654518651822336511e-03,2.263709526333722299e-02,7.167445324344549062e-01
1.032000000000000000e+10,-1.054326566998007794e-02,1.838483327159459724e-02,-7.168454909781101225e-01,1.012358367616208316e-02,2.119345524948945680e-02,7.169169720979522431e-01
1.040000000000000000e+10,-6.048870427632587789e-03,1.872311966998254848e-02,-7.169627722544854587e-01,1.061561082766066498e-02,1.967597630682593399e-02,7.170413572396514557e-01
1.048000000000000000e+10,-1.855494551863310325e-03,1.801528077833008945e-02,-7.170267282290602173e-01,1.112672791781354337e-02,1.811058258461234818e-02,7.171130545939236045e-01
1.056000000000000000e+10,1.661042309833831929e-03,1.642130282784956194e-02,-7.170323789876699161e-01,1.165217000086350881e-02,1.650509764039577443e-02,7.171270498192398035e-01
1.064000000000000000e+10,4.478766282388305792e-03,1.420166635979062432e-02,-7.169744773638697666e-01,1.218596200705530236e-02,1.489116096236512560e-02,7.170780284329116849e-01
1.072000000000000000e+10,6.465781164807122249e-03,1.160205674893299149e-02,-7.168477164079168906e-01,1.272055539054178785e-02,1.328209497318235885e-02,7.169605714742540714e-01
1.080000000000000000e+10,7.613815294219537094e-03,8.876034529083379199e-03,-7.166470990827082943e-01,1.324644601812023995e-02,1.169419395665950885e-02,7.167695117370521674e-01
1.088000000000000000e+10,7.984345114800246029e-03,6.255328102622331743e-03,-7.163685184420077734e-01,1.375182746117757995e-02,1.014292347322463296e-02,7.165005003301248010e-01
1.096000000000000000e+10,7.697075587046560939e-03,3.932627167066515307e-03,-7.160095867898090827e-01,1.422237120734480380e-02,8.643525266224295206e-03,7.161508250485176807e-01
1.104000000000000000e+10,6.914856660966183302e-03,2.048305712913149786e-03,-7.155707192091793623e-01,1.464126942777254324e-02,7.211851283495870901e-03,7.157204908062915205e-01
1.112000000000000191e+10,5.825835769990667275e-03,6.815201660061503616e-04,-7.150564080182981730e-01,1.498971344864386858e-02,5.865563242824665610e-03,7.152135052956587469e-01
1.120000000000000000e+10,4.623533005380420918e-03,-1.537123783421859985e-04,-7.144765151518834845e-01,1.524798568185869140e-02,4.626087434009188912e-03,7.146392039140686547e-01
1.128000000000000000e+10,3.485747952463394157e-03,-5.065264175110424302e-04,-7.138472726477400609e-01,1.539727647029887070e-02,3.522358272484404137e-03,7.140133085519623224e-01
1.135999999999999809e+10,2.553925429773925507e-03,-4.801943103154814041e-04,-7.131915662512788856e-01,1.542216599475807783e-02,2.598676908833664860e-03,7.133582924280913451e-01
1.143999999999999809e+10,1.915731314913680580e-03,-2.153905361501017284e-04,-7.125380692222152978e-01,1.531343760265729305e-02,1.927801741363444196e-03,7.127026037991813778e-01
1.152000000000000000e+10,1.594598841698765829e-03,1.335249246933912929e-04,-7.119189827638549017e-01,1.507059120531114259e-02,1.600179481014995814e-03,7.120784793397421097e-01
1.160000000000000000e+10,1.550004200737365324e-03,4.260763194858491849e-04,-7.113665475028606577e-01,1.470326303279091695e-02,1.607499316432229675e-03,7.115184824373511630e-01
1.168000000000000191e+10,1.690436603865932107e-03,5.615091065470001388e-04,-7.109089961198392649e-01,1.423089987933443164e-02,1.781254723060403996e-03,7.110514181657281441e-01
1.176000000000000000e+10,1.897530301826999728e-03,4.962424811959596348e-04,-7.105669687217356367e-01,1.368052323415408153e-02,1.961345927289520098e-03,7.106986518591098534e-01
1.184000000000000000e+10,2.055940246765542052e-03,2.477364340391116464e-04,-7.103513713963760523e-01,1.308307319909128401e-02,2.070812313808466192e-03,7.104718415595687731e-01
1.191999999999999809e+10,2.081171762242093812e-03,-1.166599576708919378e-04,-7.102631915189904221e-01,1.246931633460962065e-02,2.084438881252610905e-03,7.103726381812538460e-01
1.200000000000000000e+10,1.937929502507203510e-03,-5.027888755848328260e-04,-7.102951027303584519e-01,1.186638255378411923e-02,2.002090759705882610e-03,7.103942173171479135e-01
1.208000000000000000e+10,1.644325438186927365e-03,-8.181941721987491360e-04,-7.104342741736759947e-01,1.129566523370909015e-02,1.836640370374294879e-03,7.105240671319655865e-01
1.216000000000000000e+10,1.261335111521058811e-03,-9.982411910428119674e-04,-7.106652006866055471e-01,1.077227326656691846e-02,1.608555792955411847e-03,7.107468391335011182e-01
1.224000000000000191e+10,8.778406226271334017e-04,-1.074903715518869297e-03,-7.108638981424686420e-01,1.044493187388796478e-02,1.387812003252120348e-03,7.109406292259264903e-01
1.232000000000000000e+10,5.469880702962720467e-04,-9.181612159540593430e-04,-7.113414310540726593e-01,9.901737382521279274e-03,1.068745043276775244e-03,7.114103428663716144e-01
1.239999999999999809e+10,3.347322444507608687e-04,-7.445038827570799825e-04,-7.117602566110021733e-01,9.563293115718463078e-03,8.162914350373963197e-04,7.118245004677605792e-01
1.247999999999999809e+10,2.352510267440259539e-04,-5.705752098922868510e-04,-7.122180239348010478e-01,9.292508142644014327e-03,6.171702485763111206e-04,7.122786423340053963e-01
1.256000000000000000e+10,2.124673827396451366e-04,-4.472160098915504240e-04,-7.127047167680861106e-01,9.090944684924594579e-03,4.951207410637875270e-04,7.127626944353514515e-01
1.264000000000000000e+10,2.133985607791442636e-04,-3.899473844793461185e-04,-7.132103611126943132e-01,8.959576455025139441e-03,4.445198627788111674e-04,7.132666354237756634e-01
1.272000000000000000e+10,1.943038354240726392e-04,-3.791337814201981645e-04,-7.137247748354688115e-01,8.898281777042636037e-03,4.260239484752983931e-04,7.137802418339443955e-01
1.280000000000000191e+10,1.392022392939913059e-04,-3.766757311074200821e-04,-7.142378669089386456e-01,8.905369979050200072e-03,4.015742394997107276e-04,7.142933824004633614e-01
1.288000000000000000e+10,6.212462050779720682e-05,-3.492587727438890822e-04,-7.147402546961588721e-01,8.977503034309712582e-03,3.547409742499523953e-04,7.147966334866590055e-01
