# Frequency, Real(S21), Imag(S21), Real(S11), Imag(S11), Amp(S21), Amp(S11)
4.000000000000000000e+09,2.079034270787031771e-05,1.442604594153334171e-04,-7.187978022868567463e-01,6.828768329065773579e-03,1.457508782156517768e-04,7.188302391032997951e-01
4.080000000000000000e+09,2.294724033373942668e-06,1.466518391205068599e-04,-7.187640178693890380e-01,6.986758588833234807e-03,1.466697912857871800e-04,7.187979745236668938e-01
4.160000000000000477e+09,1.098101315849060240e-06,1.477013920828627056e-04,-7.187433588589290379e-01,7.146375870633664071e-03,1.477054740005102386e-04,7.187788857443571100e-01
4.240000000000000000e+09,2.098577870173779918e-05,1.478073685751634617e-04,-7.187295654900253128e-01,7.308234409150027484e-03,1.492897220602695265e-04,7.187667205704919571e-01
4.320000000000000000e+09,8.216546113308424926e-07,1.460698183084695157e-04,-7.187234069849729456e-01,7.473203712622134356e-03,1.460721292272061590e-04,7.187622586932465030e-01
4.400000000000000000e+09,1.741796985670308378e-06,1.445905278775419945e-04,-7.187313888906923243e-01,7.641809286588191821e-03,1.446010186985055058e-04,7.187720129678925041e-01
4.480000000000000000e+09,2.291116714543542306e-05,1.437414801701021030e-04,-7.187098009604082627e-01,7.810234371270066873e-03,1.455559504158381642e-04,7.187522366973781995e-01
4.560000000000000000e+09,5.426217583415194977e-07,1.427637226650658249e-04,-7.187022574389271279e-01,7.982615022367266222e-03,1.427647538699957025e-04,7.187465874634850760e-01
4.640000000000000000e+09,1.887275454327355175e-06,1.435720946293645524e-04,-7.187074140588145532e-01,8.159271876347356720e-03,1.435844983447158755e-04,7.187537274620984240e-01
4.720000000000000000e+09,8.453949644518051862e-07,1.454015190573025910e-04,-7.186853851207549715e-01,8.336103783711718007e-03,1.454039766884559722e-04,7.187337291462400080e-01
4.800000000000000000e+09,2.095699630301901005e-06,1.486482698722178385e-04,-7.186875290975851538e-01,8.519195768900323859e-03,1.486630421219213170e-04,7.187380198493336092e-01
4.880000000000000000e+09,4.199711647493380813e-09,1.526379555973225266e-04,-7.186458498210656076e-01,8.703616707979687853e-03,1.526379556550983864e-04,7.186985532257882392e-01
4.960000000000000000e+09,3.011552753738389921e-05,1.578083418224286022e-04,-7.186543143921644283e-01,8.892132619183071643e-03,1.606562098009267549e-04,7.187093248434927029e-01
5.040000000000000000e+09,8.703978039701957032e-07,1.622829607510295708e-04,-7.186419349405968049e-01,9.085704771219241249e-03,1.622852949051680437e-04,7.186993673896997503e-01
5.120000000000000000e+09,5.369625204996220609e-07,1.672407045858125777e-04,-7.186282524924674231e-01,9.284107111974762572e-03,1.672415666008527095e-04,7.186882216408198021e-01
5.200000000000000000e+09,4.913680875937328607e-08,1.719257416781203593e-04,-7.186130189450927741e-01,9.487871629829877640e-03,1.719257486998318864e-04,7.186756505583338228e-01
5.280000000000000000e+09,-5.834289430648944311e-07,1.761764623952431362e-04,-7.185959093583228485e-01,9.697618635503639159e-03,1.761774284391565387e-04,7.186613421867873441e-01
5.360000000000000000e+09,-1.348221695122250670e-06,1.799147735526669212e-04,-7.185764865128020373e-01,9.914074991537421763e-03,1.799198250450644769e-04,7.186448746439516588e-01
5.440000000000000000e+09,-2.234694146735021005e-06,1.831319835164804482e-04,-7.185541432132946937e-01,1.013809262722228412e-02,1.831456175959717415e-04,7.186256589150642471e-01
5.520000000000000000e+09,-3.237604131333097384e-06,1.858666984397945783e-04,-7.185280064582214576e-01,1.037065637892302904e-02,1.858948941456455245e-04,7.186028434250421038e-01
5.600000000000000000e+09,-4.358429455626835165e-06,1.881798965406347160e-04,-7.184967830449610071e-01,1.061284540858449706e-02,1.882303625065936503e-04,7.185751594187098634e-01
5.680000000000000000e+09,-5.604795978439741942e-06,1.901313455558722868e-04,-7.184585569437346164e-01,1.086565708316346475e-02,1.902139382401995659e-04,7.185407159998119520e-01
5.760000000000000000e+09,-6.988167794442514706e-06,1.917592765359502310e-04,-7.184107040612561779e-01,1.112958339895121947e-02,1.918865670825196403e-04,7.184969083694264791e-01
5.840000000000000954e+09,-8.520857767447555085e-06,1.930636361911797520e-04,-7.183502476451524288e-01,1.140412957278778144e-02,1.932515786130951235e-04,7.184407647559851728e-01
5.920000000000000000e+09,-1.021501653368915127e-05,1.939904510715885597e-04,-7.182745121357267948e-01,1.168781398458520852e-02,1.942592125736690466e-04,7.183695983124248619e-01
6.000000000000000000e+09,-1.208757325322875519e-05,1.944173041321687278e-04,-7.181814552577636679e-01,1.197860379495119254e-02,1.947927041066280652e-04,7.182813443387178198e-01
6.080000000000000000e+09,-1.417447096360787510e-05,1.941402957168457128e-04,-7.180696167600792990e-01,1.227427689160769803e-02,1.946570575348411660e-04,7.181745138802817507e-01
6.160000000000000000e+09,-1.655584968815043622e-05,1.928646251862877511e-04,-7.179379749632091023e-01,1.257257958176523013e-02,1.935739130336107101e-04,7.180480524669733411e-01
6.239999999999999046e+09,-1.939241969469493178e-05,1.902011720190409968e-04,-7.177858376625432246e-01,1.287127614317351218e-02,1.911872165680331712e-04,7.179012317153889988e-01
6.320000000000000000e+09,-2.297213658053485553e-05,1.856722124335902842e-04,-7.176127744261592278e-01,1.316816021422787149e-02,1.870879192493706401e-04,7.177335818136401091e-01
6.400000000000000954e+09,-2.776498616004304443e-05,1.787299708442843349e-04,-7.174185758372394472e-01,1.346105523241842607e-02,1.808737043753627118e-04,7.175448508381222501e-01
6.480000000000000000e+09,-3.448243262533278787e-05,1.687920729933277647e-04,-7.172032286025507020e-01,1.374781266683082655e-02,1.722782692771943937e-04,7.173349799577912744e-01
6.560000000000000000e+09,-4.413648904277314104e-05,1.552977756036988204e-04,-7.169669000533658298e-01,1.402631059416338186e-02,1.614479134968291524e-04,7.171040880939231199e-01
6.640000000000000000e+09,-5.809200968655693458e-05,1.377882485321725874e-04,-7.167099286071538788e-01,1.429445318665233285e-02,1.495335514959328035e-04,7.168524626141539180e-01
6.720000000000000000e+09,-7.810438099890951473e-05,1.160124921174224147e-04,-7.164328182406269896e-01,1.455017122746534407e-02,1.398541835574389084e-04,7.165805541144385504e-01
6.799999999999999046e+09,-1.063337783546247444e-04,9.005846810431844757e-05,-7.161362360150648199e-01,1.479142365964104984e-02,1.393463314783241903e-04,7.162889743306841694e-01
6.880000000000000000e+09,-1.453265284616649827e-04,6.050640437916613839e-05,-7.158210120586633307e-01,1.501620029647802133e-02,1.574192645314235182e-04,7.159784965877348251e-01
6.960000000000000954e+09,-1.979542067914838617e-04,2.859775929888841683e-05,-7.154881416583577236e-01,1.522252592707218181e-02,2.000092493445308512e-04,7.156500584429030809e-01
7.039999999999999046e+09,-2.673019765173350465e-04,-3.589721958144494445e-06,-7.151387891572628108e-01,1.540846613858182224e-02,2.673260794494444954e-04,7.153047662262985718e-01
7.120000000000000000e+09,-3.517298570019195231e-04,-4.014414551793698844e-05,-7.147303760140731876e-01,1.572256681641623702e-02,3.540133397570718963e-04,7.149032868189340029e-01
7.200000000000000000e+09,-4.684899304012351065e-04,-5.532197486910443588e-05,-7.143961739683782897e-01,1.571170680782031995e-02,4.717449902126909927e-04,7.145689267743681183e-01
7.280000000000000000e+09,-6.057382447054997666e-04,-6.514700056659168681e-05,-7.140061387886127431e-01,1.582542699125714589e-02,6.092314443474855729e-04,7.141814967970532280e-01
7.359999999999999046e+09,-7.698805380331973352e-04,-5.566141221043053797e-05,-7.136060906996761766e-01,1.591163142109391568e-02,7.718900411661915604e-04,7.137834634524361510e-01
7.440000000000000000e+09,-9.613262425603097058e-04,-1.881256380377102633e-05,-7.131981340089255106e-01,1.596876554303441539e-02,9.615103000966731530e-04,7.133768848419338449e-01
7.520000000000000000e+09,-1.178826702791288495e-03,5.458465096472016158e-05,-7.127845791086947491e-01,1.599540879274842856e-02,1.180089775963981923e-03,7.129640308722496878e-01
7.599999999999999046e+09,-1.419031323414053636e-03,1.746005487187638015e-04,-7.123679445363831908e-01,1.599030255148604224e-02,1.429732579345918643e-03,7.125473866197808981e-01
7.680000000000000000e+09,-1.676057497299852234e-03,3.518163710894677693e-04,-7.119509553595011475e-01,1.595238163890303276e-02,1.712583864580536665e-03,7.121296520418592957e-01
7.760000000000000954e+09,-1.941105659067210356e-03,5.968154198813628575e-04,-7.115365368171927551e-01,1.588080894634772908e-02,2.030783057116371509e-03,7.117137369185694284e-01
7.840000000000000000e+09,-2.074704568600664514e-03,9.352208742157037957e-04,-7.111278021389345616e-01,1.577501242733402032e-02,2.275749795241395826e-03,7.113027498836442808e-01
7.919999999999999046e+09,-2.443779021950898654e-03,1.328510169028327553e-03,-7.107280334789508602e-01,1.563472351094841520e-02,2.781545465624994575e-03,7.108999804136446610e-01
8.000000000000000000e+09,-2.647119534748625016e-03,1.829951343294425456e-03,-7.103406551948560077e-01,1.546001557885655180e-02,3.218068325886330652e-03,7.105088729244384282e-01
8.080000000000000000e+09,-3.005114041556931209e-03,2.414676605702284484e-03,-7.099691987111906855e-01,1.525134091033225094e-02,3.855045202444264130e-03,7.101329921346940521e-01
8.159999999999999046e+09,-2.847644595302544109e-03,3.117702475391000844e-03,-7.096172587200041404e-01,1.500956428950414243e-02,4.222457633442278438e-03,7.097759793719804478e-01
8.240000000000000000e+09,-2.792742126699360606e-03,3.895945813303594227e-03,-7.092884407947459557e-01,1.473599111607472659e-02,4.793516701383136736e-03,7.094414998287138507e-01
8.320000000000000954e+09,-2.597036833962522787e-03,4.748520120914892680e-03,-7.089863009847314768e-01,1.443238793381929064e-02,5.412304837653887819e-03,7.091331812893009179e-01
8.400000000000000000e+09,-2.232301685456276278e-03,5.655253439787384304e-03,-7.087142785379684229e-01,1.410099315472131999e-02,6.079889989392734187e-03,7.088545454545259750e-01
8.480000000000000000e+09,-1.671987874618263443e-03,6.588178207009355927e-03,-7.084756235223600429e-01,1.374451601583624380e-02,6.797031377019199100e-03,7.086089336481063983e-01
8.560000000000000000e+09,-8.931001775715958525e-04,7.511194263540051444e-03,-7.082733216524564890e-01,1.336612209508959703e-02,7.564103859137272581e-03,7.083994292660497072e-01
8.640000000000000000e+09,1.216821380012484679e-04,8.380128132245329847e-03,-7.081100192093433554e-01,1.296940427854543186e-02,8.381011517445739745e-03,7.082287799517871241e-01
8.720000000000000000e+09,1.381705496165368773e-03,9.143286367212070248e-03,-7.079879512874336367e-01,1.255833875635643804e-02,9.247096607637431478e-03,7.080993228640293236e-01
8.800000000000000000e+09,2.885961045946954830e-03,9.742596281909286782e-03,-7.079088768147970834e-01,1.213722644854913803e-02,1.016105080545294352e-02,7.080129166470418012e-01
8.880000000000000000e+09,4.620752734168237161e-03,1.011541507705134187e-02,-7.078740238375716975e-01,1.171062120828345217e-02,1.112083531086405577e-02,7.079708837749466577e-01
8.959999999999998093e+09,6.557580192996816798e-03,1.019706656612750020e-02,-7.078840481027907083e-01,1.128324708546353874e-02,1.212361433490934809e-02,7.079739664868940352e-01
9.040000000000000000e+09,8.651437347138631745e-03,9.924129943240218854e-03,-7.079390075426287288e-01,1.085990769287605712e-02,1.316570253734232823e-02,7.080222990807140127e-01
9.120000000000000000e+09,1.083975995251455077e-02,9.238456472527030450e-03,-7.080383543623622877e-01,1.044539151435091608e-02,1.424252343592647373e-02,7.081153984006067770e-01
9.200000000000000000e+09,1.304227929694200608e-02,8.091823575306408139e-03,-7.081809453854103209e-01,1.004437726157258320e-02,1.534857185647337842e-02,7.082521732557877092e-01
9.280000000000000000e+09,1.516204880610172792e-02,6.451052945114289436e-03,-7.083650702715987846e-01,9.661343582401359098e-03,1.647737260910484350e-02,7.084309524157624827e-01
9.360000000000000000e+09,1.708789630752662742e-02,4.303319422373761728e-03,-7.085884960749856409e-01,9.300487123757446642e-03,1.762142895079060745e-02,7.086495296199307736e-01
9.440000000000000000e+09,1.869850702504143730e-02,1.661266393760044320e-03,-7.088485255646262972e-01,8.965652414523447855e-03,1.877215946545736369e-02,7.089052229447619924e-01
9.520000000000000000e+09,1.968196760227493985e-02,-1.409624257082478516e-03,-7.091420660222137462e-01,8.660276208739065701e-03,1.973238174278907700e-02,7.091949451217665068e-01
9.600000000000000000e+09,2.047471698414185526e-02,-4.902615870111834938e-03,-7.094657046870139760e-01,8.387347903948884353e-03,2.105349562306885192e-02,7.095152808304435732e-01
9.680000000000000000e+09,2.040773544122298153e-02,-8.639064289069197516e-03,-7.098157868229654222e-01,8.149386569903056821e-03,2.216098142297897450e-02,7.098625667863963651e-01
9.760000000000000000e+09,1.957937708879971608e-02,-1.249924216684340436e-02,-7.101884925991625019e-01,7.948434096137711388e-03,2.322892726603644625e-02,7.102329706686753008e-01
9.840000000000000000e+09,1.793419131448386467e-02,-1.631210128962151326e-02,-7.105799092393348948e-01,7.786062934063950162e-03,2.424293436420971518e-02,7.106225652134855464e-01
9.920000000000000000e+09,1.545863961345592813e-02,-1.988611340198313121e-02,-7.109860957901373846e-01,7.663396361775058965e-03,2.518783525702917442e-02,7.110273947258994864e-01
1.000000000000000000e+10,1.218850975496058725e-02,-2.302050616959118445e-02,-7.114031383944211528e-01,7.581138511096753747e-03,2.604809924641249622e-02,7.114435318270567743e-01
1.008000000000000000e+10,8.213039706241591353e-03,-2.551929437827890959e-02,-7.118271948970947838e-01,7.539611477075365206e-03,2.680836449285108058e-02,7.118671232303763752e-01
1.016000000000000000e+10,3.674634404167791222e-03,-2.720703492151627448e-02,-7.122545283749575074e-01,7.538796555375426589e-03,2.745406504007921397e-02,7.122944241282087585e-01
1.024000000000000000e+10,-1.236550300195346334e-03,-2.794475577111535380e-02,-7.126815296968831426e-01,7.578377226703876882e-03,2.797210095348931849e-02,7.127218213107266997e-01
1.032000000000000000e+10,-6.293270135131729705e-03,-2.764419420906840189e-02,-7.131047297623803738e-01,7.657781645631528064e-03,2.835148536606912906e-02,7.131458456930178658e-01
1.040000000000000000e+10,-1.124646244273747736e-02,-2.627843935001532294e-02,-7.135208022354977420e-01,7.776222891924210005e-03,2.858389917678024611e-02,7.135631751045264926e-01
1.048000000000000000e+10,-1.584372922903999267e-02,-2.388736983723021429e-02,-7.139265576720434936e-01,7.932735561029403276e-03,2.866409240886150928e-02,7.139706282774767043e-01
1.056000000000000000e+10,-1.984904484281882486e-02,-2.057689744757522712e-02,-7.143189298482263139e-01,8.126207530881248559e-03,2.859009076131554389e-02,7.143651508775817893e-01
1.064000000000000000e+10,-2.306141380903369703e-02,-1.651187111510695610e-02,-7.146949550095890169e-01,8.355405732465480406e-03,2.836319260226876152e-02,7.147437943215125822e-01
1.072000000000000000e+10,-2.533030525205390987e-02,-1.190339631291920629e-02,-7.150517446307821379e-01,8.618994756972274407e-03,2.798776889901459161e-02,7.151036879852781247e-01
1.080000000000000000e+10,-2.656616416264760694e-02,-6.992096930441721661e-03,-7.153864523156002742e-01,8.915546767925506058e-03,2.747090274820677622e-02,7.154420054280232755e-01
1.088000000000000000e+10,-2.674503998898851778e-02,-2.029334124789332339e-03,-7.156962355812176435e-01,9.243540958709434499e-03,2.682191941309624780e-02,7.157559253506611263e-01
1.096000000000000000e+10,-2.590721515420117693e-02,2.741476312542083862e-03,-7.159782136747232517e-01,9.601350292926944668e-03,2.605186153460632009e-02,7.160425883872377772e-01
1.104000000000000000e+10,-2.415049172269244718e-02,7.101527103534726638e-03,-7.162294231966354063e-01,9.987212908040972795e-03,2.517296044667918786e-02,7.162990514263267716e-01
1.112000000000000191e+10,-2.161936432281763229e-02,1.086982350540026919e-02,-7.164467741571574066e-01,1.039918509279062937e-02,2.419813994424513739e-02,7.165222419791245079e-01
1.120000000000000000e+10,-1.849161531117843316e-02,1.391209992535073769e-02,-7.166270104523321249e-01,1.083507263787860352e-02,2.314057823714767842e-02,7.167089164430111570e-01
1.128000000000000000e+10,-1.496390272986689550e-02,1.614523690868624808e-02,-7.167666803956249666e-01,1.129233723739716741e-02,2.201333822359804321e-02,7.168556277282387423e-01
1.135999999999999809e+10,-1.123773517085805210e-02,1.753748589842373667e-02,-7.168621253262672521e-01,1.176797514674162576e-02,2.082906871196481269e-02,7.169587100847211181e-01
1.143999999999999809e+10,-7.506912287739422700e-03,1.810517762582574894e-02,-7.169094970664149358e-01,1.225836663449538302e-02,1.959977522724468471e-02,7.170142917240671654e-01
1.152000000000000000e+10,-3.947133264304219374e-03,1.790679129354703220e-02,-7.169048185478378299e-01,1.275909731906649941e-02,1.833665824071629286e-02,7.170183494315229833e-01
1.160000000000000000e+10,-7.081063947072556083e-04,1.703530952550937061e-02,-7.168441053623809678e-01,1.326475728872554549e-02,1.705002009664902465e-02,7.169668229274777094e-01
1.168000000000000191e+10,2.173391307113074766e-03,1.563247618316327553e-02,-7.167235690585372909e-01,1.376873133050871174e-02,1.578283692467871008e-02,7.168558100528025223e-01
1.176000000000000000e+10,4.368773643617966489e-03,1.376626802571668216e-02,-7.165399238120423453e-01,1.426300482404682136e-02,1.444286393015735935e-02,7.166818650720682138e-01
1.184000000000000000e+10,6.074459893731050039e-03,1.165017068083680843e-02,-7.162908141888790770e-01,1.473802456988516918e-02,1.313870388939398365e-02,7.164424190816661708e-01
1.191999999999999809e+10,7.195868892524583983e-03,9.407617934130960147e-03,-7.159753699779206615e-01,1.518267131259144233e-02,1.184414641554998142e-02,7.161363305427301817e-01
1.200000000000000000e+10,7.706168406485183406e-03,7.247865513453953003e-03,-7.155275731622798840e-01,1.547742976645647903e-02,1.057906356962777343e-02,7.156949481361996046e-01
1.208000000000000000e+10,7.799796404541032950e-03,5.089375371907777293e-03,-7.151534598546570587e-01,1.592974435945006609e-02,9.313354155645143725e-03,7.153308520520026415e-01
1.216000000000000000e+10,7.397455746585056627e-03,3.260433000473904851e-03,-7.146728017165342450e-01,1.622467824808507264e-02,8.084106312590374349e-03,7.148569463169638372e-01
1.224000000000000191e+10,6.799441828459743334e-03,1.749447927105280028e-03,-7.141225845712471099e-01,1.639702407777778731e-02,7.020895756829105550e-03,7.143108064374534827e-01
1.232000000000000000e+10,5.764227085712040136e-03,5.921002640470246145e-04,-7.135604444766882049e-01,1.649551094853025229e-02,5.794557499787267654e-03,7.137510839243762506e-01
1.239999999999999809e+10,4.740364025588253254e-03,-1.592032192201629781e-04,-7.129915353362203945e-01,1.649358267590050192e-02,4.743036660210558919e-03,7.131822822607047918e-01
1.247999999999999809e+10,3.741251415683895416e-03,-5.465740994595258764e-04,-7.124372391099649260e-01,1.638962468790349652e-02,3.780966199472926212e-03,7.126257359007178716e-01
1.256000000000000000e+10,2.866007801000020061e-03,-6.283753448975159563e-04,-7.119193385175159872e-01,1.618803396512099452e-02,2.934085255998544316e-03,7.121033611765033022e-01
1.264000000000000000e+10,2.184975783489362389e-03,-4.890903302048929101e-04,-7.114578400070579178e-01,1.589924643357224290e-02,2.239046342873430781e-03,7.116354713929484710e-01
1.272000000000000000e+10,1.732112993300138817e-03,-2.270633096457977222e-04,-7.110688859540080786e-01,1.553881979172994955e-02,1.746932502458658316e-03,7.112386487617177178e-01
1.280000000000000191e+10,1.502893839834200818e-03,6.034743269866263632e-05,-7.107632145368032450e-01,1.512569368465109185e-02,1.504104951938164611e-03,7.109241406423977283e-01
1.288000000000000000e+10,1.458629849639722208e-03,2.914137078244216574e-04,-7.105455011545391830e-01,1.467998172142432299e-02,1.487455205163495291e-03,7.106971303405527074e-01
