# Frequency, Real(S21), Imag(S21), Real(S11), Imag(S11), Amp(S21), Amp(S11)
4.000000000000000000e+09,-5.765143057091803858e-05,1.476209150892590334e-04,-7.187573763525334503e-01,6.882109834610584606e-03,1.584790901622785476e-04,7.187903237363125752e-01
4.080000000000000000e+09,-4.114768022910607911e-05,1.512140992087032839e-04,-7.187367360148217976e-01,7.043959092178034113e-03,1.567125884788338457e-04,7.187712522471471077e-01
4.160000000000000477e+09,1.396574697414810149e-06,1.487972715368665513e-04,-7.187307614817505241e-01,7.209363096404547422e-03,1.488038253463312417e-04,7.187669180035992644e-01
4.240000000000000000e+09,8.747506145249481116e-07,1.485311422826010705e-04,-7.187243661653376359e-01,7.377265583753382476e-03,1.485337181127971819e-04,7.187622267254030195e-01
4.320000000000000000e+09,2.308161904319802778e-05,1.487443811660757237e-04,-7.187317994225678186e-01,7.549233575722060115e-03,1.505245895730466577e-04,7.187714451957472050e-01
4.400000000000000000e+09,2.201564070358229589e-05,1.463851875080509311e-04,-7.187101163650704283e-01,7.721220039612807819e-03,1.480314546214974499e-04,7.187515903317315269e-01
4.480000000000000000e+09,-3.171350085901370028e-08,1.445790102763658714e-04,-7.187021415470106200e-01,7.897666193770847692e-03,1.445790137545544473e-04,7.187455331308623130e-01
4.560000000000000000e+09,-7.634498475562256234e-07,1.442245288601750339e-04,-7.187022131413737247e-01,8.078706972728532873e-03,1.442265494997685611e-04,7.187476168173775326e-01
4.640000000000000000e+09,2.073080446108493177e-08,1.448815438156726937e-04,-7.186841013283260526e-01,8.260734856615698993e-03,1.448815452988369253e-04,7.187315752368715893e-01
4.720000000000000000e+09,6.070455759996369973e-05,1.461629760219447169e-04,-7.186738294335958122e-01,8.447977499100110810e-03,1.582676810754453844e-04,7.187234805101154755e-01
4.800000000000000000e+09,9.726871912531559510e-08,1.500992144856308627e-04,-7.186527343210751262e-01,8.641101054499686004e-03,1.500992460021273337e-04,7.187046828667473797e-01
4.880000000000000000e+09,1.839584338664890237e-07,1.540253919687718559e-04,-7.186500744477375413e-01,8.835827946088959869e-03,1.540255018230396824e-04,7.187043908028053485e-01
4.960000000000000000e+09,1.212185287348274226e-08,1.586890429766965810e-04,-7.186361928452947856e-01,9.037416392652803873e-03,1.586890434396753574e-04,7.186930169148951775e-01
5.040000000000000000e+09,-3.436855724553161622e-07,1.636128391901907179e-04,-7.186206090370934607e-01,9.244911613833693698e-03,1.636132001632139730e-04,7.186800735540055385e-01
5.120000000000000000e+09,-6.166125887172722427e-07,1.685049868616764006e-04,-7.185833316962726425e-01,9.460064579274748628e-03,1.685061150473130551e-04,7.186455993141260823e-01
5.200000000000000000e+09,-1.656721243694534231e-06,1.730240397341632004e-04,-7.185826200436610245e-01,9.680701800041092292e-03,1.730319711822315087e-04,7.186478260011324171e-01
5.280000000000000000e+09,-2.606984517579195454e-06,1.770803091489157822e-04,-7.185588940733337315e-01,9.910904016079120568e-03,1.770994981826613899e-04,7.186272401393565268e-01
5.360000000000000000e+09,-3.738594358391586879e-06,1.805505959801704586e-04,-7.185305876123667668e-01,1.015084626032468351e-02,1.805892986767802365e-04,7.186022857007718923e-01
5.440000000000000000e+09,-5.041013212231589566e-06,1.834053948951931072e-04,-7.184959113133151387e-01,1.040176681262812430e-02,1.834746595333198158e-04,7.185712012923809455e-01
5.520000000000000000e+09,-6.507346329053023592e-06,1.856561042800731554e-04,-7.184522244492388410e-01,1.066456918085462689e-02,1.857701122697072351e-04,7.185313715154493241e-01
5.600000000000000000e+09,-8.134182776020337441e-06,1.873249533677937245e-04,-7.183962162282426789e-01,1.093916673443019218e-02,1.875014748840120435e-04,7.184794978702591095e-01
5.680000000000000000e+09,-9.920957361743468116e-06,1.884112313608408951e-04,-7.183246829251288545e-01,1.122420536845569403e-02,1.886722488811797970e-04,7.184123696635799083e-01
5.760000000000000000e+09,-1.187389478932651552e-05,1.888558321681950371e-04,-7.182351284115532364e-01,1.151751553201699023e-02,1.892287365106300428e-04,7.183274690894053682e-01
5.840000000000000954e+09,-1.402012564254099600e-05,1.885081193550289171e-04,-7.181257844647975785e-01,1.181663444227599481e-02,1.890287676143567015e-04,7.182229982134541446e-01
5.920000000000000000e+09,-1.643546504075594540e-05,1.871001224701420676e-04,-7.179954280614730955e-01,1.211904718857270691e-02,1.878206068019376367e-04,7.180976994963407245e-01
6.000000000000000000e+09,-1.928733565517155830e-05,1.842326238433237000e-04,-7.178432341504876746e-01,1.242225865100328105e-02,1.852394693494635841e-04,7.179507095376563841e-01
6.080000000000000000e+09,-2.289213115878547600e-05,1.793776279833588232e-04,-7.176686870020888565e-01,1.272380791667992658e-02,1.808324724432183283e-04,7.177814706379670451e-01
6.160000000000000000e+09,-2.778464608134184523e-05,1.719016433882162318e-04,-7.174715291829178998e-01,1.302126775969440070e-02,1.741325976301820694e-04,7.175896798325239745e-01
6.239999999999999046e+09,-3.479477777802281971e-05,1.611142634042015158e-04,-7.172517317449633723e-01,1.331224187956178522e-02,1.648286456684650925e-04,7.173752591740315543e-01
6.320000000000000000e+09,-4.512449454018881275e-05,1.463461374523998830e-04,-7.170094764964939360e-01,1.359436311813963343e-02,1.531450683330816637e-04,7.171383381847354910e-01
6.400000000000000954e+09,-6.041570380932478174e-05,1.270594762013524436e-04,-7.167451455144466799e-01,1.386529324386815559e-02,1.406917473035931376e-04,7.168792436493497400e-01
6.480000000000000000e+09,-8.279765632720792771e-05,1.029926190150013185e-04,-7.164593154251697182e-01,1.412272419942374978e-02,1.321473853878601815e-04,7.165984942757804843e-01
6.560000000000000000e+09,-1.149009106219054375e-04,7.433712729556366037e-05,-7.161527551138159309e-01,1.436438076143064548e-02,1.368511152906688657e-04,7.162967988842114941e-01
6.640000000000000000e+09,-1.598241837948925065e-04,4.194273051542926845e-05,-7.158264261780229454e-01,1.458802464359250373e-02,1.652360807111857832e-04,7.159750574411112289e-01
6.720000000000000000e+09,-2.210404558183578692e-04,7.540702921044686467e-06,-7.154814857048037435e-01,1.479146027693013614e-02,2.211690423837180185e-04,7.156343645210710980e-01
6.799999999999999046e+09,-3.022303002518197837e-04,-2.602829260067159945e-05,-7.151192910439754247e-01,1.497254265423476546e-02,3.033490174798845768e-04,7.152760148759155223e-01
6.880000000000000000e+09,-4.070332611878903304e-04,-5.460105346969377528e-05,-7.147414062229444642e-01,1.512918774290968396e-02,4.106791335741927793e-04,7.149015107630646293e-01
6.960000000000000954e+09,-5.387125817751628768e-04,-7.251705746130673305e-05,-7.143496095530160739e-01,1.525938602232153503e-02,5.435714942725639216e-04,7.145125705894367352e-01
7.039999999999999046e+09,-6.997346899910116252e-04,-7.250945447531491860e-05,-7.139459017905411820e-01,1.536121971612914965e-02,7.034815259586600297e-04,7.141111382373728222e-01
7.120000000000000000e+09,-8.912722802955806104e-04,-4.569131252179700880e-05,-7.135325140629178442e-01,1.543288426353133826e-02,8.924427004930056331e-04,7.136993922805592305e-01
7.200000000000000000e+09,-1.112648384325474592e-03,1.833290001336095737e-05,-7.131119145481165100e-01,1.547271438824969481e-02,1.112799407963982077e-03,7.132797540663975422e-01
7.280000000000000000e+09,-1.360748152396659694e-03,1.312031001199434610e-04,-7.126868126980797635e-01,1.547921501363608461e-02,1.367058809170990617e-03,7.128548934328683417e-01
7.359999999999999046e+09,-1.629434246658889411e-03,3.053636211542839433e-04,-7.122601597040099097e-01,1.545109693588356259e-02,1.657800622906530248e-03,7.124277307194770703e-01
7.440000000000000000e+09,-1.909010776885222867e-03,5.534323831801642168e-04,-7.118351437072575338e-01,1.538731693348765507e-02,1.987614034217005058e-03,7.120014335232363045e-01
7.520000000000000000e+09,-2.185788032442315901e-03,8.873740047108430624e-04,-7.114151782881846797e-01,1.528712153029995052e-02,2.359046830184727446e-03,7.115794066606282442e-01
7.599999999999999046e+09,-2.441806143329910365e-03,1.317484567795684444e-03,-7.110038827961105978e-01,1.515009330485234638e-02,2.774559934112700178e-03,7.111652738135426643e-01
7.680000000000000000e+09,-2.654778715220977928e-03,1.851210738202518913e-03,-7.106050532267839115e-01,1.497619810838532635e-02,3.236484392674659691e-03,7.107628494661366592e-01
7.760000000000000954e+09,-2.798317404516549849e-03,2.491842146903378540e-03,-7.102226226476957560e-01,1.476583127113149235e-02,3.746979794648522006e-03,7.103761000299058104e-01
7.840000000000000000e+09,-2.842494328718106651e-03,3.237134131428880818e-03,-7.098606105980886927e-01,1.451986029207696753e-02,4.307993894338339909e-03,7.100090934780995955e-01
7.919999999999999046e+09,-2.754790716078825592e-03,4.077936022567923979e-03,-7.095230614154303117e-01,1.423966135093956455e-02,4.921222825025421514e-03,7.096659373506057911e-01
8.000000000000000000e+09,-2.501466856762822513e-03,4.996918465469895633e-03,-7.092139721318410084e-01,1.392714680835898007e-02,5.588070381270881723e-03,7.093507057057498733e-01
8.080000000000000000e+09,-2.049369234210353906e-03,5.967510246567594122e-03,-7.089372113283752830e-01,1.358478066058513810e-02,6.309603220569195287e-03,7.090673563714872119e-01
8.159999999999999046e+09,-1.368166002263080435e-03,6.953170011720834209e-03,-7.086964312288019929e-01,1.321557939763641845e-02,7.086497824852727549e-03,7.088196407939436616e-01
8.240000000000000000e+09,-4.329706895440922588e-04,7.907129235920472982e-03,-7.084949759835870164e-01,1.282309594367818210e-02,7.918974452007820561e-03,7.086110094992628117e-01
8.320000000000000954e+09,7.727235593246910630e-04,8.772748179867173590e-03,-7.083357899626765430e-01,1.241138521916161294e-02,8.806714048184954499e-03,7.084445171113313844e-01
8.400000000000000000e+09,2.253920252951585428e-03,9.484624022300687865e-03,-7.082213302589958070e-01,1.198495072304372501e-02,9.748756297655029879e-03,7.083227313009623494e-01
8.480000000000000000e+09,4.000976462478231764e-03,9.970576842880739254e-03,-7.081534879903672586e-01,1.154867271860937281e-02,1.074338006556104647e-02,7.082476504687359453e-01
8.560000000000000000e+09,5.986662367740916944e-03,1.015461193439673102e-02,-7.081335227784315567e-01,1.110771984602103128e-02,1.178797140493298770e-02,7.082206347761755838e-01
8.640000000000000000e+09,8.163698769929055021e-03,9.960911576062519979e-03,-7.081620144722995391e-01,1.066744723921155859e-02,1.287888725908715656e-02,7.082423548278277137e-01
8.720000000000000000e+09,1.046309667585306434e-02,9.318843342970390201e-03,-7.082388351804915771e-01,1.023328519200326567e-02,1.401132517997748066e-02,7.083127612740295342e-01
8.800000000000000000e+09,1.279366162560263698e-02,8.168880780965137936e-03,-7.083631437274484632e-01,9.810623485017900061e-03,1.517920916925644993e-02,7.084310776106582663e-01
8.880000000000000000e+09,1.504304337191914379e-02,6.469215259657556255e-03,-7.085334030116183790e-01,9.404696679965846365e-03,1.637509999863288532e-02,7.085958167410153496e-01
8.959999999999998093e+09,1.708069709003936024e-02,4.202694911346175483e-03,-7.087474194744024514e-01,9.020475909822288710e-03,1.759013523539640356e-02,7.088048205234387389e-01
9.040000000000000000e+09,1.880455127946085991e-02,1.382255353146516139e-03,-7.090024023006434861e-01,8.662572149447437392e-03,1.885528516578774058e-02,7.090553198618059216e-01
9.120000000000000000e+09,1.994111110276023183e-02,-1.936682889998896095e-03,-7.092950388062078115e-01,8.335155125536116566e-03,2.003493580296782095e-02,7.093440116657548922e-01
9.200000000000000000e+09,2.047030269677246189e-02,-5.665194188867630869e-03,-7.096215815140300975e-01,8.041890854146756251e-03,2.123976736442914626e-02,7.096671480060093851e-01
9.280000000000000000e+09,2.022249983492824602e-02,-9.666299758856761876e-03,-7.099779419669728364e-01,7.785899416518596294e-03,2.241398783353259344e-02,7.100206323124578223e-01
9.360000000000000000e+09,1.909926330453413923e-02,-1.376365455898760637e-02,-7.103597862537972540e-01,7.569733167585039092e-03,2.354187854855819759e-02,7.104001173893266241e-01
9.440000000000000000e+09,1.704533587738607525e-02,-1.774672829044621550e-02,-7.107626275688044837e-01,7.395374321029490015e-03,2.460670315560028326e-02,7.108011003859372456e-01
9.520000000000000000e+09,1.406082180330300857e-02,-2.138205286220254409e-02,-7.111819118468487577e-01,7.264249723143097887e-03,2.559099244629377962e-02,7.112190106164058001e-01
9.600000000000000000e+09,1.021025757471531563e-02,-2.442906425061211126e-02,-7.116130934374598205e-01,7.177260010686517186e-03,2.647694355288325585e-02,7.116492870880234412e-01
9.680000000000000000e+09,5.626718096068244676e-03,-2.665963538658657622e-02,-7.120516986595946118e-01,7.134819866335941931e-03,2.724694690196244676e-02,7.120874435197822594e-01
9.760000000000000000e+09,5.093817935755112335e-04,-2.787958332894912780e-02,-7.124933761422520551e-01,7.136906077738651606e-03,2.788423634255463024e-02,7.125291197382371822e-01
9.840000000000000000e+09,-4.886355517799088541e-03,-2.794971430581260838e-02,-7.129339334230664349e-01,7.183110250055255511e-03,2.837363212602277487e-02,7.129701189383392812e-01
9.920000000000000000e+09,-1.054602260873908209e-02,-2.686674230292319249e-02,-7.133693600347612573e-01,7.272693474158935419e-03,2.886243986283416191e-02,7.134064310803301945e-01
1.000000000000000000e+10,-1.531976154783694193e-02,-2.445891041687971515e-02,-7.137958373447895744e-01,7.404640290924038859e-03,2.886058545254288968e-02,7.138342427402788459e-01
1.008000000000000000e+10,-1.974823934117791308e-02,-2.102123094737522874e-02,-7.142097357909266142e-01,7.577709914727633229e-03,2.884241854663601237e-02,7.142499341169706861e-01
1.016000000000000000e+10,-2.329054656326767780e-02,-1.667747229178615995e-02,-7.146076000337507894e-01,7.790482443089758076e-03,2.864590095038092865e-02,7.146500637673610656e-01
1.024000000000000000e+10,-2.574747422981797651e-02,-1.168111753633669335e-02,-7.149861226260936231e-01,8.041397910989383363e-03,2.827332552270520050e-02,7.150313417104583458e-01
1.032000000000000000e+10,-2.699890052126540513e-02,-6.330019352907594737e-03,-7.153421069718038927e-01,8.328785735117388844e-03,2.773102548347915197e-02,7.153905916900789030e-01
1.040000000000000000e+10,-2.701258657396675769e-02,-9.400207052558554131e-04,-7.156724205527763560e-01,8.650881803566108641e-03,2.702893768431084351e-02,7.157247035668456991e-01
1.048000000000000000e+10,-2.584374472583858551e-02,4.182241575705477818e-03,-7.159739399104064761e-01,9.005830044124064904e-03,2.617995962662794315e-02,7.160305772839690164e-01
1.056000000000000000e+10,-2.362604276307519666e-02,8.764072786276146110e-03,-7.162434895840716909e-01,9.391664950088692704e-03,2.519918388451903787e-02,7.163050605308487473e-01
1.064000000000000000e+10,-2.055582850967235461e-02,1.258639556335840182e-02,-7.164777781201099316e-01,9.806271028942107476e-03,2.410310019471326864e-02,7.165448830962527493e-01
1.072000000000000000e+10,-1.687203063270764983e-02,1.549676851037756764e-02,-7.166733357528729531e-01,1.024731490001563362e-02,2.290884658675017282e-02,7.167465923475396794e-01
1.080000000000000000e+10,-1.283436644787204484e-02,1.741523372573268447e-02,-7.168264601483133047e-01,1.071214545308563082e-02,2.163356946599799546e-02,7.169064960153237465e-01
1.088000000000000000e+10,-8.702240888108609199e-03,1.833342570036881197e-02,-7.169331793661910535e-01,1.119765765856829340e-02,2.029392752489308019e-02,7.170206211910181704e-01
1.096000000000000000e+10,-4.716190470312350141e-03,1.830805571267946769e-02,-7.169892446671802810e-01,1.170011659181035592e-02,1.890574929831770334e-02,7.170847018983710353e-01
1.104000000000000000e+10,-1.083072587003724302e-03,1.745025788200903205e-02,-7.169901704821864952e-01,1.221494058590383812e-02,1.748383671787566429e-02,7.170942123191289541e-01
1.112000000000000191e+10,2.034444784554250395e-03,1.591236995596483420e-02,-7.169313441723506042e-01,1.273644728502099956e-02,1.604189774300074367e-02,7.170444681790785202e-01
1.120000000000000000e+10,4.524080678214101835e-03,1.387358610355410651e-02,-7.168082336835008839e-01,1.325757503100493014e-02,1.459259049503273779e-02,7.169308245376000421e-01
1.128000000000000000e+10,6.390038435302614062e-03,1.156955200650945648e-02,-7.164772022300825993e-01,1.375057018063524997e-02,1.321692569533367868e-02,7.166091399750209590e-01
1.135999999999999809e+10,7.517604506447663100e-03,9.035137463992605131e-03,-7.163450599732812396e-01,1.418786423388570216e-02,1.175364141483842099e-02,7.164855479628622348e-01
1.143999999999999809e+10,7.920513114530222665e-03,6.242585758619127734e-03,-7.160173089197160445e-01,1.472196851185494232e-02,1.008486018500799955e-02,7.161686414731491812e-01
1.152000000000000000e+10,7.759297053268533750e-03,4.458281610785118365e-03,-7.156086247062360961e-01,1.513521959282638357e-02,8.948908630773168282e-03,7.157686627857311468e-01
1.160000000000000000e+10,7.140284952464181524e-03,2.579255936718058938e-03,-7.151659924853041028e-01,1.547661679487194984e-02,7.591852895669263211e-03,7.153334344729773697e-01
1.168000000000000191e+10,6.271068704617854817e-03,1.152629128652137187e-03,-7.145953425755228183e-01,1.575715189123205393e-02,6.376116106710639705e-03,7.147690476415107241e-01
1.176000000000000000e+10,5.195851888172778842e-03,1.563674209395958178e-04,-7.140128338327228485e-01,1.593376140431516236e-02,5.198204268221856723e-03,7.141905989512359332e-01
1.184000000000000000e+10,4.098001497530992521e-03,-4.031493180231340845e-04,-7.134029661032584846e-01,1.600269123319592729e-02,4.117784069908082996e-03,7.135824256325488113e-01
1.191999999999999809e+10,3.107941353117048538e-03,-5.836170512039536538e-04,-7.127889461759069345e-01,1.595579236218411939e-02,3.162263163759624143e-03,7.129675091478328008e-01
1.200000000000000000e+10,2.323743502463544372e-03,-4.796987068546665692e-04,-7.121968669891841630e-01,1.579152233996067300e-02,2.372739917184262144e-03,7.123719179803644774e-01
1.208000000000000000e+10,1.799493790937318344e-03,-2.089524521187630969e-04,-7.116532262662722541e-01,1.551607113246066330e-02,1.811584673943894162e-03,7.118223534833545418e-01
1.216000000000000000e+10,1.539860611059808756e-03,1.068596425157382606e-04,-7.111819902087834766e-01,1.514331994284821847e-02,1.543563955491342480e-03,7.113431965909405852e-01
1.224000000000000191e+10,1.503127882761193072e-03,3.619060984410817300e-04,-7.108018489293043141e-01,1.469346799403799080e-02,1.546081969373872770e-03,7.109537020390352957e-01
1.232000000000000000e+10,1.612985028823141730e-03,4.835214418330235041e-04,-7.105243335308438768e-01,1.419056060808472977e-02,1.683898360329351071e-03,7.106660260275720065e-01
1.239999999999999809e+10,1.776898750154311778e-03,4.424288121705502409e-04,-7.103532318269513146e-01,1.365949669781187786e-02,1.831150573311380930e-03,7.104845500199367114e-01
1.247999999999999809e+10,1.906948546664055926e-03,2.534984589296910206e-04,-7.102853465469788352e-01,1.312322588082704897e-02,1.923724052015746665e-03,7.104065685062892488e-01
1.256000000000000000e+10,1.938336238665784323e-03,-3.297941749259349233e-05,-7.103122653355087301e-01,1.260072133521317195e-02,1.938616779072948075e-03,7.104240230061409367e-01
1.264000000000000000e+10,1.841455042716842305e-03,-3.472322027832459770e-04,-7.104226017950994176e-01,1.210602336934251191e-02,1.873906848537833150e-03,7.105257412248605631e-01
1.272000000000000000e+10,1.624983258987563149e-03,-6.193027484233252274e-04,-7.106041585267229843e-01,1.164833503273223284e-02,1.738995826962941825e-03,7.106996227834280200e-01
1.280000000000000191e+10,1.329454195096494394e-03,-7.971357028826837280e-04,-7.108455960614217251e-01,1.123292284696550056e-02,1.550120571333061690e-03,7.109343429569314754e-01
1.288000000000000000e+10,1.012893993391110210e-03,-8.589647836985950984e-04,-7.111373788144197405e-01,1.086246065326968400e-02,1.328071813375378014e-03,7.112203347757199978e-01
