# Frequency, Real(S21), Imag(S21), Real(S11), Imag(S11), Amp(S21), Amp(S11)
4.000000000000000000e+09,1.008861653288934701e-06,1.436147792438778094e-04,-7.187981730584900308e-01,6.822303346122137076e-03,1.436183227137235346e-04,7.188305484710353355e-01
4.080000000000000000e+09,2.247517383030450127e-05,1.475052446367562241e-04,-7.187644789487712682e-01,6.979759729194079561e-03,1.492076761901065896e-04,7.187983675860538657e-01
4.160000000000000477e+09,1.117074763918578329e-06,1.475640810666703159e-04,-7.187438791464109133e-01,7.138851573508122814e-03,1.475683091896055801e-04,7.187793312361027143e-01
4.240000000000000000e+09,2.172577896795923436e-05,1.476155070481492378e-04,-7.187011788960177006e-01,7.299492627128693900e-03,1.492057217161822517e-04,7.187382466093891198e-01
4.320000000000000000e+09,8.611321252011462521e-07,1.459174048473717376e-04,-7.187240745306854306e-01,7.464475261481178653e-03,1.459199458125202053e-04,7.187628355034221261e-01
4.400000000000000000e+09,6.424636570292895272e-07,1.443296763558737125e-04,-7.187175893526077664e-01,7.631067907370401096e-03,1.443311062679901056e-04,7.187581000880829407e-01
4.480000000000000000e+09,5.597626865457531550e-07,1.430511788489087694e-04,-7.187106580456791294e-01,7.800060118003806532e-03,1.430522740271112628e-04,7.187529832468854130e-01
4.560000000000000000e+09,-7.087488571940461161e-07,1.426604256934322658e-04,-7.186823487881641714e-01,7.972183141566781608e-03,1.426621862441967655e-04,7.187265642535519694e-01
4.640000000000000000e+09,1.953490783232071079e-06,1.433941237976182914e-04,-7.187085269143089761e-01,8.147346913612298416e-03,1.434074296050481952e-04,7.187547049731686233e-01
4.720000000000000000e+09,2.591408610057524694e-05,1.457769089141359802e-04,-7.186866523322318345e-01,8.323208370000329329e-03,1.480623079348296735e-04,7.187348468232778176e-01
4.800000000000000000e+09,2.175381264417798334e-06,1.484649588971830448e-04,-7.186889918633139196e-01,8.505181865624860532e-03,1.484808954175177080e-04,7.187393165425652874e-01
4.880000000000000000e+09,1.170566569904502042e-06,1.524160828620156963e-04,-7.186672547094357100e-01,8.687733920040061064e-03,1.524205778138090143e-04,7.187197643812659464e-01
4.960000000000000000e+09,1.150184317343987051e-06,1.571166845549596249e-04,-7.186562436976068335e-01,8.875594313060451365e-03,1.571208945032663389e-04,7.187110495741414473e-01
5.040000000000000000e+09,1.787359563979281037e-06,1.622132904300928173e-04,-7.186521380813265525e-01,9.069127535915081154e-03,1.622231372103516910e-04,7.187093603419429932e-01
5.120000000000000000e+09,6.792763651712236086e-07,1.670687800628979636e-04,-7.186308703898024453e-01,9.264407242916409754e-03,1.670701609746194421e-04,7.186905851051393901e-01
5.200000000000000000e+09,2.188934079295297682e-07,1.717639050432265215e-04,-7.186161010675694572e-01,9.466296030905549733e-03,1.717640445204483943e-04,7.186784478987107150e-01
5.280000000000000000e+09,-3.811335231428726407e-07,1.760297959735949698e-04,-7.185995717024723506e-01,9.673923705989084104e-03,1.760302085815611825e-04,7.186646848502060703e-01
5.360000000000000000e+09,-1.108176672853605829e-06,1.797898231235488904e-04,-7.185808886864821776e-01,9.887972010531204461e-03,1.797932383443138810e-04,7.186489167708635106e-01
5.440000000000000000e+09,-1.951535700418004178e-06,1.830370334125560770e-04,-7.185595122131726020e-01,1.010923944896397961e-02,1.830474367262736998e-04,7.186306209133236367e-01
5.520000000000000000e+09,-2.905769390640494462e-06,1.858121179677035741e-04,-7.185346767379663380e-01,1.033865403121672980e-02,1.858348370984175030e-04,7.186090518787743298e-01
5.600000000000000000e+09,-3.972195288778809221e-06,1.881786482749139475e-04,-7.185052609017100744e-01,1.057725618142422302e-02,1.882205674255233265e-04,7.185831116104538507e-01
5.680000000000000000e+09,-5.158502725144261007e-06,1.901998205875083162e-04,-7.184695994585208467e-01,1.082608434844519428e-02,1.902697608709425761e-04,7.185511599381124714e-01
5.760000000000000000e+09,-6.476710552562714820e-06,1.919190108008973165e-04,-7.184253304022051312e-01,1.108584661956194505e-02,1.920282648111381989e-04,7.185108568134445095e-01
5.840000000000000954e+09,-7.940146700900200364e-06,1.933442113589021387e-04,-7.183695721139230495e-01,1.135641861523910105e-02,1.935071833179007245e-04,7.184593310570233093e-01
5.920000000000000000e+09,-9.561419252013089634e-06,1.944346507455767844e-04,-7.182995243769753069e-01,1.163664080749557753e-02,1.946696025286618541e-04,7.183937765108155959e-01
6.000000000000000000e+09,-1.135488480808697362e-05,1.950879646083014218e-04,-7.182129466943033558e-01,1.192465067199237685e-02,1.954181346344673032e-04,7.183119336980023917e-01
6.080000000000000000e+09,-1.334715107266437056e-05,1.951280286708262444e-04,-7.181082092315815846e-01,1.221829794937625419e-02,1.955839819993429672e-04,7.182121462148692848e-01
6.160000000000000000e+09,-1.559773635976968194e-05,1.942949478042897715e-04,-7.179841616250350889e-01,1.251536195538699263e-02,1.949200249379744122e-04,7.180932325466372612e-01
6.239999999999999046e+09,-1.823050535724504413e-05,1.922394203750115750e-04,-7.178400109744428326e-01,1.281362798013635160e-02,1.931019059245686446e-04,7.179543651359754364e-01
6.320000000000000000e+09,-2.147541349666616100e-05,1.885243158081899284e-04,-7.176752424523268337e-01,1.311090785656428455e-02,1.897435401688260938e-04,7.177949912989288750e-01
6.400000000000000954e+09,-2.571892227071930805e-05,1.826369833907732360e-04,-7.174895711325562919e-01,1.340504303246679331e-02,1.844389618948471784e-04,7.176147851477712170e-01
6.480000000000000000e+09,-3.156028636735925825e-05,1.740162503517498379e-04,-7.172829126210389372e-01,1.369390328615113783e-02,1.768550453396017697e-04,7.174136183021140312e-01
6.560000000000000000e+09,-3.986945110477619443e-05,1.620981318733712780e-04,-7.170553648080680853e-01,1.397538511420517125e-02,1.669292589339358573e-04,7.171915417718769392e-01
6.640000000000000000e+09,-1.853506968037443490e-04,1.504486518574296814e-04,-7.168071964508706539e-01,1.424741085142275897e-02,2.387251089670955350e-04,7.169487747389811094e-01
6.720000000000000000e+09,-6.903715253884807213e-05,1.265317701156704923e-04,-7.165388403194489220e-01,1.450792873885712458e-02,1.441402694574873413e-04,7.166856979755019674e-01
6.799999999999999046e+09,-9.341176984257001286e-05,1.024752335059873025e-04,-7.162508896179800022e-01,1.475491396966214196e-02,1.386612138531460132e-04,7.164028506118605977e-01
6.880000000000000000e+09,-1.273063145622899432e-04,7.456263284392442188e-05,-7.159440970425311468e-01,1.498637081133365363e-02,1.475346872571009743e-04,7.161009296182627715e-01
6.960000000000000954e+09,-1.734091199293841246e-04,4.371510862759458088e-05,-7.156193760237338219e-01,1.520033598661760417e-02,1.788343747633712715e-04,7.157807915519277531e-01
7.039999999999999046e+09,-2.346689572059209141e-04,1.159511408477996658e-05,-7.152778038701871344e-01,1.539488359896358516e-02,2.349552428586206270e-04,7.154434562915391593e-01
7.120000000000000000e+09,-3.141560137675248319e-04,-1.922685764155722789e-05,-7.149206265170271468e-01,1.556813196148388624e-02,3.147438212913320670e-04,7.150901124699382549e-01
7.200000000000000000e+09,-4.103436587099074453e-04,-5.167801774870944614e-05,-7.145154356006174767e-01,1.582923848925617966e-02,4.135849800970399742e-04,7.146907530552566445e-01
7.280000000000000000e+09,-5.448482514137889966e-04,-5.264407858263439729e-05,-7.141097301129597508e-01,1.595763486425073180e-02,5.473856191739767977e-04,7.142880040659124186e-01
7.359999999999999046e+09,-6.899570701511116393e-04,-6.161908975864383020e-05,-7.137705828745519732e-01,1.594213935445212491e-02,6.927031621655771075e-04,7.139485953374195004e-01
7.440000000000000000e+09,-8.673655632531679979e-04,-3.884306899762488170e-05,-7.133670391643658348e-01,1.601263793845387681e-02,8.682348785476425761e-04,7.135467308732357239e-01
7.520000000000000000e+09,-1.071279310519769037e-03,1.554911086680240209e-05,-7.129568746743408791e-01,1.605351484820083385e-02,1.071392148560208410e-03,7.131375887473505593e-01
7.599999999999999046e+09,-1.299453696019486947e-03,1.110382202638736989e-04,-7.125424791459763485e-01,1.606345260572930242e-02,1.304189171270055299e-03,7.127235221999556058e-01
7.680000000000000000e+09,-1.547380558998460911e-03,2.577923385876593892e-04,-7.121264462563948738e-01,1.604130923703348671e-02,1.568707584032436476e-03,7.123070960335858848e-01
7.760000000000000954e+09,-1.807891863117421557e-03,4.662397605169729849e-04,-7.117115696701816763e-01,1.598615076840289098e-02,1.867043787117245385e-03,7.118910839579212224e-01
7.840000000000000000e+09,-2.070823687514369068e-03,7.465121875449491455e-04,-7.113008338812195630e-01,1.589728636405965748e-02,2.201270358434818681e-03,7.114784606675449430e-01
7.919999999999999046e+09,-2.322775939159049154e-03,1.107759537764108895e-03,-7.108973988546359868e-01,1.577430528431267992e-02,2.573406158585067691e-03,7.110723875988225195e-01
8.000000000000000000e+09,-2.547005516571470250e-03,1.557347547179500653e-03,-7.105045775752582005e-01,1.561711456495439021e-02,2.985392517601581728e-03,7.106761913999448677e-01
8.080000000000000000e+09,-2.723491092713277353e-03,2.099956614613395812e-03,-7.101258057002186597e-01,1.542597592743074481e-02,3.439072769708008750e-03,7.102933342322018673e-01
8.159999999999999046e+09,-2.829206639604953111e-03,2.736611425016172335e-03,-7.097646029346158514e-01,1.520154034243363997e-02,3.936172290577967005e-03,7.099273754460490027e-01
8.240000000000000000e+09,-2.838637125314478170e-03,3.463681022412574972e-03,-7.094245259345368648e-01,1.494487826234041500e-02,4.478274997611766603e-03,7.095819243637190299e-01
8.320000000000000954e+09,-2.724564032478965329e-03,4.271900536492108033e-03,-7.091091131075935028e-01,1.465750348997746193e-02,5.066792216063295377e-03,7.092605844827389872e-01
8.400000000000000000e+09,-2.459139493645007193e-03,5.145476641163359774e-03,-7.088218221215003556e-01,1.434138858221620932e-02,5.702920033979293549e-03,7.089668898771719352e-01
8.480000000000000000e+09,-2.015256101847600657e-03,6.061349577473138482e-03,-7.085659615245527565e-01,1.399896972172761343e-02,6.387582943208470684e-03,7.087042351958141584e-01
8.560000000000000000e+09,-1.368204273312657697e-03,6.988693719085311944e-03,-7.083446184469186502e-01,1.363313933555816357e-02,7.121363832349355584e-03,7.084758012598972865e-01
8.640000000000000000e+09,-4.975902877465301737e-04,7.888745856692027172e-03,-7.081605849256397134e-01,1.324722502496267912e-02,7.904423273454889640e-03,7.082844788734863339e-01
8.720000000000000000e+09,6.105342418331039227e-04,8.715054097665672281e-03,-7.080162858035745632e-01,1.284495408881865079e-02,8.736413450935684791e-03,7.081327939084820500e-01
8.800000000000000000e+09,1.961407069710008680e-03,9.414239537588360573e-03,-7.079137114677316323e-01,1.243040358993564333e-02,9.616393490503616012e-03,7.080228370733725463e-01
8.880000000000000000e+09,3.549259278095924681e-03,9.927355958230426117e-03,-7.078543588298026323e-01,1.200793678254838924e-02,1.054275285419150644e-02,7.079562019363376812e-01
8.959999999999998093e+09,5.355126188952540230e-03,1.019191749241164270e-02,-7.078391837233212192e-01,1.158212765814003488e-02,1.151314720967867161e-02,7.079339345554690466e-01
9.040000000000000000e+09,7.344936742317767844e-03,1.014463929263313691e-02,-7.078685674727318577e-01,1.115767618186867122e-02,1.252444817651802642e-02,7.079564976421057754e-01
9.120000000000000000e+09,9.468085759331688889e-03,9.724897771492197959e-03,-7.079422998773703402e-01,1.073931753496356299e-02,1.357270365888953861e-02,7.080237516473422144e-01
9.200000000000000000e+09,1.150512201462282336e-02,8.562043884401796673e-03,-7.080595796491574445e-01,1.033172925420590069e-02,1.434142350151410006e-02,7.081349539193244613e-01
9.280000000000000000e+09,1.382600407260065403e-02,7.564202355369541858e-03,-7.082190326004730307e-01,9.939440374229051300e-03,1.575993483135472786e-02,7.082887762858470770e-01
9.360000000000000000e+09,1.587557623387324604e-02,5.755113369500899564e-03,-7.084187466546705281e-01,9.566746618788769460e-03,1.688654051762317199e-02,7.084833401376791073e-01
9.440000000000000000e+09,1.746552886644721705e-02,3.375274625473240198e-03,-7.086563216851390345e-01,9.217635355288232926e-03,1.778868115915467618e-02,7.087162669685621585e-01
9.520000000000000000e+09,1.915577984111220544e-02,6.635055469231586692e-04,-7.089289314243906182e-01,8.895723289607908313e-03,1.916726743518644069e-02,7.089847415166095068e-01
9.600000000000000000e+09,2.014263540019838733e-02,-2.544140054915766669e-03,-7.092333939227055684e-01,8.604209088122295734e-03,2.030267000875382588e-02,7.092855838582592387e-01
9.680000000000000000e+09,2.053628089912566332e-02,-6.090111671662350352e-03,-7.095662467250475336e-01,8.345841976604142717e-03,2.142027762054244527e-02,7.096153264760911572e-01
9.760000000000000000e+09,2.023505232406970847e-02,-9.855901009004500515e-03,-7.099238229713923376e-01,8.122906440752634960e-03,2.250769040255207534e-02,7.099702923583225411e-01
9.840000000000000000e+09,1.916223944905887100e-02,-1.369216502473919253e-02,-7.103023247433328802e-01,7.937222041516983281e-03,2.355136522089025866e-02,7.103466703163459073e-01
9.920000000000000000e+09,1.727583073361623617e-02,-1.742414618571722779e-02,-7.106978905770133803e-01,7.790156660704982382e-03,2.453681311494635559e-02,7.107405843283572944e-01
1.000000000000000000e+10,1.441120204166691961e-02,-2.079186159031852152e-02,-7.111401622506655640e-01,7.625848943407786094e-03,2.529791004562842102e-02,7.111810486353039584e-01
1.008000000000000000e+10,1.111691911479505829e-02,-2.380452097870524447e-02,-7.115247970224307661e-01,7.615250220302098236e-03,2.627244011565187456e-02,7.115655477984647037e-01
1.016000000000000000e+10,6.998364827671307332e-03,-2.606947629418795292e-02,-7.119485808947516592e-01,7.588144285787203590e-03,2.699249348456741679e-02,7.119890180134471613e-01
1.024000000000000000e+10,2.375064468102866880e-03,-2.749287411231269782e-02,-7.123743821236345752e-01,7.601207104783853918e-03,2.759527238827546788e-02,7.124149343293415537e-01
1.032000000000000000e+10,-2.555651421120910208e-03,-2.795206458974954650e-02,-7.127987059794222979e-01,7.654039414983009396e-03,2.806865278234436240e-02,7.128397993696093948e-01
1.040000000000000000e+10,-7.564431285153916905e-03,-2.737696145132196765e-02,-7.132181951102800621e-01,7.746009107293323412e-03,2.840279280238097379e-02,7.132602571947043169e-01
1.048000000000000000e+10,-1.240566211166819338e-02,-2.575892776978394583e-02,-7.136296285879772938e-01,7.876288818382733495e-03,2.859060706382126130e-02,7.136730923358152179e-01
1.056000000000000000e+10,-1.683577403303446879e-02,-2.315433766768591750e-02,-7.140299129886199525e-01,8.043889465375058181e-03,2.862807433483112798e-02,7.140752206877559738e-01
1.064000000000000000e+10,-2.063208773298091242e-02,-1.968210431463791529e-02,-7.144160664325999166e-01,8.247688537153881685e-03,2.851435207879901915e-02,7.144636732145552838e-01
1.072000000000000000e+10,-2.361004098638513557e-02,-1.551529300928898049e-02,-7.147851961309718005e-01,8.486452154239852025e-03,2.825169645424637985e-02,7.148355730363158411e-01
1.080000000000000000e+10,-2.563683665694042532e-02,-1.086776651354226519e-02,-7.151344701032713580e-01,8.758849763768379246e-03,2.784521040982658804e-02,7.151881065699225992e-01
1.088000000000000000e+10,-2.664008659993344352e-02,-5.977468237839331233e-03,-7.154610836278336716e-01,9.063459905274020081e-03,2.730246033943335704e-02,7.155184892728968515e-01
1.096000000000000000e+10,-2.661076560307636119e-02,-1.088312352509816826e-03,-7.157622212425598374e-01,9.398765340679631972e-03,2.663301090298461626e-02,7.158239267780955872e-01
1.104000000000000000e+10,-2.560057531975977463e-02,3.567327969671360045e-03,-7.160350155174612929e-01,9.763135225100109602e-03,2.584792613626657812e-02,7.161015725834671830e-01
1.112000000000000191e+10,-2.371450195160502983e-02,7.783827145248190318e-03,-7.162765045213241866e-01,1.015479170420512459e-02,2.495927819148184568e-02,7.163484841359283317e-01
1.120000000000000000e+10,-2.109982258653450571e-02,1.139399647021862791e-02,-7.164835908042631596e-01,1.057175794224016543e-02,2.397969284095578454e-02,7.165615800179074846e-01
1.128000000000000000e+10,-1.793303231167295633e-02,1.427662643748214485e-02,-7.166530061853771949e-01,1.101178438002605418e-02,2.292194822276065816e-02,7.167376023830273057e-01
1.135999999999999809e+10,-1.440613957453984115e-02,1.635982075481792405e-02,-7.167812883610540364e-01,1.147225023148347282e-02,2.179863740170229561e-02,7.168730904908526824e-01
1.143999999999999809e+10,-1.071358527702554776e-02,1.762048232787444962e-02,-7.168647777708697655e-01,1.195003773522518471e-02,2.062188902489377543e-02,7.169643735991013678e-01
1.152000000000000000e+10,-7.040700458727508666e-03,1.808068213740790520e-02,-7.168996460547667482e-01,1.244137842821562388e-02,1.940315771990494889e-02,7.170075943884024472e-01
1.160000000000000000e+10,-3.554297518062744278e-03,1.780171512381144988e-02,-7.168819707156693921e-01,1.294167365372693099e-02,1.815307390488575881e-02,7.169987774425710114e-01
1.168000000000000191e+10,-3.956244172537478482e-04,1.687672736849005206e-02,-7.168078739994370174e-01,1.344529674824369338e-02,1.688136384744634566e-02,7.169339608584888168e-01
1.176000000000000000e+10,2.324359537466819114e-03,1.542267532775020052e-02,-7.166737463379758699e-01,1.394539248929091077e-02,1.559684460154065096e-02,7.168094116721610565e-01
1.184000000000000000e+10,4.527638894275445858e-03,1.357221941568460474e-02,-7.164765743980365809e-01,1.443370099810459620e-02,1.430750340990495639e-02,7.166219459280100956e-01
1.191999999999999809e+10,6.170095822552279334e-03,1.146593976842383636e-02,-7.162143883304660230e-01,1.490044815971998046e-02,1.302067038337889615e-02,7.163693693946887597e-01
1.200000000000000000e+10,7.241143822138498137e-03,9.245037019004368611e-03,-7.158868287119523055e-01,1.533436129382950708e-02,1.174329056677283004e-02,7.160510415881997659e-01
1.208000000000000000e+10,7.716928132161249461e-03,7.114070799064453610e-03,-7.154273116468912175e-01,1.561596617623904615e-02,1.049576024550119384e-02,7.155977198467834421e-01
1.216000000000000000e+10,7.757799366953939575e-03,4.979582064850468504e-03,-7.150718464873153657e-01,1.610260706273763942e-02,9.218442848903029771e-03,7.152531297331006233e-01
1.224000000000000191e+10,7.504554698606714230e-03,3.131118279792010316e-03,-7.145592384546246567e-01,1.633032409523890380e-02,8.131558454959773516e-03,7.147458182780146441e-01
1.232000000000000000e+10,6.750334619177106484e-03,1.642404926649248739e-03,-7.139667292637754681e-01,1.654931908735673279e-02,6.947266470630204631e-03,7.141585051358475544e-01
1.239999999999999809e+10,5.739876394260832841e-03,5.649746348202764126e-04,-7.134496429048503563e-01,1.656333068385460947e-02,5.767614529368536753e-03,7.136418827986493740e-01
1.247999999999999809e+10,4.724222948813572992e-03,-1.730743359294921804e-04,-7.128881059333206371e-01,1.654347513771588576e-02,4.727392219379966849e-03,7.130800362868319198e-01
1.256000000000000000e+10,3.734210393018274135e-03,-5.538193999402320732e-04,-7.123453594917245058e-01,1.642388783115438303e-02,3.775055388610324726e-03,7.125346695290585286e-01
1.264000000000000000e+10,2.866439051626127558e-03,-6.345301327703159119e-04,-7.118424454993791395e-01,1.621016990940300773e-02,2.935830602415747011e-03,7.120269916393817677e-01
1.272000000000000000e+10,2.189442725984352273e-03,-4.977841432201469268e-04,-7.113982138705386982e-01,1.591365881910268565e-02,2.245317016282379671e-03,7.115761823130419828e-01
1.280000000000000191e+10,1.736384185898675247e-03,-2.395314539703804601e-04,-7.110273879994877255e-01,1.555035329564058433e-02,1.752827817693503607e-03,7.111974127997044981e-01
1.288000000000000000e+10,1.503109597095766362e-03,4.526904601560193583e-05,-7.107392376352663632e-01,1.513910551274183329e-02,1.503791124926783093e-03,7.109004546559845039e-01
