# Frequency, Real(S21), Imag(S21), Real(S11), Imag(S11), Amp(S21), Amp(S11)
4.000000000000000000e+09,2.116646442898952236e-05,1.444569546767030617e-04,-7.187940261034453382e-01,6.835582258790628453e-03,1.459994211320398403e-04,7.188265278541250414e-01
4.080000000000000000e+09,2.724220988768037393e-06,1.467613088611129817e-04,-7.187556410751088087e-01,6.993513849232817561e-03,1.467865905272775363e-04,7.187896638191524357e-01
4.160000000000000477e+09,2.111265737558511973e-05,1.483329715705715153e-04,-7.187143471988498566e-01,7.154163862859339376e-03,1.498279505179685341e-04,7.187499529948128130e-01
4.240000000000000000e+09,2.039355798421406293e-05,1.481108974604113961e-04,-7.187370702070586814e-01,7.318056837459764596e-03,1.495083113200868083e-04,7.187743248375686456e-01
4.320000000000000000e+09,7.771253232487839520e-07,1.462350925065344811e-04,-7.187226718690092886e-01,7.482744660152850294e-03,1.462371573990780540e-04,7.187616228807549579e-01
4.400000000000000000e+09,1.688230323261085390e-06,1.447648406796545506e-04,-7.187305614511065865e-01,7.652132219752374141e-03,1.447746843154221652e-04,7.187712954002346555e-01
4.480000000000000000e+09,2.282754618491379461e-05,1.439338424537899485e-04,-7.187088550523792474e-01,7.821368136435070256e-03,1.457327961316079380e-04,7.187514119152932368e-01
4.560000000000000000e+09,4.740002630270167880e-07,1.429498717824875245e-04,-7.187011811646750736e-01,7.994658769189815981e-03,1.429506576370985916e-04,7.187456451181704065e-01
4.640000000000000000e+09,5.988888740291874613e-07,1.436442407968821174e-04,-7.186929149493523905e-01,8.170870528442028199e-03,1.436454892504324013e-04,7.187393610507146757e-01
4.720000000000000000e+09,7.642931952546566632e-07,1.455955855476711593e-04,-7.186839807095843913e-01,8.350243988405147907e-03,1.455975915839871962e-04,7.187324889715506204e-01
4.800000000000000000e+09,9.104618914101171985e-07,1.487227382577991351e-04,-7.186742878766346765e-01,8.533055941872813577e-03,1.487255250982612558e-04,7.187249439797502859e-01
4.880000000000000000e+09,-9.592099233653648656e-08,1.528341180569608754e-04,-7.186439985717559820e-01,8.720322662590424337e-03,1.528341481576870134e-04,7.186969046201199252e-01
4.960000000000000000e+09,9.320006205833226395e-07,1.574921611205668014e-04,-7.186521634613413090e-01,8.910315060541636190e-03,1.574949187738554921e-04,7.187073992677023293e-01
5.040000000000000000e+09,7.341410763026870321e-07,1.624725065911132007e-04,-7.186394306814103405e-01,9.105549093771959923e-03,1.624741652113320992e-04,7.186971144747978935e-01
5.120000000000000000e+09,3.752974392894237000e-07,1.674223931088623268e-04,-7.186253173338554845e-01,9.305813923211262231e-03,1.674228137455178794e-04,7.186855674674134109e-01
5.200000000000000000e+09,-1.434874783057959205e-07,1.720950804202231183e-04,-7.186095506904048857e-01,9.511676505713311663e-03,1.720951402378913524e-04,7.186724972707769776e-01
5.280000000000000000e+09,-8.127263857072515086e-07,1.763275627268604375e-04,-7.185917698842391177e-01,9.723800172229651873e-03,1.763294357201114926e-04,7.186575568622045607e-01
5.360000000000000000e+09,-1.620039498467879902e-06,1.800400482439050637e-04,-7.185714833777735455e-01,9.942964132657147736e-03,1.800473368301910100e-04,7.186402711089027173e-01
5.440000000000000000e+09,-2.555039164161078852e-06,1.832218184698817262e-04,-7.185479987710298166e-01,1.017008111573727142e-02,1.832396326904763429e-04,7.186199670811774798e-01
5.520000000000000000e+09,-3.612656544261538431e-06,1.859090167248023139e-04,-7.185203057878043476e-01,1.040619590852159479e-02,1.859441146874232754e-04,7.185956573363676547e-01
5.600000000000000000e+09,-4.794440452753352786e-06,1.881594979653217811e-04,-7.184868940089490508e-01,1.065241149298694866e-02,1.882205709634760806e-04,7.185658569214394831e-01
5.680000000000000000e+09,-6.107732477309367724e-06,1.900287256831831046e-04,-7.184455527182647128e-01,1.090962535033600418e-02,1.901268549700142350e-04,7.185283794993331252e-01
5.760000000000000000e+09,-7.563123127388354645e-06,1.915484966569142608e-04,-7.183934124411958111e-01,1.117801821342973359e-02,1.916977501249400053e-04,7.184803707340138290e-01
5.840000000000000954e+09,-9.171770997760258381e-06,1.927080879417792237e-04,-7.183274877273058134e-01,1.145668232615831665e-02,1.929262256444464624e-04,7.184188438470592297e-01
5.920000000000000000e+09,-1.094608162299578691e-05,1.934365753274051923e-04,-7.182452894439202984e-01,1.174384462957754789e-02,1.937460331911138500e-04,7.183412933244646137e-01
6.000000000000000000e+09,-1.290795675250656609e-05,1.935864887347175586e-04,-7.181449862067258438e-01,1.203733637382792959e-02,1.940163497444519669e-04,7.182458622789518188e-01
6.080000000000000000e+09,-1.510753863115912429e-05,1.929204002854805866e-04,-7.180252846063303052e-01,1.233487882566760251e-02,1.935110295817838518e-04,7.181312265663187810e-01
6.160000000000000000e+09,-1.765364551441079953e-05,1.911027642554637791e-04,-7.178852894724705447e-01,1.263418943438364243e-02,1.919164341739076928e-04,7.179964565258221132e-01
6.239999999999999046e+09,-2.075568745982649208e-05,1.876997883271397524e-04,-7.177244099255123411e-01,1.293301134595644004e-02,1.888438749337215366e-04,7.178409234540752415e-01
6.320000000000000000e+09,-2.477565775095083860e-05,1.821905658003903337e-04,-7.175423027108351892e-01,1.322911846027211014e-02,1.838674399768991450e-04,7.176642430515843829e-01
6.400000000000000954e+09,-3.028736266601511509e-05,1.739935186249783028e-04,-7.173388381480122478e-01,1.352031426370148108e-02,1.766099342074601316e-04,7.174662414450796444e-01
6.480000000000000000e+09,-3.813859160098687410e-05,1.625124474068432277e-04,-7.171140792857385593e-01,1.380442996218098593e-02,1.669276721561432811e-04,7.172469344628900068e-01
6.560000000000000000e+09,-4.951037822224939647e-05,1.472047927774233615e-04,-7.168682689661335372e-01,1.407932339976222108e-02,1.553078509553021359e-04,7.170065148922259990e-01
6.640000000000000000e+09,-6.596587876443746139e-05,1.276768125178363129e-04,-7.166018220418833851e-01,1.434287901187143721e-02,1.437110490389628388e-04,7.167453449671621346e-01
6.720000000000000000e+09,-8.948024197056740668e-05,1.038046685120813287e-04,-7.163153211907457019e-01,1.459300885850035347e-02,1.370478854561951319e-04,7.164639525336535808e-01
6.799999999999999046e+09,-1.224417714880054672e-04,7.588094771641252069e-05,-7.160095155374587295e-01,1.482765476336245745e-02,1.440482753505291889e-04,7.161630301027607226e-01
6.880000000000000000e+09,-1.676144238553476415e-04,4.478151696019232929e-05,-7.156853216250232963e-01,1.504479173167320126e-02,1.734934562040197790e-04,7.158434363376969811e-01
6.960000000000000954e+09,-2.280520206834835356e-04,1.214501853594897990e-05,-7.153438263675243602e-01,1.524243292979247238e-02,2.283751860712072783e-04,7.155061996123793788e-01
7.039999999999999046e+09,-3.069559400907832455e-04,-1.944691933376332135e-05,-7.149862917359982584e-01,1.541863658514133935e-02,3.075713442903782978e-04,7.151525233994064923e-01
7.120000000000000000e+09,-4.074703371814208594e-04,-4.630361449664232546e-05,-7.146141607979455967e-01,1.557151523860162388e-02,4.100927948625707046e-04,7.147837931149376711e-01
7.200000000000000000e+09,-5.389675708078713523e-04,-4.847965065884145665e-05,-7.141612709486032662e-01,1.579554573763015252e-02,5.411435289371398618e-04,7.143359295094108274e-01
7.280000000000000000e+09,-6.839390332196152627e-04,-6.475091024773431229e-05,-7.138328298062908139e-01,1.580009484150478316e-02,6.869972936913886549e-04,7.140076693609512803e-01
7.359999999999999046e+09,-8.631579287400928911e-04,-4.248863331867628722e-05,-7.134274849942234820e-01,1.587241744540499738e-02,8.642030397471280262e-04,7.136040288428479039e-01
7.440000000000000000e+09,-1.069694042477914355e-03,1.214040247370356401e-05,-7.130152670752802901e-01,1.591469991093311803e-02,1.069762933497401267e-03,7.131928552332028604e-01
7.520000000000000000e+09,-1.301231906877740353e-03,1.090364679410800539e-04,-7.125986245865657542e-01,1.592557637594209721e-02,1.305792260207475205e-03,7.127765594809997163e-01
7.599999999999999046e+09,-1.553057622790052651e-03,2.588322665493356274e-04,-7.121802181960471545e-01,1.590386127079159578e-02,1.574478365019143632e-03,7.123577724662586430e-01
7.680000000000000000e+09,-1.817631472624238031e-03,4.724315971422602713e-04,-7.117629168117414196e-01,1.584858325023564760e-02,1.878024436542970882e-03,7.119393424579073537e-01
7.760000000000000954e+09,-2.084226647542291276e-03,7.604053490224458407e-04,-7.113497882399572037e-01,1.575902208298090787e-02,2.218606998354446126e-03,7.115243270655219332e-01
7.840000000000000000e+09,-2.338673673813464974e-03,1.132247698386976793e-03,-7.109440833087741218e-01,1.563474749758106061e-02,2.598341664040888788e-03,7.111159785302719749e-01
7.919999999999999046e+09,-2.563252411035857499e-03,1.595504595864366505e-03,-7.105492124171759460e-01,1.547565887773847196e-02,3.019254516947097837e-03,7.107177212398528843e-01
8.000000000000000000e+09,-2.736774311762865501e-03,2.154796581496964351e-03,-7.101687137819771012e-01,1.528202424891370037e-02,3.483257375095344562e-03,7.103331206552966348e-01
8.080000000000000000e+09,-2.834895918200313128e-03,2.810769576496765978e-03,-7.098062127924693598e-01,1.505451675081510149e-02,3.992124807566593131e-03,7.099658429765398626e-01
8.159999999999999046e+09,-2.830700614265840680e-03,3.559018756616677027e-03,-7.094653724165774777e-01,1.479424655469051275e-02,4.547469678574484961e-03,7.096196054149813692e-01
8.240000000000000000e+09,-2.695578514869848268e-03,4.389043529986241116e-03,-7.091498349505129806e-01,1.450278598723588573e-02,5.150713216433431413e-03,7.092981173045163068e-01
8.320000000000000954e+09,-2.400424167435646905e-03,5.283303731272989689e-03,-7.088631560757305827e-01,1.418218562322493860e-02,5.803045278170093461e-03,7.090050129799486678e-01
8.400000000000000000e+09,-1.917157884080797781e-03,6.216458876772263525e-03,-7.086087326954449983e-01,1.383497912401464996e-02,6.505371266814356443e-03,7.087437778912818453e-01
8.480000000000000000e+09,-1.220558679843842739e-03,7.154882337971481959e-03,-7.083897267213943305e-01,1.346417497859654470e-02,7.258243917171591439e-03,7.085176701623367990e-01
8.560000000000000000e+09,-2.903749731047214041e-04,8.056549801111586445e-03,-7.082089875424821823e-01,1.307323363376951611e-02,8.061780964699841873e-03,7.083296404031040883e-01
8.640000000000000000e+09,8.863469850754618351e-04,8.871404777163799729e-03,-7.080689763783262203e-01,1.266602929803837055e-02,8.915572539003709801e-03,7.081822531012970101e-01
8.720000000000000000e+09,2.312807250528492106e-03,9.542301889917451790e-03,-7.079716960132172998e-01,1.224679641111577240e-02,9.818584558703933804e-03,7.080776132445981697e-01
8.800000000000000000e+09,3.979993202274937497e-03,1.000661902906078808e-02,-7.079186295695605313e-01,1.182006167318659304e-02,1.076906543219587759e-02,7.080173020128834871e-01
8.880000000000000000e+09,5.864378232721157401e-03,1.019861034775681671e-02,-7.079106916340667244e-01,1.139056372700244894e-02,1.176446280464119379e-02,7.080023250469179574e-01
8.959999999999998093e+09,7.925976701677042366e-03,1.005254045455731583e-02,-7.079481947849327605e-01,1.096316312034468707e-02,1.280135446997850666e-02,7.080330765189211117e-01
9.040000000000000000e+09,1.010698892354746498e-02,9.506594256145325592e-03,-7.080308335593139546e-01,1.054274637527996376e-02,1.387539402870010229e-02,7.081093212010630689e-01
9.120000000000000000e+09,1.233129903047599021e-02,8.507493393704127979e-03,-7.081576871527494044e-01,1.013412819214695032e-02,1.498126762403427341e-02,7.082301959304941885e-01
9.200000000000000000e+09,1.450510439447072822e-02,7.015668973681302330e-03,-7.083272408434566625e-01,9.741956319486778579e-03,1.611265541873121640e-02,7.083942305198674960e-01
9.280000000000000000e+09,1.629777868010473529e-02,5.017019989567132396e-03,-7.085374250404224972e-01,9.370623299553029750e-03,1.705250947753416887e-02,7.085993870050513177e-01
9.360000000000000000e+09,1.828007406420561337e-02,2.495077405997516481e-03,-7.087856697529369976e-01,9.024189031140095879e-03,1.844956690696998233e-02,7.088431149660615604e-01
9.440000000000000000e+09,1.938841072489222439e-02,-5.121800626746858542e-04,-7.090689713166492547e-01,8.706317203803470503e-03,1.939517462807997805e-02,7.091224196450880424e-01
9.520000000000000000e+09,2.046527624380961238e-02,-3.952580828766979332e-03,-7.093839676118633975e-01,8.420227742367135393e-03,2.084347444509610653e-02,7.094339389541373109e-01
9.600000000000000000e+09,2.049381189241978804e-02,-7.592485479921222066e-03,-7.097270176865724256e-01,8.168666273492353538e-03,2.185502600421013880e-02,7.097740251255775235e-01
9.680000000000000000e+09,1.987493388064557470e-02,-1.146514313011812863e-02,-7.100942816421449422e-01,7.953890495674261971e-03,2.294477072786146182e-02,7.101388267056597536e-01
9.760000000000000000e+09,1.843742209524528580e-02,-1.533951655973110964e-02,-7.104817971241903507e-01,7.777672332866050926e-03,2.398414688506772877e-02,7.105243670921754795e-01
9.840000000000000000e+09,1.615486479097952288e-02,-1.902416634218462993e-02,-7.108855491418918371e-01,7.641313840357397656e-03,2.495793584072890370e-02,7.109266162241895115e-01
9.920000000000000000e+09,1.304995457615950108e-02,-2.231460735106214829e-02,-7.113015309375464446e-01,7.545674390976295220e-03,2.585039681846108828e-02,7.113415530644277007e-01
1.000000000000000000e+10,9.199847563995814173e-03,-2.500718258179581224e-02,-7.117257942886127120e-01,7.491206207855358179e-03,2.664575718346227917e-02,7.117652172073353212e-01
1.008000000000000000e+10,4.737202765232416748e-03,-2.691511150993316365e-02,-7.121544885159355465e-01,7.477995390181126426e-03,2.732881844557247253e-02,7.121937488692591245e-01
1.016000000000000000e+10,-1.540057707718519697e-04,-2.788520892508304649e-02,-7.125838881149970661e-01,7.505805724352688016e-03,2.788563419707291297e-02,7.126234171851627552e-01
1.024000000000000000e+10,-5.286515246043146238e-03,-2.781979332132927807e-02,-7.130883200858177950e-01,7.550603875601351322e-03,2.831762955983645885e-02,7.131282941110246298e-01
1.032000000000000000e+10,-1.029313911314009775e-02,-2.665680837842355003e-02,-7.134306172654832912e-01,7.682197318705865502e-03,2.857506160494578326e-02,7.134719768900892323e-01
1.040000000000000000e+10,-1.502834122866104384e-02,-2.444115769574020658e-02,-7.138412218997829406e-01,7.829083387773282804e-03,2.869183210589930366e-02,7.138841535081639211e-01
1.048000000000000000e+10,-1.920581220638794065e-02,-2.126130309951143951e-02,-7.142390679501751105e-01,8.013674862652661254e-03,2.865146125411991568e-02,7.142840227606517267e-01
1.056000000000000000e+10,-2.260991422348448618e-02,-1.727543389145101693e-02,-7.146211151983458132e-01,8.234734069057305511e-03,2.845432897348346146e-02,7.146685589365994185e-01
1.064000000000000000e+10,-2.507447816285182651e-02,-1.269295631422171465e-02,-7.149844123780043637e-01,8.490914274126704422e-03,2.810410281674321706e-02,7.150348282207873440e-01
1.072000000000000000e+10,-2.649504190992314420e-02,-7.757691943702621842e-03,-7.153260644068170082e-01,8.780773498135181071e-03,2.760740897117968176e-02,7.153799552706039400e-01
1.080000000000000000e+10,-2.683501609441234573e-02,-2.728420521867600413e-03,-7.156431938721035113e-01,9.102777984347793644e-03,2.697336403438618108e-02,7.157010839047943662e-01
1.088000000000000000e+10,-2.612545053171603376e-02,2.140946751541676889e-03,-7.159328978154007039e-01,9.455292980584593249e-03,2.621302764806229812e-02,7.159953329035781966e-01
1.096000000000000000e+10,-2.445893691427543024e-02,6.619435379700291944e-03,-7.161922015253933127e-01,9.836558272828720140e-03,2.533883422185269352e-02,7.162597485580523005e-01
1.104000000000000000e+10,-2.197885546702665893e-02,1.051365442468512809e-02,-7.164180118436525024e-01,1.024464529026550622e-02,2.436405173615728559e-02,7.164912563675395196e-01
1.112000000000000191e+10,-1.886556421583959059e-02,1.367799928663077612e-02,-7.166070737523939638e-01,1.067739246378598961e-02,2.330229983643329617e-02,7.166866155174064223e-01
1.120000000000000000e+10,-1.532122649602216113e-02,1.602005970836309356e-02,-7.167559356708909091e-01,1.113231536077603605e-02,2.216714448010681515e-02,7.168423813954822865e-01
1.128000000000000000e+10,-1.155481971958393327e-02,1.750146904977787840e-02,-7.168609311184013233e-01,1.160648845104337960e-02,2.097177335497450723e-02,7.169548836140985371e-01
1.135999999999999809e+10,-7.768550291823477644e-03,1.813486130044183325e-02,-7.169181872703394021e-01,1.209639649675555567e-02,1.972874978357355355e-02,7.170202298730462553e-01
1.143999999999999809e+10,-4.146499822716815352e-03,1.797785145144365979e-02,-7.169236743758832242e-01,1.259775583303776418e-02,1.844984020499813165e-02,7.170343494789118699e-01
1.152000000000000000e+10,-8.459257050810941800e-04,1.712503298705434635e-02,-7.168733138875048594e-01,1.310531015883807833e-02,1.714591336459555387e-02,7.169930943310488525e-01
1.160000000000000000e+10,2.008716426812840079e-03,1.569892448591516526e-02,-7.167631664558574700e-01,1.361261254747574319e-02,1.582691289221667755e-02,7.168924187130136794e-01
1.168000000000000191e+10,4.329230888089169796e-03,1.384063408025009226e-02,-7.165897227453021934e-01,1.411181617137136426e-02,1.450190993716916205e-02,7.167286614192596161e-01
1.176000000000000000e+10,6.064992234130047767e-03,1.170078564210039196e-02,-7.163503174344463265e-01,1.459351109047092934e-02,1.317924563252542355e-02,7.164989517468812741e-01
1.184000000000000000e+10,7.202534102116870535e-03,9.431001607555170724e-03,-7.160436765804566450e-01,1.504666238329876483e-02,1.186677246827732429e-02,7.162017514777065941e-01
1.191999999999999809e+10,7.715564553342523120e-03,7.245590858839121885e-03,-7.156039267810015980e-01,1.535158776734266844e-02,1.058435275633274816e-02,7.157685738221311045e-01
1.200000000000000000e+10,7.803119660781029573e-03,5.066274904349888329e-03,-7.152346364537159884e-01,1.581600509582298947e-02,9.303537920969254596e-03,7.154094849806440504e-01
1.208000000000000000e+10,7.404301186760767726e-03,3.133781923259142295e-03,-7.145888224997986038e-01,1.601093029192429337e-02,8.040165744983911525e-03,7.147681688005290690e-01
1.216000000000000000e+10,6.742885372941183689e-03,1.761056125961835139e-03,-7.141028548017807065e-01,1.615792330228747395e-02,6.969061761199413750e-03,7.142856331478995013e-01
1.224000000000000191e+10,5.722335339069047414e-03,5.571435994327668395e-04,-7.136410516324259712e-01,1.642262551343520727e-02,5.749393943986389269e-03,7.138299890056380992e-01
1.232000000000000000e+10,4.687367900367355768e-03,-1.822921638069277886e-04,-7.130653026192776966e-01,1.643330243831429491e-02,4.690911240513902930e-03,7.132546384206353007e-01
1.239999999999999809e+10,3.683828635489224713e-03,-5.534381575290794712e-04,-7.125010587987495869e-01,1.633978343554506191e-02,3.725169420289442968e-03,7.126883942594124388e-01
1.247999999999999809e+10,2.811963789866427262e-03,-6.180504113880327770e-04,-7.119707829656427567e-01,1.614554104332849988e-02,2.879084345158522060e-03,7.121538276891391517e-01
1.256000000000000000e+10,2.141756064131948752e-03,-4.641772374643130493e-04,-7.114954847072562094e-01,1.586035551001280589e-02,2.191478849093912110e-03,7.116722389103831148e-01
1.264000000000000000e+10,1.705309700224620379e-03,-1.932716544051260761e-04,-7.110924997932458469e-01,1.549952007238388635e-02,1.716226997246191608e-03,7.112613994760869085e-01
1.272000000000000000e+10,1.495032027510546230e-03,9.528741970773354467e-05,-7.107737717918694020e-01,1.508214685050724910e-02,1.498065571207366159e-03,7.109337703477454085e-01
1.280000000000000191e+10,1.468527571002188094e-03,3.193216647145290937e-04,-7.105450175115201050e-01,1.462891533396295900e-02,1.502843821675973373e-03,7.106955938193895150e-01
1.288000000000000000e+10,1.559469241478298688e-03,4.254967898062400828e-04,-7.104059185681013133e-01,1.415975345780526480e-02,1.616475126085247307e-03,7.105470200870408481e-01
