# Frequency, Real(S21), Imag(S21), Real(S11), Imag(S11), Amp(S21), Amp(S11)
4.000000000000000000e+09,2.410633525584643960e-06,1.449773283860697926e-04,-7.187414460718336562e-01,6.894080088938239932e-03,1.449973685966645103e-04,7.187745088980989072e-01
4.080000000000000000e+09,-4.122124543889399840e-05,1.515520945112384097e-04,-7.187357319889198237e-01,7.058189712817736564e-03,1.570580415842400522e-04,7.187703878706123151e-01
4.160000000000000477e+09,1.339458551065278860e-06,1.490609600117153452e-04,-7.187296198819228543e-01,7.224758699604235182e-03,1.490669780629641137e-04,7.187659310470139173e-01
4.240000000000000000e+09,7.924999993423132569e-07,1.488087975172626811e-04,-7.187230658720374921e-01,7.393935466201157457e-03,1.488109077815959126e-04,7.187610977913172494e-01
4.320000000000000000e+09,2.196998982130676564e-05,1.487834988144103108e-04,-7.187160187702203995e-01,7.565890650779470705e-03,1.503968416297561640e-04,7.187558405594040023e-01
4.400000000000000000e+09,2.208940218680926533e-05,1.473346414840927829e-04,-7.187084183987886288e-01,7.740822084958363762e-03,1.489813353082082169e-04,7.187501033070111678e-01
4.480000000000000000e+09,2.234307694758153886e-05,1.461864434585933865e-04,-7.187001934021292060e-01,7.918959971006028775e-03,1.478840401752605342e-04,7.187438193983168855e-01
4.560000000000000000e+09,2.379850980649630569e-05,1.451085166135992512e-04,-7.186912583422638834e-01,8.100572486561860575e-03,1.470471035512400416e-04,7.187369088144818230e-01
4.640000000000000000e+09,-1.611288643450877039e-07,1.452046341231313790e-04,-7.186815097765786309e-01,8.285972106438239254e-03,1.452047235228364657e-04,7.187292743644794202e-01
4.720000000000000000e+09,-7.107240584109757842e-08,1.471667008242404442e-04,-7.186708208497523120e-01,8.475523078960179105e-03,1.471667179860255124e-04,7.187207964378926617e-01
4.800000000000000000e+09,-1.886014394835660408e-08,1.502873463086503011e-04,-7.186590336655281908e-01,8.669650635723837387e-03,1.502873474920667302e-04,7.187113255760035901e-01
4.880000000000000000e+09,-7.155190502756224422e-08,1.543328516890558682e-04,-7.186459482193591208e-01,8.868852663617617441e-03,1.543328682755271868e-04,7.187006716566158859e-01
4.960000000000000000e+09,-2.830701236590848355e-07,1.589800121465307693e-04,-7.186313058304772960e-01,9.073714749707952054e-03,1.589802641550390147e-04,7.186885876504343074e-01
5.040000000000000000e+09,-6.892170490781832743e-07,1.638792293838281424e-04,-7.186147634273237772e-01,9.284929546390003480e-03,1.638806786768290738e-04,7.186747443262423429e-01
5.120000000000000000e+09,-1.307213733029150751e-06,1.687078140682827100e-04,-7.185958519851365356e-01,9.503320838736409315e-03,1.687128783923801882e-04,7.186586892240350855e-01
5.200000000000000000e+09,-2.138976423156972041e-06,1.732063153168158652e-04,-7.185739065073289966e-01,9.729869907504700224e-03,1.732195222420586627e-04,7.186397772748323032e-01
5.280000000000000000e+09,-3.176572992170738624e-06,1.771954371308142662e-04,-7.185479445118393427e-01,9.965730921411820875e-03,1.772239079694242088e-04,7.186170498638251303e-01
5.360000000000000000e+09,-4.408051342008689797e-06,1.805748333441987378e-04,-7.185164603976829101e-01,1.021218545410435691e-02,1.806286282789052529e-04,7.185890289965217725e-01
5.440000000000000000e+09,-5.821915532199527208e-06,1.833074608286477144e-04,-7.184771499043641763e-01,1.047039640194304816e-02,1.833998906649354646e-04,7.185534386080912883e-01
5.520000000000000000e+09,-7.409079513718961184e-06,1.853935689586896289e-04,-7.184268396555753000e-01,1.074080523221193975e-02,1.855415583379664958e-04,7.185071251104848677e-01
5.600000000000000000e+09,-9.162928128362113724e-06,1.868372731861721162e-04,-7.183620791440943343e-01,1.102255594454777318e-02,1.870618237469362261e-04,7.184466392793390499e-01
5.680000000000000000e+09,-1.108145688654923840e-05,1.876079948653639536e-04,-7.182799712087301058e-01,1.131369025440008384e-02,1.879349845668200065e-04,7.183690671422222618e-01
5.760000000000000000e+09,3.866065383620978263e-05,1.810848989029289558e-04,-7.181784190675331025e-01,1.161175764489210532e-02,1.851658358491847540e-04,7.182722843949534974e-01
5.840000000000000954e+09,-1.550253154795894336e-05,1.866025148647241106e-04,-7.180559688108079097e-01,1.191418599837729478e-02,1.872453658658473842e-04,7.181548037664524653e-01
5.920000000000000000e+09,-1.818471542267903240e-05,1.842666659466853432e-04,-7.179116294428871115e-01,1.221840710250902962e-02,1.851617888607451031e-04,7.180155967396975036e-01
6.000000000000000000e+09,-2.148449193906570897e-05,1.801075296861248383e-04,-7.177447585536549379e-01,1.252188583666421010e-02,1.813844140038446716e-04,7.178539796199161493e-01
6.080000000000000000e+09,-2.586303834729780985e-05,1.735134363042722559e-04,-7.175549968520286148e-01,1.282212249515191776e-02,1.754303546444301888e-04,7.176695481435696466e-01
6.160000000000000000e+09,-3.206125863703635187e-05,1.637872797778615048e-04,-7.173422306182916097e-01,1.311664988357851870e-02,1.668957678385597093e-04,7.174621399994529636e-01
6.239999999999999046e+09,-4.118214517960953132e-05,1.502177554771907768e-04,-7.171065696948002444e-01,1.340303092078089231e-02,1.557605314006071245e-04,7.172318129707485612e-01
6.320000000000000000e+09,-5.476730369163002976e-05,1.321851403039142343e-04,-7.168483345387171024e-01,1.367885790278735268e-02,1.430816860077372776e-04,7.169788322429450078e-01
6.400000000000000954e+09,-7.485602855161841568e-05,1.093035664027026873e-04,-7.165680489410569676e-01,1.394175344923413197e-02,1.324790347144435762e-04,7.167036634847294696e-01
6.480000000000000000e+09,-1.040133551069099909e-04,8.159920427371434714e-05,-7.162664366926285719e-01,1.418937298139727465e-02,1.322013924990940480e-04,7.164069699814209491e-01
6.560000000000000000e+09,-1.453123018966548450e-04,4.972012719052752445e-05,-7.159444212433732080e-01,1.441940867562036682e-02,1.535830593859452680e-04,7.160896128670370953e-01
6.640000000000000000e+09,-2.022553485536722332e-04,1.516939275061309530e-05,-7.156031278743408830e-01,1.462959509456106082e-02,2.028234120977896282e-04,7.157526539777349095e-01
6.720000000000000000e+09,-2.786214344084808679e-04,-1.945244200640347271e-05,-7.152438880138162203e-01,1.481771679114540427e-02,2.792996620331859186e-04,7.153973609624395547e-01
6.799999999999999046e+09,-3.782271468592143197e-04,-5.021423661787313979e-05,-7.148682453629199296e-01,1.498161840237337457e-02,3.815458611757929015e-04,7.150252143233930546e-01
6.880000000000000000e+09,-5.045956164772390923e-04,-7.165499306053705686e-05,-7.144779633985601786e-01,1.511921779707826527e-02,5.096578991819420692e-04,7.146379159609079768e-01
6.960000000000000954e+09,-6.605323936824693525e-04,-7.664688963053111880e-05,-7.140750336794036146e-01,1.522852288491791800e-02,6.649645019051223741e-04,7.142373986522253526e-01
7.039999999999999046e+09,-8.476155570765831274e-04,-5.635236177097132596e-05,-7.136616841571735703e-01,1.530765269559978929e-02,8.494867399055813480e-04,7.138258356665878601e-01
7.120000000000000000e+09,-1.065616538093767159e-03,-3.079362518910739449e-07,-7.132403865162649792e-01,1.535486317729244099e-02,1.065616582586663939e-03,7.134056495298199962e-01
7.200000000000000000e+09,-1.311878048555324954e-03,1.033340191904554960e-04,-7.128138613239007881e-01,1.536857806110714098e-02,1.315941462909114845e-03,7.129795187009999591e-01
7.280000000000000000e+09,-1.580686248335670153e-03,2.673787653234660326e-04,-7.123850795887272103e-01,1.534742478322940855e-02,1.603140798502551050e-03,7.125503807227346886e-01
7.359999999999999046e+09,-1.862684034042680434e-03,5.049587561187273213e-04,-7.119572592313088144e-01,1.529027523734502111e-02,1.929915841703592604e-03,7.121214302975236166e-01
7.440000000000000000e+09,-2.144381483017282312e-03,8.286907278345872867e-04,-7.115338548276434194e-01,1.519629066374682605e-02,2.298934593916585924e-03,7.116961105807892984e-01
7.520000000000000000e+09,-2.407826251907648017e-03,1.249625664140439343e-03,-7.111185390939642748e-01,1.506496955940060146e-02,2.712782991662633040e-03,7.112780960714026879e-01
7.599999999999999046e+09,-2.630500874540929283e-03,1.776013046230356246e-03,-7.107151746473553411e-01,1.489619704678343988e-02,3.173918271055671363e-03,7.108712655329918473e-01
7.680000000000000000e+09,-2.785514374486187071e-03,2.411919621455285451e-03,-7.103277749207953518e-01,1.469029361139506662e-02,3.684622991681805928e-03,7.104796637134078718e-01
7.760000000000000954e+09,-2.842151835912801877e-03,3.155762409516260636e-03,-7.099604534580536974e-01,1.444806078333714383e-02,4.246959317405617218e-03,7.101074509782052679e-01
7.840000000000000000e+09,-2.766836724979952755e-03,3.998836670107514153e-03,-7.096173614643005445e-01,1.417082083514628610e-02,4.862723534902467157e-03,7.097588406315891163e-01
7.919999999999999046e+09,-2.524546249540752119e-03,4.923939760140521281e-03,-7.093026141379874527e-01,1.386044747788542711e-02,5.533400087429335423e-03,7.094380243737080649e-01
8.000000000000000000e+09,-2.080699577312734600e-03,5.904210967933540624e-03,-7.090202070732022355e-01,1.351938444657535023e-02,6.260113248567961662e-03,7.091490871417243103e-01
8.080000000000000000e+09,-1.403511092892321954e-03,6.902324022918572902e-03,-7.087739251423805786e-01,1.315064899356426301e-02,7.043572978626021046e-03,7.088959137494649232e-01
8.159999999999999046e+09,-4.667670355709970876e-04,7.870181044865282027e-03,-7.085672467870099966e-01,1.275781787140581325e-02,7.884010473385516873e-03,7.086820903170641950e-01
8.240000000000000000e+09,7.470577804134573546e-04,8.749262636600634024e-03,-7.084032477409620832e-01,1.234499404772868188e-02,8.781098565184891278e-03,7.085108046374319901e-01
8.320000000000000954e+09,2.243474173634101964e-03,9.471785800309526909e-03,-7.082845086059766926e-01,1.191675340403028187e-02,9.733853430923870148e-03,7.083847500778813755e-01
8.400000000000000000e+09,4.012628312537376042e-03,9.962806350966059432e-03,-7.082130311389374100e-01,1.147807189722284231e-02,1.074051657795965613e-02,7.083060381003958295e-01
8.480000000000000000e+09,6.026168945515099525e-03,1.014337204214244351e-02,-7.081901679423673324e-01,1.103423491859198240e-02,1.179841974779705614e-02,7.082761243402724283e-01
8.560000000000000000e+09,8.234631817948187549e-03,9.934782914645187354e-03,-7.082165699480337251e-01,1.059073203574872890e-02,1.290383945724258435e-02,7.082957528843520922e-01
8.640000000000000000e+09,1.056569441232162523e-02,9.263942059703596937e-03,-7.082921550504277519e-01,1.015314133073256034e-02,1.405185115563460999e-02,7.083649223280757967e-01
8.720000000000000000e+09,1.292369527982862448e-02,8.069679916361182856e-03,-7.084161001926695400e-01,9.727008630628820526e-03,1.523619485430623144e-02,7.084828760874116726e-01
8.800000000000000000e+09,1.519083072604397733e-02,6.309806213984569048e-03,-7.085868576510180317e-01,9.317727275150610236e-03,1.644916388772876478e-02,7.086481178111730950e-01
8.880000000000000000e+09,1.723042336489321105e-02,3.968487143125360231e-03,-7.088021946660282291e-01,8.930424258885041183e-03,1.768152650476222804e-02,7.088584510611564138e-01
8.959999999999998093e+09,1.889258485174471688e-02,1.063368349470849260e-03,-7.090592540640895391e-01,8.569858068693120279e-03,1.892248700956167609e-02,7.091110408400370657e-01
9.040000000000000000e+09,2.002245051720043939e-02,-2.348317498485230463e-03,-7.093546321944200761e-01,8.240332696733151593e-03,2.015969046854221985e-02,7.094024931578926108e-01
9.120000000000000000e+09,2.043390823706660309e-02,-6.154404540282545737e-03,-7.096844694670180198e-01,7.945631007532493600e-03,2.134060217253273134e-02,7.097289477362400678e-01
9.200000000000000000e+09,2.010759283053071070e-02,-1.024244338727520534e-02,-7.100445482978198219e-01,7.688969270356490159e-03,2.256596853627044347e-02,7.100861784430784196e-01
9.280000000000000000e+09,1.871111820070204407e-02,-1.439459029756846864e-02,-7.104470988206450510e-01,7.427691950392885205e-03,2.360741777822164891e-02,7.104859258496127872e-01
9.360000000000000000e+09,1.660241003354039069e-02,-1.838729789874547771e-02,-7.108373678350998759e-01,7.299673995896558375e-03,2.477362999116222361e-02,7.108748474599304590e-01
9.440000000000000000e+09,1.341964368998062665e-02,-2.198709970738953884e-02,-7.112607656801851475e-01,7.170523527527236998e-03,2.575887012872897855e-02,7.112969093167930135e-01
9.520000000000000000e+09,9.364986150366860079e-03,-2.494022746590149678e-02,-7.116958896178718907e-01,7.086423518508638483e-03,2.664053136946540820e-02,7.117311688392309321e-01
9.600000000000000000e+09,4.589262381432452666e-03,-2.701341694015017836e-02,-7.121381196265428315e-01,7.047767618970210944e-03,2.740047488617712926e-02,7.121729933475708929e-01
9.680000000000000000e+09,-6.880582098588577944e-04,-2.801309736990400048e-02,-7.125829664093585869e-01,7.054491582626437954e-03,2.802154614499129809e-02,7.126178848922123388e-01
9.760000000000000000e+09,-6.190764960256829423e-03,-2.780754628473908543e-02,-7.130261106583418718e-01,7.106128846625848171e-03,2.848833447520318293e-02,7.130615201704175732e-01
9.840000000000000000e+09,-1.160563613985453324e-02,-2.634494462500380774e-02,-7.134634278809408592e-01,7.201868396483400089e-03,2.878796445574460447e-02,7.134997756355798693e-01
9.920000000000000000e+09,-1.660833748145218100e-02,-2.366431611635795573e-02,-7.138909990850046405e-01,7.340612384180433825e-03,2.891084106615939009e-02,7.139287381558195866e-01
1.000000000000000000e+10,-2.089257691898326053e-02,-1.989712132057470245e-02,-7.143051076752405804e-01,7.521030912478125774e-03,2.885126006193317744e-02,7.143447016370483293e-01
1.008000000000000000e+10,-2.419877825640735086e-02,-1.525861579522757444e-02,-7.147022231190770514e-01,7.741611686555072147e-03,2.860780007426543675e-02,7.147441502263983670e-01
1.016000000000000000e+10,-2.633839360663944862e-02,-1.002971288496038067e-02,-7.150789719287313773e-01,8.000701854131856208e-03,2.818343695032609134e-02,7.151237286825337103e-01
1.024000000000000000e+10,-2.721059007724135198e-02,-4.531641375288261719e-03,-7.154320967873647463e-01,8.296539274562220526e-03,2.758535817976431534e-02,7.154802007585531198e-01
1.032000000000000000e+10,-2.680928841059690426e-02,9.032062706405294492e-04,-7.157584050317596924e-01,8.627270040369771145e-03,2.682449862811772667e-02,7.158103967964967174e-01
1.040000000000000000e+10,-2.522009728574990672e-02,5.960414641784604443e-03,-7.160547082522640272e-01,8.990948678092769777e-03,2.591485770373223863e-02,7.161111522440961608e-01
1.048000000000000000e+10,-2.260820923968037341e-02,1.036915191489124269e-02,-7.163177556129185497e-01,9.385517105434100157e-03,2.487268454468197915e-02,7.163792396054378120e-01
1.056000000000000000e+10,-1.919948651575711582e-02,1.392159032809806712e-02,-7.165441645811276850e-01,9.808757965703981604e-03,2.371562690995397335e-02,7.166112973768248295e-01
1.064000000000000000e+10,-1.525758928373768461e-02,1.648467007526078706e-02,-7.167303543328886750e-01,1.025821766332575546e-02,2.246193175667278788e-02,7.168037610474544685e-01
1.072000000000000000e+10,-1.106006499564900561e-02,1.800394143808030714e-02,-7.168724892077876776e-01,1.073109419940090209e-02,2.112976443346696945e-02,7.169528033041547843e-01
1.080000000000000000e+10,-6.875935411193416676e-03,1.850022486878449141e-02,-7.169664426519538614e-01,1.122408519981907792e-02,1.973668685404152828e-02,7.170542936051427230e-01
1.088000000000000000e+10,-3.160966422305232747e-03,1.812806603010251941e-02,-7.167806880204588005e-01,1.173272722574736360e-02,1.840158924426632536e-02,7.168767060012734005e-01
1.096000000000000000e+10,5.283992197869114699e-04,1.682480601462689462e-02,-7.169918923510667508e-01,1.225348396677221341e-02,1.683310141255308853e-02,7.170965915178286743e-01
1.104000000000000000e+10,3.401593431950040471e-03,1.497078291577703599e-02,-7.169139696739315060e-01,1.277881449816843998e-02,1.535236721120255242e-02,7.170278502356888239e-01
1.112000000000000191e+10,5.581827658097953011e-03,1.269760273622315069e-02,-7.167694073040120628e-01,1.330152780967266274e-02,1.387032498723980711e-02,7.168928189687885366e-01
1.120000000000000000e+10,7.035148695350790585e-03,1.021027438120572332e-02,-7.165541182101992090e-01,1.381216552201012214e-02,1.239931530791929873e-02,7.166872262294086138e-01
1.128000000000000000e+10,7.781772707128492214e-03,7.705243919433594005e-03,-7.162651203507184317e-01,1.429924290065083363e-02,1.095110817786849704e-02,7.164078384402009503e-01
1.135999999999999809e+10,7.890227893348745331e-03,5.357687539440944904e-03,-7.159013023111686636e-01,1.474917519324276706e-02,9.537322054919784853e-03,7.160532192649567973e-01
1.143999999999999809e+10,7.520289502930255915e-03,3.280909612379125963e-03,-7.154469337881012025e-01,1.506602663705837106e-02,8.204823099402250297e-03,7.156055479280636344e-01
1.152000000000000000e+10,6.656739640573267232e-03,1.666546465205037339e-03,-7.149598401212224896e-01,1.547430976033440167e-02,6.862183308763101890e-03,7.151272804534328786e-01
1.160000000000000000e+10,5.645615400945784915e-03,4.504321115394952640e-04,-7.143980629935775539e-01,1.571565625535494004e-02,5.663555627210009429e-03,7.145709021927160176e-01
1.168000000000000191e+10,4.483235769776112989e-03,-2.435132743443509454e-04,-7.137947569823820393e-01,1.585488115915432289e-02,4.489844282620714805e-03,7.139708203786122587e-01
1.176000000000000000e+10,3.425653075101888975e-03,-5.495926195494640377e-04,-7.131709898443776563e-01,1.587984168719263831e-02,3.469459761752291711e-03,7.133477624045790888e-01
1.184000000000000000e+10,2.551820009701979454e-03,-5.255037502577370942e-04,-7.125521735252805522e-01,1.578406608855204701e-02,2.605367450754376025e-03,7.127269720853065538e-01
1.191999999999999809e+10,1.934564698946390077e-03,-2.885969588352949207e-04,-7.119660234777098751e-01,1.556855207203694004e-02,1.955972591591844788e-03,7.121362218004941846e-01
1.200000000000000000e+10,1.595339192675573285e-03,3.251196299244244869e-05,-7.114396864891953109e-01,1.524261190697761940e-02,1.595670444491710136e-03,7.116029544131974305e-01
1.208000000000000000e+10,1.504318884228095406e-03,3.194046205756115352e-04,-7.109965861589613301e-01,1.482335445304415640e-02,1.537853899787074109e-03,7.111510932051907652e-01
1.216000000000000000e+10,1.590123009964036684e-03,4.838695825205730633e-04,-7.106537336200131616e-01,1.433376318455168927e-02,1.662113401578159833e-03,7.107982736860686268e-01
1.224000000000000191e+10,1.757756247215773535e-03,4.816714175695531843e-04,-7.104201774773439837e-01,1.379977394545940650e-02,1.822557099003908410e-03,7.105541938007872149e-01
1.232000000000000000e+10,1.910848155213360107e-03,3.165831901620412797e-04,-7.102969264828234985e-01,1.324707028859226955e-02,1.936895864153640248e-03,7.104204449776037045e-01
1.239999999999999809e+10,1.972930520137027542e-03,3.373075607875167394e-05,-7.102782259452731228e-01,1.269835323103034493e-02,1.973218842701894918e-03,7.103917274481343913e-01
1.247999999999999809e+10,1.902778539602727886e-03,-2.959256596145512898e-04,-7.103537089539062599e-01,1.217161608958691917e-02,1.925652659954800146e-03,7.104579790971478070e-01
1.256000000000000000e+10,1.720654907808382133e-03,-6.634531654643384575e-04,-7.104284078669808045e-01,1.165419919511387868e-02,1.844132157555342533e-03,7.105239918984387337e-01
1.264000000000000000e+10,1.402625392751451379e-03,-8.053130863550730413e-04,-7.107368238919311576e-01,1.123030030778112212e-02,1.617370445954140938e-03,7.108255429294820793e-01
1.272000000000000000e+10,1.069107107687468665e-03,-8.927203655874699694e-04,-7.110204341787556004e-01,1.082813969179283534e-02,1.392817166336806278e-03,7.111028803407640764e-01
1.280000000000000191e+10,7.629766747788269523e-04,-8.635898611166060827e-04,-7.113522429130241242e-01,1.047545424222078719e-02,1.152354482995555842e-03,7.114293700986563662e-01
1.288000000000000000e+10,5.311098377598522536e-04,-7.542686290019967512e-04,-7.117246680026256822e-01,1.017381698487492513e-02,9.224959753092955208e-04,7.117973795930196967e-01
