# Frequency, Real(S21), Imag(S21), Real(S11), Imag(S11)
4.000000000000000000e+09,5.797893935688357126e-06,1.419646557295085182e-04,-7.188297638365733766e-01,6.794818638121046667e-03
4.080000000000000000e+09,2.270853627804977930e-06,1.453703436142389223e-04,-7.188424157191138919e-01,6.954157553264979710e-03
4.160000000000000477e+09,6.100376346743583572e-06,1.467104046319346036e-04,-7.188453517858963693e-01,7.114683276663749320e-03
4.240000000000000000e+09,4.867236122922319395e-05,1.457182634600096981e-04,-7.188289067299099555e-01,7.272219935846087162e-03
4.320000000000000000e+09,5.161430750067917336e-05,1.441323474983387200e-04,-7.188789082800325358e-01,7.440935890705780917e-03
4.400000000000000000e+09,2.402899888809205387e-05,1.427706126534852794e-04,-7.188665810608194651e-01,7.600851461729180546e-03
4.480000000000000000e+09,4.999009829006243702e-05,1.380245591683869864e-04,-7.189327576544672915e-01,7.771065730957200761e-03
4.560000000000000000e+09,1.221885814578559947e-05,1.409645385908663646e-04,-7.188811900732109406e-01,7.932736774867844495e-03
4.640000000000000000e+09,1.958344052595351169e-06,1.418728832647195835e-04,-7.187893349375544805e-01,8.101636741607380274e-03
4.720000000000000000e+09,2.980233695813620683e-06,1.436089726523767564e-04,-7.187432509603601805e-01,8.276592638556986084e-03
4.800000000000000000e+09,2.874699816774305799e-06,1.466527507517219840e-04,-7.187384643521118610e-01,8.453403258915540008e-03
4.880000000000000000e+09,7.281953372358093089e-07,1.506102761767144963e-04,-7.187181692547257583e-01,8.633697926961314204e-03
4.960000000000000000e+09,2.908538528483448479e-06,1.552503908294212954e-04,-7.187278893078843378e-01,8.816807307441219474e-03
5.040000000000000000e+09,3.091097272845335694e-06,1.601418896826665788e-04,-7.187220117400106023e-01,9.004016767692146067e-03
5.120000000000000000e+09,3.197868772791797637e-06,1.650446930557538056e-04,-7.187330601877024439e-01,9.197074328902455145e-03
5.200000000000000000e+09,3.772412948774787855e-06,1.695942714849698295e-04,-7.187087738164266160e-01,9.391351476723522676e-03
5.280000000000000000e+09,4.230742057934346363e-06,1.737567547690815526e-04,-7.187012443268377959e-01,9.592425931112372878e-03
5.360000000000000000e+09,4.733931092298603919e-06,1.774198088536932014e-04,-7.186929530939344390e-01,9.799214307227837456e-03
5.440000000000000000e+09,5.259157060401841814e-06,1.805826850330846060e-04,-7.186837347438144175e-01,1.001244463524462135e-02
5.520000000000000000e+09,5.789237169435913679e-06,1.832934344497870807e-04,-7.186733580239539343e-01,1.023301052201016324e-02
5.600000000000000000e+09,6.313599396468796236e-06,1.856247470546023258e-04,-7.186614810032668776e-01,1.046203756356747089e-02
5.680000000000000000e+09,6.827704727591711562e-06,1.876520186483604015e-04,-7.186475558302801714e-01,1.070099020816290235e-02
5.760000000000000000e+09,7.331628200543243782e-06,1.894366547226315994e-04,-7.186305916324420284e-01,1.095184046903172927e-02
5.840000000000000954e+09,7.828922978127317355e-06,1.910160036050001032e-04,-7.186084667912057133e-01,1.121719542507873361e-02
5.920000000000000000e+09,8.327664740158393793e-06,1.923995948494500239e-04,-7.185765741800147488e-01,1.149917975492864390e-02
6.000000000000000000e+09,8.846186661592081855e-06,1.935675350342137499e-04,-7.185291751627596035e-01,1.179650701297387319e-02
6.080000000000000000e+09,9.420488739301997497e-06,1.944626404264056013e-04,-7.184627456031549286e-01,1.210575646852034802e-02
6.160000000000000000e+09,1.010326532049327036e-05,1.949755876745611505e-04,-7.183754439150170645e-01,1.242365195316937065e-02
6.239999999999999046e+09,1.095198200060203402e-05,1.949291307035189342e-04,-7.182661552965355911e-01,1.274729643295074294e-02
6.320000000000000000e+09,1.200720445669673634e-05,1.940638988954227926e-04,-7.181341508243440641e-01,1.307404307448224202e-02
6.400000000000000954e+09,1.326144422113320270e-05,1.920277365171015895e-04,-7.179789627838667476e-01,1.340140241749323592e-02
6.480000000000000000e+09,1.461902384160909685e-05,1.883714104642908145e-04,-7.178003300597491920e-01,1.372698869822543827e-02
6.560000000000000000e+09,1.584829672607149015e-05,1.825544896858832876e-04,-7.175981703359407549e-01,1.404848874898209296e-02
6.640000000000000000e+09,1.652876344722526683e-05,1.739651844300556379e-04,-7.173725643487371961e-01,1.436364337123875214e-02
6.720000000000000000e+09,1.599683621871193773e-05,1.619579956553121114e-04,-7.171237464253468197e-01,1.467023578578792800e-02
6.799999999999999046e+09,1.329521667110301637e-05,1.459117805902928765e-04,-7.168520989059115056e-01,1.496608422287710322e-02
6.880000000000000000e+09,7.132045799160605364e-06,1.253100893794481833e-04,-7.165581494588685318e-01,1.524903711162901854e-02
6.960000000000000954e+09,-4.143258476728807829e-06,9.984307293576879269e-05,-7.162425708471709118e-01,1.551697012274228828e-02
7.039999999999999046e+09,-2.253994104706229197e-05,6.952881223857379251e-05,-7.159061829960291501e-01,1.576778480843914546e-02
7.120000000000000000e+09,-5.039420670215196893e-05,3.484878928692453082e-05,-7.155499572747892056e-01,1.599940889439837102e-02
7.200000000000000000e+09,-9.029904724257596443e-05,-3.109538259164118160e-06,-7.151750228669839782e-01,1.620979850553260632e-02
7.280000000000000000e+09,-1.449901583787491406e-04,-4.251293287941297551e-05,-7.147826750836481224e-01,1.639694271340303919e-02
7.359999999999999046e+09,-2.171845918329539955e-04,-8.065717705117462165e-05,-7.143743852558557261e-01,1.655887086802474567e-02
7.440000000000000000e+09,-3.093715899607449868e-04,-1.138692685976194237e-04,-7.139518118408465508e-01,1.669366321774982259e-02
7.520000000000000000e+09,-4.235584419832263709e-04,-1.374508765608549411e-04,-7.135168121112640538e-01,1.679946528668683006e-02
7.599999999999999046e+09,-5.609780644911625813e-04,-1.456774730892174130e-04,-7.130714537408008313e-01,1.687450641300215076e-02
7.680000000000000000e+09,-7.217689878404500835e-04,-1.318658507510309282e-04,-7.126180253949331300e-01,1.691712275006725108e-02
7.760000000000000954e+09,-9.046425436980830726e-04,-8.852189708098440885e-05,-7.121590453255740583e-01,1.692578497253154762e-02
7.840000000000000000e+09,-1.106555780064976324e-03,-7.577514784621514798e-06,-7.116972668311319916e-01,1.689913057332695021e-02
7.919999999999999046e+09,-1.322411784090935308e-03,1.192775873442418358e-04,-7.112356793622904849e-01,1.683600060911328439e-02
8.000000000000000000e+09,-1.544811677257203544e-03,3.001678551610747667e-04,-7.107775039405314077e-01,1.673548038850989836e-02
8.080000000000000000e+09,-1.763883915911017113e-03,5.425113266064045432e-04,-7.103261816333321654e-01,1.659694323312741263e-02
8.159999999999999046e+09,-1.967217068616487329e-03,8.524157963559722984e-04,-7.098853537705012151e-01,1.642009622104058375e-02
8.240000000000000000e+09,-2.139921434377719481e-03,1.234007349273688169e-03,-7.094588328446049807e-01,1.620502634973279912e-02
8.320000000000000954e+09,-2.264842940966281873e-03,1.688713397131796305e-03,-7.090505632083966558e-01,1.595224519463851742e-02
8.400000000000000000e+09,-2.322949722367585387e-03,2.214528915210504934e-03,-7.086645711174436313e-01,1.566272985407347884e-02
8.480000000000000000e+09,-2.293907534512332376e-03,2.805301418121612482e-03,-7.083049040921963746e-01,1.533795757987266133e-02
8.560000000000000000e+09,-2.156854845096718015e-03,3.450076490811869283e-03,-7.079755603013464516e-01,1.497993144060781948e-02
8.640000000000000000e+09,-1.891381954065805230e-03,4.132551952661114858e-03,-7.076804092746824537e-01,1.459119424531262095e-02
8.720000000000000000e+09,-1.478710342768370812e-03,4.830694613971681615e-03,-7.074231061212346017e-01,1.417482822552640874e-02
8.800000000000000000e+09,-9.030588489292773382e-04,5.516578595090381766e-03,-7.072070021552379071e-01,1.373443830376891786e-02
8.880000000000000000e+09,-1.531708204803095062e-04,6.156508766012119827e-03,-7.070350554947439914e-01,1.327411758118094559e-02
8.959999999999998093e+09,7.760388779649737790e-04,6.711495726637460753e-03,-7.069097458434816517e-01,1.279839440871332300e-02
9.040000000000000000e+09,1.881777329924275675e-03,7.138149121655678470e-03,-7.068329977711829137e-01,1.231216166335371946e-02
9.120000000000000000e+09,3.151691392077302784e-03,7.390052619537524833e-03,-7.068061169075682271e-01,1.182058992132082806e-02
9.200000000000000000e+09,4.562321804228152214e-03,7.419673879898124741e-03,-7.068297429439752699e-01,1.132902751579821336e-02
9.280000000000000000e+09,6.077837158563683881e-03,7.180843974306742178e-03,-7.069038226194622743e-01,1.084289147392954178e-02
9.360000000000000000e+09,7.649224654634345470e-03,6.631809293442960697e-03,-7.070276047368390104e-01,1.036755420689035485e-02
9.440000000000000000e+09,9.214145530428411238e-03,5.738811305550563062e-03,-7.071996579013196671e-01,9.908231309121391661e-03
9.520000000000000000e+09,1.069768557023444144e-02,4.480084252638719469e-03,-7.074179102062544411e-01,9.469875875221479486e-03
9.600000000000000000e+09,1.201423633779864775e-02,2.850073222675799517e-03,-7.076797086583702656e-01,9.057084336226409529e-03
9.680000000000000000e+09,1.307071934604119197e-02,8.635736774860556120e-04,-7.079818949192703270e-01,8.674018096477786183e-03
9.760000000000000000e+09,1.377130047261467330e-02,-1.440623204478120450e-03,-7.083208928192060716e-01,8.324344083641738515e-03
9.840000000000000000e+09,1.406285889362423117e-02,-4.105570253734831115e-03,-7.087688994459339087e-01,7.996786794024624348e-03
9.920000000000000000e+09,1.374641257607563290e-02,-6.712806766659007093e-03,-7.090934975181306665e-01,7.737156048880429460e-03
1.000000000000000000e+10,1.287804632435749635e-02,-9.468301916579591887e-03,-7.095187152406757791e-01,7.504257997920269277e-03
1.008000000000000000e+10,1.138543661922985194e-02,-1.212179660726170512e-02,-7.099641441683594012e-01,7.314006090253098030e-03
1.016000000000000000e+10,9.272239366581353642e-03,-1.451635100063013162e-02,-7.104254969142117515e-01,7.167409929485077033e-03
1.024000000000000000e+10,6.585209397573992679e-03,-1.649022198951081986e-02,-7.108985712740946150e-01,7.065029676825041773e-03
1.032000000000000000e+10,3.417410838614782717e-03,-1.788987401496931057e-02,-7.113792967134446865e-01,7.007028305570024360e-03
1.040000000000000000e+10,-9.288065616077029532e-05,-1.858460258500978235e-02,-7.118637664192898340e-01,6.993227093778369916e-03
1.048000000000000000e+10,-3.768357224446990464e-03,-1.848118376533073454e-02,-7.123482557770800527e-01,7.023161089362398544e-03
1.056000000000000000e+10,-7.404058694351118089e-03,-1.753659457755962423e-02,-7.128292286901135588e-01,7.096131962108115712e-03
1.064000000000000000e+10,-1.078323846698722027e-02,-1.576678528632816101e-02,-7.133033335455962742e-01,7.211256366993394964e-03
1.072000000000000000e+10,-1.369614741385880366e-02,-1.324981377463853131e-02,-7.137673905489839710e-01,7.367508852449294356e-03
1.080000000000000000e+10,-1.595949829515275892e-02,-1.012236895580754560e-02,-7.142183718576443630e-01,7.563758574998189974e-03
1.088000000000000000e+10,-1.743407268262696375e-02,-6.569695027110798377e-03,-7.146533754968396046e-01,7.798799754730464245e-03
1.096000000000000000e+10,-1.803810269479279305e-02,-2.809974952146318625e-03,-7.150695935403499348e-01,8.071375535457161673e-03
1.104000000000000000e+10,-1.775467922203046930e-02,9.249001482156003675e-04,-7.154642745977753959e-01,8.380194725664541142e-03
1.112000000000000191e+10,-1.663236322244249915e-02,4.409746813063771670e-03,-7.158346803674594527e-01,8.723940358390190261e-03
1.120000000000000000e+10,-1.477919159167385282e-02,7.445214412629713729e-03,-7.161780360505266563e-01,9.101268304536669351e-03
1.128000000000000000e+10,-1.235115583080683213e-02,9.873513173932778331e-03,-7.164914746959476499e-01,9.510793326125852043e-03
1.135999999999999809e+10,-9.536835379018941683e-03,1.158929412238841536e-02,-7.167719761309866433e-01,9.951059169211386168e-03
1.143999999999999809e+10,-6.540125877304308125e-03,1.254499819222380276e-02,-7.170163021165658623e-01,1.042048837912435029e-02
1.152000000000000000e+10,-3.562944841168400305e-03,1.275071312581480334e-02,-7.172209308187884602e-01,1.091730670223815293e-02
1.160000000000000000e+10,-7.895106166730145140e-04,1.226914377657651982e-02,-7.173819957238704026e-01,1.143943611022289579e-02
1.168000000000000191e+10,1.626616678303167106e-03,1.120666873135102437e-02,-7.174952369969326282e-01,1.198435018222249876e-02
1.176000000000000000e+10,3.571974637148645805e-03,9.701631995983492351e-03,-7.175559774999202833e-01,1.254888559581135432e-02
1.184000000000000000e+10,4.978748864803312149e-03,7.911045620880224200e-03,-7.175591407749200012e-01,1.312900518329051212e-02
1.191999999999999809e+10,5.808760928860297323e-03,6.014980936130192093e-03,-7.174993353723508882e-01,1.371951191332499223e-02
1.200000000000000000e+10,6.139369914916601237e-03,4.112446290655514050e-03,-7.173710373416130048e-01,1.431372112893313474e-02
1.208000000000000000e+10,5.981713987572519903e-03,2.391226881708974697e-03,-7.171689097800872936e-01,1.490311226889562933e-02
1.216000000000000000e+10,5.448282813935195756e-03,9.364817000103455545e-04,-7.168883014709184209e-01,1.547700300774810384e-02
1.224000000000000191e+10,4.779486497470175621e-03,-2.390342141430665084e-04,-7.165512361893285886e-01,1.602651087757070783e-02
1.232000000000000000e+10,3.720876472058363017e-03,-9.472149573440107485e-04,-7.160809731912002318e-01,1.652356994243612057e-02
1.239999999999999809e+10,2.765872554194411231e-03,-1.362174954249527120e-03,-7.155558926544506315e-01,1.696317231748429785e-02
1.247999999999999809e+10,1.887725607495442225e-03,-1.476751764373054974e-03,-7.149579267064702925e-01,1.732227894571381627e-02
1.256000000000000000e+10,1.280623175274835275e-03,-1.396714000162808857e-03,-7.142999572649944007e-01,1.758222792516819441e-02
1.264000000000000000e+10,6.147007493876615507e-04,-1.085101161713936503e-03,-7.137306936461761397e-01,1.774517341386259647e-02
1.272000000000000000e+10,2.573573597605134764e-04,-7.810269814847801539e-04,-7.128860501520050130e-01,1.774378222361168433e-02
1.280000000000000191e+10,6.627065924618336015e-05,-4.645593840927991465e-04,-7.121840449692375952e-01,1.762927477492852793e-02
1.288000000000000000e+10,-3.335158102353238691e-06,-1.991817282252533901e-04,-7.115255677717458038e-01,1.738760530033429952e-02
1.295999999999999809e+10,-6.529904592018171902e-08,-4.960219705021082833e-06,-7.109390495290003331e-01,1.703269240513507685e-02
1.303999999999999809e+10,2.804108540698822881e-05,9.966370977818248792e-05,-7.103310304522313379e-01,1.635871424327349846e-02
1.312000000000000000e+10,6.596430387673474997e-05,1.921285621050256259e-04,-7.100643546503955239e-01,1.607674647403206300e-02
1.320000000000000000e+10,8.306939506187993865e-05,2.330207967596002066e-04,-7.097951309450266644e-01,1.553213864862112471e-02
1.328000000000000000e+10,8.122747664787978938e-05,2.630445346867998110e-04,-7.096351648531455947e-01,1.497967195519638375e-02
1.335999999999999809e+10,6.520350549488082266e-05,2.975097758888816811e-04,-7.095730552773635846e-01,1.444116934465782161e-02
1.344000000000000000e+10,4.387277061925797038e-05,3.461829151416200901e-04,-7.095932301974415823e-01,1.393171347236879867e-02
1.351999999999999809e+10,2.819533410438365521e-05,4.140873045623867524e-04,-7.096789508927672241e-01,1.345931863961300455e-02
1.359999999999999809e+10,3.073952067706713385e-05,5.018086208631528447e-04,-7.098149501165318398e-01,1.302574163538098261e-02
1.368000000000000000e+10,6.529749750361449898e-05,6.043674808881197664e-04,-7.099893856831336336e-01,1.262811187898475046e-02
1.376000000000000000e+10,1.448859502887432909e-04,7.091934484492228496e-04,-7.101949383080571332e-01,1.226105388661377638e-02
1.384000000000000000e+10,2.772929814162208070e-04,7.950770874117436869e-04,-7.104289596402366680e-01,1.191897667760913326e-02
1.392000000000000000e+10,4.591172875652703043e-04,8.344102306536270051e-04,-7.106926471814279944e-01,1.159816063920808028e-02
1.400000000000000000e+10,6.711244523556092901e-04,7.999352776509158127e-04,-7.109893739643087240e-01,1.129821292709109158e-02
1.407999999999999809e+10,8.784369232491572640e-04,6.747073272641264732e-04,-7.113225493236378094e-01,1.102250411720436321e-02
1.415999999999999809e+10,1.037521716610598135e-03,4.613000651594985021e-04,-7.116936198917451772e-01,1.077744460179181490e-02
1.424000000000000000e+10,1.108495327542568945e-03,1.854545660471042527e-04,-7.121008413318951069e-01,1.057086884210219242e-02
1.432000000000000000e+10,1.068008653417162022e-03,-1.085057404936018801e-04,-7.125391622591880081e-01,1.041014853435734064e-02
1.440000000000000000e+10,9.172657710888659430e-04,-3.691879216828553500e-04,-7.130010951102444539e-01,1.030071572835035247e-02
1.448000000000000000e+10,6.820678857023157026e-04,-5.520450597918399134e-04,-7.134780849412659665e-01,1.024540962182673813e-02
1.456000000000000000e+10,4.054329525223438271e-04,-6.305922644215956451e-04,-7.139618126055842229e-01,1.024466350090096241e-02
1.463999999999999809e+10,1.360366157112481234e-04,-6.016589087138896497e-04,-7.144450438811554838e-01,1.029725855138173031e-02
1.471999999999999809e+10,-8.357927558543958068e-05,-4.840570344418874699e-04,-7.149218858732298010e-01,1.040128450679167829e-02
1.480000000000000000e+10,-2.259408163360662855e-04,-3.120658615915456553e-04,-7.153874920072125221e-01,1.055500343809975122e-02
1.488000000000000000e+10,-2.830468780785160531e-04,-1.260563546977892747e-04,-7.158373350754891895e-01,1.075739880149310934e-02
1.496000000000000191e+10,-2.658361837275841793e-04,3.731634476609636824e-05,-7.162661978608478863e-01,1.100823186441318539e-02
1.504000000000000191e+10,-1.992270480941647271e-04,1.531762997405821118e-04,-7.166671026455481153e-01,1.130742156977543149e-02
1.511999999999999809e+10,-1.139971854597861592e-04,2.129034742856650948e-04,-7.170305816866953119e-01,1.165360134422463445e-02
1.519999999999999809e+10,-3.762419101828914225e-05,2.237140610374695052e-04,-7.173449423241327061e-01,1.204196174514427300e-02
1.527999999999999809e+10,1.293327147656694095e-05,2.032381701555572412e-04,-7.175982255268603671e-01,1.246210403282994698e-02
1.536000000000000000e+10,3.353632157851010312e-05,1.711569101763408163e-04,-7.177819066438281270e-01,1.289737126178764834e-02
1.544000000000000000e+10,2.937517063662960486e-05,1.420824931003285263e-04,-7.178949245717961558e-01,1.332709411711463683e-02
1.552000000000000191e+10,8.595679559380631825e-06,1.234583714838182985e-04,-7.179454758725648533e-01,1.373155331311734680e-02
1.560000000000000191e+10,-2.200489973222050501e-05,1.183145359416473637e-04,-7.179489256288701382e-01,1.409714525354077187e-02
1.567999999999999809e+10,-5.682380197020246693e-05,1.287238127078757901e-04,-7.179229456656616160e-01,1.441875794089994556e-02
1.575999999999999809e+10,-8.908593582764021200e-05,1.562117212680212328e-04,-7.178828319305314842e-01,1.469851161869294501e-02
1.583999999999999809e+10,-1.101163833743778173e-04,1.993015188597544590e-04,-7.178391574562041910e-01,1.494245637472199455e-02
1.592000000000000000e+10,-1.117940780033247676e-04,2.512253531369927867e-04,-7.177978969718413760e-01,1.515736241894338407e-02
