# Frequency, Real(S21), Imag(S21), Real(S11), Imag(S11)
4.000000000000000000e+09,2.525903801372862922e-05,1.422394392937086462e-04,-7.188225264964135386e-01,6.799201486211109945e-03
4.080000000000000000e+09,3.911017259377132298e-05,1.431606693787111292e-04,-7.188454064206194483e-01,6.959453709649886591e-03
4.160000000000000477e+09,2.727039307402452320e-06,1.463937213997217306e-04,-7.187523252137488772e-01,7.109559569230784574e-03
4.240000000000000000e+09,2.543791509830517616e-06,1.459497954397929531e-04,-7.187635033946282448e-01,7.270716387468127880e-03
4.320000000000000000e+09,1.508969842027553930e-06,1.445494400695081520e-04,-7.187126276672902714e-01,7.431132914629923029e-03
4.400000000000000000e+09,3.642857804639761575e-06,1.428963040292191404e-04,-7.187283519956075839e-01,7.594584021844119105e-03
4.480000000000000000e+09,3.733577709099454009e-06,1.415223220412135659e-04,-7.187223517026180009e-01,7.760731581847720925e-03
4.560000000000000000e+09,3.032433007105161634e-05,1.413135083558002248e-04,-7.187311009453761779e-01,7.930516828893226927e-03
4.640000000000000000e+09,3.591291776701647845e-06,1.415704725844528413e-04,-7.187091274474874947e-01,8.100115902200543186e-03
4.720000000000000000e+09,3.448817596806910482e-06,1.434293966567272785e-04,-7.187018128720721322e-01,8.273698218161639265e-03
4.800000000000000000e+09,3.304354970058475761e-06,1.465091627143048556e-04,-7.187077251339558659e-01,8.451581812196623869e-03
4.880000000000000000e+09,3.275354424809885329e-06,1.504434786932849310e-04,-7.186854910803299745e-01,8.629705059523906305e-03
4.960000000000000000e+09,3.328029436137828985e-06,1.550893494241831563e-04,-7.186883806541816133e-01,8.814114411477023958e-03
5.040000000000000000e+09,3.974798505774086913e-06,1.599205877858015041e-04,-7.186460282137370204e-01,8.999963264092468093e-03
5.120000000000000000e+09,3.720110249970983071e-06,1.647789947243990692e-04,-7.186555436717351197e-01,9.189973740964928889e-03
5.200000000000000000e+09,4.054004773765793926e-06,1.693600182590421644e-04,-7.186436405944979233e-01,9.385126389075707995e-03
5.280000000000000000e+09,4.443231614410924259e-06,1.735141598883372901e-04,-7.186304973574783039e-01,9.585212689112903098e-03
5.360000000000000000e+09,4.858899533944600210e-06,1.771707940921143703e-04,-7.186158741444454989e-01,9.790780245222775041e-03
5.440000000000000000e+09,5.274748260879807003e-06,1.803301569853656551e-04,-7.185994543919915767e-01,1.000247036901791634e-02
5.520000000000000000e+09,5.669999177773539083e-06,1.830413711640820247e-04,-7.185808075494680702e-01,1.022103969655887255e-02
5.600000000000000000e+09,6.030287904802739743e-06,1.853781851610426801e-04,-7.185593267044330101e-01,1.044738343840416472e-02
5.680000000000000000e+09,6.347009921927495419e-06,1.874168511421840590e-04,-7.185341211720013277e-01,1.068254820789136215e-02
5.760000000000000000e+09,6.615770366602682271e-06,1.892189442565896974e-04,-7.185038365069277289e-01,1.092769049191591978e-02
5.840000000000000954e+09,6.834815743716756120e-06,1.908201378414884058e-04,-7.184664159171463282e-01,1.118386045262113188e-02
5.920000000000000000e+09,7.004230257436696054e-06,1.922241622251244281e-04,-7.184190394392402368e-01,1.145147828375076525e-02
6.000000000000000000e+09,7.125861413157049578e-06,1.933994860957448966e-04,-7.183586353186987017e-01,1.172982864787242875e-02
6.080000000000000000e+09,7.202269936887880110e-06,1.942758753130256939e-04,-7.182826114130581585e-01,1.201722097947209057e-02
6.160000000000000000e+09,7.231805544636033380e-06,1.947397281306333496e-04,-7.181890843014698822e-01,1.231152798298155125e-02
6.239999999999999046e+09,7.197898603499298242e-06,1.946289788938242290e-04,-7.180767414790226733e-01,1.261052226699901913e-02
6.320000000000000000e+09,7.051982971977947552e-06,1.937290539304472811e-04,-7.179446764813952608e-01,1.291199202194732130e-02
6.400000000000000954e+09,6.690175221309645307e-06,1.917716400255533389e-04,-7.177922817684353474e-01,1.321376706243395510e-02
6.480000000000000000e+09,5.924423217791289944e-06,1.884385163326220310e-04,-7.176191861321732368e-01,1.351371917989822521e-02
6.560000000000000000e+09,4.449539632573975049e-06,1.833731001319090519e-04,-7.174252178310643879e-01,1.380975719076387234e-02
6.640000000000000000e+09,1.808351342542753528e-06,1.762024322557482353e-04,-7.172103821703047499e-01,1.409982219647398262e-02
6.720000000000000000e+09,-2.641910563279755873e-06,1.665719930822414014e-04,-7.169748474979424913e-01,1.438188418857382772e-02
6.799999999999999046e+09,-9.758094354146576790e-06,1.541950990672233748e-04,-7.167189365212771612e-01,1.465394001084713467e-02
6.880000000000000000e+09,-2.062988816524152953e-05,1.389172243978700077e-04,-7.164431213017069533e-01,1.491401252643148601e-02
6.960000000000000954e+09,-3.658382336180082965e-05,1.207945388039123439e-04,-7.161480210742486863e-01,1.516015088178501030e-02
7.039999999999999046e+09,-5.916732033229660194e-05,1.001837390637070973e-04,-7.158344024031286779e-01,1.539043194349097414e-02
7.120000000000000000e+09,-9.010780963882540759e-05,7.783896248170587596e-05,-7.155031813682733999e-01,1.560296305376417635e-02
7.200000000000000000e+09,-1.312426515299548800e-04,5.500949299755478184e-05,-7.151554275133562566e-01,1.579588642335263277e-02
7.280000000000000000e+09,-1.844168208625770393e-04,3.353040395905998146e-05,-7.147923692924754713e-01,1.596738546034084938e-02
7.359999999999999046e+09,-2.513469231592653963e-04,1.589747139696414779e-05,-7.144154006407271718e-01,1.611569342855576070e-02
7.440000000000000000e+09,-3.334523672723709140e-04,5.316730035269542042e-06,-7.140260882512935448e-01,1.623910478891719966e-02
7.520000000000000000e+09,-4.316570407120440918e-04,5.718379952898504891e-06,-7.136261790255044035e-01,1.633598955948019002e-02
7.599999999999999046e+09,-5.461676879815067966e-04,2.172567350828332345e-05,-7.132176070415578994e-01,1.640481096151452309e-02
7.680000000000000000e+09,-6.762380479283207216e-04,5.856978813585699342e-05,-7.128024993087468397e-01,1.644414648794708875e-02
7.760000000000000954e+09,-8.199308837352539941e-04,1.219433424716953249e-04,-7.123831794693261665e-01,1.645271249695588051e-02
7.840000000000000000e+09,-9.738925389152033353e-04,2.177870457259417983e-04,-7.119621685555945767e-01,1.642939212356761200e-02
7.919999999999999046e+09,-1.133156986232571484e-03,3.520067862097443659e-04,-7.115421818190803549e-01,1.637326627816386784e-02
8.000000000000000000e+09,-1.292280576839194934e-03,5.321140070402452125e-04,-7.111377904877552725e-01,1.629203829480943902e-02
8.080000000000000000e+09,-1.438849051100468332e-03,7.568484048932682881e-04,-7.107170588486139140e-01,1.616011363080900945e-02
8.159999999999999046e+09,-1.566309998620184479e-03,1.035627966332124898e-03,-7.103182217406899257e-01,1.600254708476368110e-02
8.240000000000000000e+09,-1.661260125244480492e-03,1.368113769965368168e-03,-7.099329585126935571e-01,1.581116711650013343e-02
8.320000000000000954e+09,-1.710093133193116462e-03,1.753635230083273964e-03,-7.095647062036470887e-01,1.558656486034930462e-02
8.400000000000000000e+09,-1.698088406802157439e-03,2.188664465614547673e-03,-7.092169458524504311e-01,1.532973258380303239e-02
8.480000000000000000e+09,-1.609927933657597995e-03,2.666314953311892458e-03,-7.088931507833050594e-01,1.504208752348886249e-02
8.560000000000000000e+09,-1.430363446973418814e-03,3.175907173445558646e-03,-7.085967278047953233e-01,1.472548797182692513e-02
8.640000000000000000e+09,-1.145032111171994825e-03,3.702640524331948617e-03,-7.083309525056528111e-01,1.438223973581028402e-02
8.720000000000000000e+09,-7.414115053990591713e-04,4.227414664704205391e-03,-7.080989004612169291e-01,1.401509114994371578e-02
8.800000000000000000e+09,-2.098957708426462060e-04,4.726846032175532897e-03,-7.079033765880813345e-01,1.362721538411001965e-02
8.880000000000000000e+09,4.550360281956125370e-04,5.173526694221197361e-03,-7.077468454074478110e-01,1.322217911048952088e-02
8.959999999999998093e+09,1.253601097544013903e-03,5.536571949400513615e-03,-7.076313652951831124e-01,1.280389740418847767e-02
9.040000000000000000e+09,2.179500513231015426e-03,5.782499517908827776e-03,-7.075585298473748841e-01,1.237657547511506959e-02
9.120000000000000000e+09,3.218787436849173886e-03,5.876475654136428112e-03,-7.075294195022816535e-01,1.194463868249689802e-02
9.200000000000000000e+09,4.348909215390817790e-03,5.783950523451207235e-03,-7.075445661362845806e-01,1.151265309921818344e-02
9.280000000000000000e+09,5.538036384881568110e-03,5.472684868229306387e-03,-7.076039328244621007e-01,1.108523964605181121e-02
9.360000000000000000e+09,6.744809561229431032e-03,4.915140975027268259e-03,-7.077069101360351500e-01,1.066698530205423441e-02
9.440000000000000000e+09,7.918648471896575988e-03,4.091171900099901948e-03,-7.078523293880224498e-01,1.026235530454373129e-02
9.520000000000000000e+09,9.000770904718295023e-03,2.990891348923563516e-03,-7.080384922810536441e-01,9.875610166047951374e-03
9.600000000000000000e+09,9.926057418389890724e-03,1.617548689251552003e-03,-7.082632153453968238e-01,9.510731174793986276e-03
9.680000000000000000e+09,1.062586346375279239e-02,-9.834094653239742068e-06,-7.085238866723757578e-01,9.171357366002682796e-03
9.760000000000000000e+09,1.103181771116533601e-02,-1.854370323380789744e-03,-7.088175319135051611e-01,8.860736359573156973e-03
9.840000000000000000e+09,1.108054914828926485e-02,-3.860120395292769742e-03,-7.091408858553615024e-01,8.581690291885886446e-03
9.920000000000000000e+09,1.071915551799859298e-02,-5.952189908251910404e-03,-7.094904659235978794e-01,8.336597339438240814e-03
1.000000000000000000e+10,9.911068823700509151e-03,-8.038473564273018040e-03,-7.098626440701929496e-01,8.127388148885373795e-03
1.008000000000000000e+10,8.641806349492599931e-03,-1.001331620626111016e-02,-7.102537138239123360e-01,7.955555809570347831e-03
1.016000000000000000e+10,6.923945793425322764e-03,-1.176319682029595623e-02,-7.106599499928185626e-01,7.822177215689297622e-03
1.024000000000000000e+10,4.858945369603275000e-03,-1.320128265888975173e-02,-7.111138230927862569e-01,7.670682730331521669e-03
1.032000000000000000e+10,2.346413531011658574e-03,-1.414151897960645027e-02,-7.115032197961532745e-01,7.673195533963010802e-03
1.040000000000000000e+10,-3.338714259279382257e-04,-1.457817321576986881e-02,-7.119331120101493049e-01,7.657965562619287181e-03
1.048000000000000000e+10,-3.329196373137846120e-03,-1.439748429866247528e-02,-7.123639366236014236e-01,7.682016285787499413e-03
1.056000000000000000e+10,-5.837902968071064132e-03,-1.365959006941064660e-02,-7.127924249105779264e-01,7.744881530420261867e-03
1.064000000000000000e+10,-8.363178857987331113e-03,-1.229816810482894061e-02,-7.132154396875234337e-01,7.845903169047872480e-03
1.072000000000000000e+10,-1.054085060119926143e-02,-1.040026090241161216e-02,-7.136299689370786403e-01,7.984264347731556688e-03
1.080000000000000000e+10,-1.224431431775361429e-02,-8.064285683661557083e-03,-7.140331130180422869e-01,8.159017887286804105e-03
1.088000000000000000e+10,-1.337740633336941161e-02,-5.421006615842021391e-03,-7.144220662183354831e-01,8.369109317410836774e-03
1.096000000000000000e+10,-1.388303562037373345e-02,-2.623227084373376018e-03,-7.147940933336647262e-01,8.613393795890419979e-03
1.104000000000000000e+10,-1.374806525895620225e-02,1.668004500818323068e-04,-7.151465016893355786e-01,8.890646124188205171e-03
1.112000000000000191e+10,-1.300391225595347311e-02,2.790793491466822714e-03,-7.154766090053656935e-01,9.199562745007681952e-03
1.120000000000000000e+10,-1.172291699603851545e-02,5.107178181799822136e-03,-7.157817076560694103e-01,9.538754198986641383e-03
1.128000000000000000e+10,-1.001106353217909306e-02,7.001814979300304345e-03,-7.160590261747894480e-01,9.906726022516795099e-03
1.135999999999999809e+10,-7.998022672152951817e-03,8.395728625277779078e-03,-7.163056895170143434e-01,1.030184565381489156e-02
1.143999999999999809e+10,-5.825698154868840656e-03,9.249297959257749696e-03,-7.165186804407345234e-01,1.072229246109482337e-02
1.152000000000000000e+10,-3.636482581742388545e-03,9.562802026822865564e-03,-7.166948057180986265e-01,1.116598780789837715e-02
1.160000000000000000e+10,-1.562309846598220571e-03,9.373592654915424011e-03,-7.168306725019021330e-01,1.163050197964216048e-02
1.168000000000000191e+10,2.846231815813390648e-04,8.750448665354312525e-03,-7.169226824820791322e-01,1.211293546899512921e-02
1.176000000000000000e+10,1.818848846312616421e-03,7.785826435803780247e-03,-7.169670541955495136e-01,1.260977322811409826e-02
1.184000000000000000e+10,2.985973226818123150e-03,6.586803711680693993e-03,-7.169598869931660401e-01,1.311671331749620847e-02
1.191999999999999809e+10,3.764240714026053855e-03,5.265513188577389259e-03,-7.168972835348985662e-01,1.362847581873402256e-02
1.200000000000000000e+10,4.163379640213242701e-03,3.929821851277528512e-03,-7.167755502848359717e-01,1.413860517086080841e-02
1.208000000000000000e+10,4.220950974012248683e-03,2.674947931909218198e-03,-7.165914958768783150e-01,1.463928961329249469e-02
1.216000000000000000e+10,3.996562545533535390e-03,1.576632038324107679e-03,-7.163428433306621157e-01,1.512123521052233764e-02
1.224000000000000191e+10,3.564446792895182431e-03,6.863936492488068291e-04,-7.160287605468276251e-01,1.557364795485249344e-02
1.232000000000000000e+10,3.005042473705312259e-03,2.929544829424388618e-05,-7.156504909795908809e-01,1.598439183444826106e-02
1.239999999999999809e+10,2.402710878086660416e-03,-4.083382243310177979e-04,-7.152404963895514500e-01,1.638226587676955281e-02
1.247999999999999809e+10,1.847703960880166469e-03,-6.184309810505149137e-04,-7.145773195004890832e-01,1.654122179336055265e-02
1.256000000000000000e+10,1.198272346318482798e-03,-6.853852711773008276e-04,-7.141878229115692367e-01,1.683589750328167572e-02
1.264000000000000000e+10,8.654566529530081931e-04,-5.869123096316059256e-04,-7.136282433598593045e-01,1.695267400187016119e-02
1.272000000000000000e+10,5.566164563792789979e-04,-4.460976913513755703e-04,-7.130603314336076970e-01,1.697204725728092278e-02
1.280000000000000191e+10,3.518304661087505794e-04,-2.803618916381529270e-04,-7.125045699316737702e-01,1.689225975184196343e-02
1.288000000000000000e+10,2.317265107094417203e-04,-1.220877684570877294e-04,-7.119818771958713599e-01,1.671727694578254569e-02
1.295999999999999809e+10,1.713055988879361104e-04,1.006372590493640915e-05,-7.115115458745545629e-01,1.645684812245081993e-02
1.303999999999999809e+10,1.461617809284166715e-04,1.101612210355903889e-04,-7.111092404490767516e-01,1.612567959757607930e-02
1.312000000000000000e+10,1.369267036316986928e-04,1.817018116861405695e-04,-7.107854823820561885e-01,1.574181644396172725e-02
1.320000000000000000e+10,1.313000349011017500e-04,2.333650177637652573e-04,-7.105449467540192465e-01,1.532454694774019500e-02
1.328000000000000000e+10,1.239090701514119239e-04,2.751655063998474692e-04,-7.103866848009143808e-01,1.489226234467111790e-02
1.335999999999999809e+10,1.148640197632604625e-04,3.158132057538468149e-04,-7.103051553102645022e-01,1.446068411606012995e-02
1.344000000000000000e+10,1.079892865283800686e-04,3.613556764925660112e-04,-7.102917818510958714e-01,1.404173721958977550e-02
1.351999999999999809e+10,1.093476962908325630e-04,4.146271265676896916e-04,-7.103366927518994789e-01,1.364317018863131156e-02
1.359999999999999809e+10,1.261016211892724832e-04,4.749041477372744052e-04,-7.104303325303307215e-01,1.326886883823838459e-02
1.368000000000000000e+10,1.653091154965486711e-04,5.374744215628222185e-04,-7.105647122897075230e-01,1.291971131399047984e-02
1.376000000000000000e+10,2.321877267996162774e-04,5.933565576836377295e-04,-7.107341520086856157e-01,1.259476212157915366e-02
1.384000000000000000e+10,3.277625306246361326e-04,6.298436283256464430e-04,-7.109354459787469160e-01,1.229257734229588506e-02
1.392000000000000000e+10,4.464871161274820569e-04,6.325606686176500713e-04,-7.111674643775924842e-01,1.201237952245672209e-02
1.400000000000000000e+10,5.750059505815841108e-04,5.891683451851273835e-04,-7.114303045120220492e-01,1.175487000079579458e-02
1.407999999999999809e+10,6.932584555549845592e-04,4.938804760446018852e-04,-7.117242141755837359e-01,1.152250987069298495e-02
1.415999999999999809e+10,7.783663379154474220e-04,3.511166463682831741e-04,-7.120485831060229254e-01,1.131923286500954688e-02
1.424000000000000000e+10,8.104544461621844033e-04,1.765076077566038958e-04,-7.124012806803524667e-01,1.114972465937814905e-02
1.432000000000000000e+10,7.784474673801622781e-04,-5.639266429607046101e-06,-7.127784920978369465e-01,1.101853708873695888e-02
1.440000000000000000e+10,6.836751661989963133e-04,-1.678326708070719737e-04,-7.131750208745110120e-01,1.092933242673859232e-02
1.448000000000000000e+10,5.399554211876201031e-04,-2.860318265928577051e-04,-7.135848721652646720e-01,1.088446110672698121e-02
1.456000000000000000e+10,3.702120623992834116e-04,-3.452501620665705752e-04,-7.140018746382464920e-01,1.088492355599613055e-02
1.463999999999999809e+10,2.008715856339045249e-04,-3.425184420670965681e-04,-7.144201404888865792e-01,1.093063147101575559e-02
1.471999999999999809e+10,5.580509186374328179e-05,-2.866377405694116353e-04,-7.148342566228176320e-01,1.102081171602163449e-02
1.480000000000000000e+10,-4.856245000536661563e-05,-1.951420744985489140e-04,-7.152391940218486566e-01,1.115438554757897105e-02
1.488000000000000000e+10,-1.059099802367792845e-04,-8.953226037212638896e-05,-7.156299936050958266e-01,1.133017838262199983e-02
1.496000000000000191e+10,-1.200451876669507932e-04,9.904526444220063813e-06,-7.160013422066434652e-01,1.154684835919232537e-02
1.504000000000000191e+10,-1.025231311993846973e-04,8.841234287840841176e-05,-7.163472102355594728e-01,1.180246769755611408e-02
1.511999999999999809e+10,-6.862844294330023730e-05,1.391979973936553804e-04,-7.166607839580096950e-01,1.209377924230293014e-02
1.519999999999999809e+10,-3.292725562242831321e-05,1.634278443643465411e-04,-7.169349444944851379e-01,1.241531473035385746e-02
1.527999999999999809e+10,-5.788941848671841058e-06,1.679731908436025577e-04,-7.171634255105677758e-01,1.275877761565959168e-02
1.536000000000000000e+10,8.029721447645250159e-06,1.619462794235061948e-04,-7.173424483352337511e-01,1.311321470277044231e-02
1.544000000000000000e+10,8.582999225851644905e-06,1.535962891362724445e-04,-7.174721964598335111e-01,1.346629790205172358e-02
1.552000000000000191e+10,-1.280220525511535754e-06,1.487798710799951424e-04,-7.175573117465400275e-01,1.380645085415333276e-02
1.560000000000000191e+10,-1.766554414244341236e-05,1.510318743205126750e-04,-7.176059933690034365e-01,1.412494745245212666e-02
1.567999999999999809e+10,-3.632160910618322284e-05,1.621902761682374660e-04,-7.176280734572259012e-01,1.441703977909234921e-02
1.575999999999999809e+10,-5.267189264680456129e-05,1.825373566052218100e-04,-7.176329884308172424e-01,1.468176125980350660e-02
1.583999999999999809e+10,-6.213702009004227849e-05,2.103563925158330721e-04,-7.176284504670399356e-01,1.492078564368599404e-02
1.592000000000000000e+10,-6.121434313841010179e-05,2.416465246048422975e-04,-7.176200774679785122e-01,1.513704997837285633e-02
