# Frequency, Real(S21), Imag(S21), Real(S11), Imag(S11)
4.000000000000000000e+09,2.676066090545435972e-06,1.424649119858982277e-04,-7.186975660328583926e-01,6.788476556642687558e-03
4.080000000000000000e+09,3.204043905783941347e-06,1.451735514669275030e-04,-7.186893103320569631e-01,6.944165695940288444e-03
4.160000000000000477e+09,2.280582820467301899e-06,1.461526370954099895e-04,-7.186552020085433812e-01,7.100751057234227538e-03
4.240000000000000000e+09,3.709580303496032912e-06,1.457047718151048554e-04,-7.186830729561336506e-01,7.261908115952281709e-03
4.320000000000000000e+09,4.612054690248290796e-06,1.443109492127017451e-04,-7.186612524438531491e-01,7.421790240358347966e-03
4.400000000000000000e+09,4.528770490558622515e-06,1.426174600768842981e-04,-7.186611268030473898e-01,7.585950482770752352e-03
4.480000000000000000e+09,4.953576547943839540e-06,1.412270790050442414e-04,-7.186392643907092426e-01,7.749788683192662675e-03
4.560000000000000000e+09,4.865390731312929948e-06,1.406999770776558604e-04,-7.186361142891559695e-01,7.918167796614217560e-03
4.640000000000000000e+09,4.795858196927848022e-06,1.412704868382828297e-04,-7.186139989097064529e-01,8.086444001012238827e-03
4.720000000000000000e+09,4.631981199503319641e-06,1.431331657835150490e-04,-7.185999097722487461e-01,8.258368415637025103e-03
4.800000000000000000e+09,4.950577131886097080e-06,1.461583207211366523e-04,-7.185702682496576399e-01,8.433339613084098879e-03
4.880000000000000000e+09,4.387052187135059600e-06,1.501654248492900355e-04,-7.185682323801165783e-01,8.610280849059430072e-03
4.960000000000000000e+09,4.716208677508555063e-06,1.547747290475452535e-04,-7.185396365973444333e-01,8.791245278485036729e-03
5.040000000000000000e+09,1.219615066435991105e-05,1.598005652530925776e-04,-7.185308596830257688e-01,8.974348134832992041e-03
5.120000000000000000e+09,4.618962828691321608e-06,1.645622079356839852e-04,-7.185095411663089404e-01,9.161548406026818331e-03
5.200000000000000000e+09,4.835696675743046986e-06,1.691796125542869038e-04,-7.184861239276032485e-01,9.352562580143785470e-03
5.280000000000000000e+09,5.074087515836988799e-06,1.733832304100177966e-04,-7.184602829179912442e-01,9.547694959929116029e-03
5.360000000000000000e+09,5.297960031567353145e-06,1.771065619705378754e-04,-7.184316228995643039e-01,9.747268429476473386e-03
5.440000000000000000e+09,5.473383080975083585e-06,1.803545629739286798e-04,-7.183996607313807292e-01,9.951617787314535890e-03
5.520000000000000000e+09,5.571426378759082450e-06,1.831816507860558837e-04,-7.183638043210426316e-01,1.016107676817871140e-02
5.600000000000000000e+09,5.568723833252005953e-06,1.856674288499691637e-04,-7.183233298518388876e-01,1.037595505401660810e-02
5.680000000000000000e+09,5.446103801856584051e-06,1.878945739595972711e-04,-7.182773618229292278e-01,1.059650118984165924e-02
5.760000000000000000e+09,6.163111976486512587e-06,1.899582917469760782e-04,-7.181901491698480244e-01,1.082246888725591112e-02
5.840000000000000954e+09,4.767981465520100170e-06,1.918224079727016496e-04,-7.181646594858306365e-01,1.105495480012565722e-02
5.920000000000000000e+09,4.166660115878777740e-06,1.935803370428141495e-04,-7.180954713727921712e-01,1.129253353880674791e-02
6.000000000000000000e+09,3.345675995392074885e-06,1.951891184032950532e-04,-7.180160082858927373e-01,1.153502825888140168e-02
6.080000000000000000e+09,2.253970598998540253e-06,1.966057828537637266e-04,-7.179250442487900008e-01,1.178161372721274990e-02
6.160000000000000000e+09,8.201537077922071474e-07,1.977662620362530374e-04,-7.178214862533311980e-01,1.203123558451401134e-02
6.239999999999999046e+09,-1.054169202809756602e-06,1.985921042368998584e-04,-7.177044126017130266e-01,1.228266362985034645e-02
6.320000000000000000e+09,-3.502482017883911297e-06,1.989980933049651890e-04,-7.175730865285890880e-01,1.253454275680764181e-02
6.400000000000000954e+09,-6.702710942077525001e-06,1.989010687781957295e-04,-7.174269547521515689e-01,1.278543374373914722e-02
6.480000000000000000e+09,-1.088731263069250894e-05,1.982307140570567874e-04,-7.172656393334088110e-01,1.303384316496713005e-02
6.560000000000000000e+09,-1.635314827762681441e-05,1.969433646990113211e-04,-7.170889278552763368e-01,1.327824466812383038e-02
6.640000000000000000e+09,-2.346976150244220081e-05,1.950398949573714904e-04,-7.168967642765677883e-01,1.351709425761289662e-02
6.720000000000000000e+09,-3.268435238953348843e-05,1.925885461368706921e-04,-7.166892413347830670e-01,1.374884170597440690e-02
6.799999999999999046e+09,-4.452148568781271116e-05,1.897529535664922696e-04,-7.164665946554548137e-01,1.397193960650152528e-02
6.880000000000000000e+09,-5.957550096241743458e-05,1.868249061664262775e-04,-7.162291984831583580e-01,1.418485109617799098e-02
6.960000000000000954e+09,-7.849349887643172383e-05,1.842607138782595671e-04,-7.159775628450036900e-01,1.438605695111764594e-02
7.039999999999999046e+09,-1.019471815022429684e-04,1.827185492148532373e-04,-7.157123319527204375e-01,1.457406260506694667e-02
7.120000000000000000e+09,-1.305920040390574856e-04,1.830944399179935457e-04,-7.154342836315973342e-01,1.474740547536465204e-02
7.200000000000000000e+09,-1.650128203187623249e-04,1.865524125298469648e-04,-7.151443295500973241e-01,1.490466297437200924e-02
7.280000000000000000e+09,-2.056559425002920673e-04,1.945451843853986205e-04,-7.148435160181451087e-01,1.504446146028691651e-02
7.359999999999999046e+09,-2.527484256862158911e-04,2.088208537411205198e-04,-7.145330250393934213e-01,1.516548639911919662e-02
7.440000000000000000e+09,-3.049620793649541551e-04,2.309320640494767589e-04,-7.142621712018643043e-01,1.526665805110819299e-02
7.520000000000000000e+09,-3.655367972712817272e-04,2.645991979271600323e-04,-7.138884227766598700e-01,1.534632385542679389e-02
7.599999999999999046e+09,-4.297334167827797976e-04,3.108579792001635485e-04,-7.135573603511270457e-01,1.540391448918601407e-02
7.680000000000000000e+09,-4.971788929263160333e-04,3.727661172737823346e-04,-7.132227162939661635e-01,1.543831871583593515e-02
7.760000000000000954e+09,-5.655537188555256672e-04,4.528901772687078057e-04,-7.128863508378145974e-01,1.544872179706670116e-02
7.840000000000000000e+09,-6.317638132804923512e-04,5.536385590760861675e-04,-7.125502505330010283e-01,1.543446029106991350e-02
7.919999999999999046e+09,-6.918942974601269237e-04,6.770860881798143908e-04,-7.122165198447478751e-01,1.539504194640740203e-02
8.000000000000000000e+09,-7.411988529805779756e-04,8.247721915681024019e-04,-7.118873695917312672e-01,1.533016607429154785e-02
8.080000000000000000e+09,-7.741339457496005782e-04,9.974774322700152244e-04,-7.115651017941717615e-01,1.523974382912980131e-02
8.159999999999999046e+09,-7.844465512282556988e-04,1.194985433765066371e-03,-7.112520906744018712e-01,1.512391777117967802e-02
8.240000000000000000e+09,-7.653228117503445976e-04,1.415839902435988900e-03,-7.109507596347800495e-01,1.498307988287224043e-02
8.320000000000000954e+09,-7.096032388653233025e-04,1.657109333341875946e-03,-7.106635541774686260e-01,1.481788721806112305e-02
8.400000000000000000e+09,-6.100674775969028340e-04,1.914174670442654342e-03,-7.103929109395101804e-01,1.462927425878540397e-02
8.480000000000000000e+09,-4.597884097634355135e-04,2.180557840474469170e-03,-7.101412232059708396e-01,1.441846104637194322e-02
8.560000000000000000e+09,-2.525514950931972893e-04,2.447811061683668413e-03,-7.099108035104760850e-01,1.418695619833420726e-02
8.640000000000000000e+09,1.666919586818256635e-05,2.705488275943124937e-03,-7.097038441458826119e-01,1.393655402440263993e-02
8.720000000000000000e+09,3.511918780466679723e-04,2.941220266872694548e-03,-7.095223766399481047e-01,1.366932508307502209e-02
8.800000000000000000e+09,7.520840351702161091e-04,3.140914221776181479e-03,-7.093682314345693962e-01,1.338759977496417099e-02
8.880000000000000000e+09,1.139283493171731367e-03,3.294894596251829195e-03,-7.092429991762418950e-01,1.309394480278884554e-02
8.959999999999998093e+09,1.742773760833537210e-03,3.369408033958342166e-03,-7.091479950618549966e-01,1.279113271271274839e-02
9.040000000000000000e+09,2.318774440927717090e-03,3.365273789593946872e-03,-7.090842277388350601e-01,1.248210502666866582e-02
9.120000000000000000e+09,2.932784327670931966e-03,3.260721853087141138e-03,-7.090523740838566846e-01,1.216992984853174607e-02
9.200000000000000000e+09,3.567730779404239792e-03,3.041362880850282616e-03,-7.090527610511923040e-01,1.185775520202378593e-02
9.280000000000000000e+09,4.209477494177858020e-03,2.688995852306656255e-03,-7.090872881733667477e-01,1.154565997875857571e-02
9.360000000000000000e+09,4.811510086846947781e-03,2.215255944378469698e-03,-7.091497622992929406e-01,1.124610129565443636e-02
9.440000000000000000e+09,5.366798880935674115e-03,1.597878624142517242e-03,-7.092452314356659793e-01,1.095286880616223521e-02
9.520000000000000000e+09,5.837512523441791210e-03,8.467709745392444946e-04,-7.093706727888038355e-01,1.067203316529819791e-02
9.600000000000000000e+09,6.191959944553762814e-03,-2.748249260796603415e-05,-7.095246788400838556e-01,1.040640486886359843e-02
9.680000000000000000e+09,6.399133460823408504e-03,-1.006430815055243131e-03,-7.097055535806194859e-01,1.015859612854907827e-02
9.760000000000000000e+09,6.430679170745103729e-03,-2.063461991035746464e-03,-7.099113464683259878e-01,9.930989808073728900e-03
9.840000000000000000e+09,6.263081345493043232e-03,-3.164029430996951296e-03,-7.101398897414177291e-01,9.725715620555621874e-03
9.920000000000000000e+09,5.879925406868632791e-03,-4.266501076695228094e-03,-7.103888374927866955e-01,9.544633982763794239e-03
1.000000000000000000e+10,5.274058802004370772e-03,-5.323696839272429489e-03,-7.106557048048580683e-01,9.389327281610754944e-03
1.008000000000000000e+10,4.449432282213056436e-03,-6.285123983249728263e-03,-7.109379054472184656e-01,9.261098130530175804e-03
1.016000000000000000e+10,3.173090701761933224e-03,-7.086239538776063079e-03,-7.113081347749860006e-01,9.148444123569368647e-03
1.024000000000000000e+10,2.222148541437855233e-03,-7.719838858509037866e-03,-7.115376613302529796e-01,9.089715468294085748e-03
1.032000000000000000e+10,8.903687975721605481e-04,-8.103588338891043810e-03,-7.118498327780943269e-01,9.047832071785562313e-03
1.040000000000000000e+10,-7.489808275661489654e-04,-8.196273944504308545e-03,-7.121666185129252868e-01,9.035595879438935302e-03
1.048000000000000000e+10,-1.949568647384164986e-03,-8.049676776234686304e-03,-7.124853660261721844e-01,9.053060179745341801e-03
1.056000000000000000e+10,-3.331673839318514269e-03,-7.590918521059829283e-03,-7.128034647925967082e-01,9.100076925579405132e-03
1.064000000000000000e+10,-4.601142941621940048e-03,-6.857271495734494973e-03,-7.131183534305837179e-01,9.176313657841677143e-03
1.072000000000000000e+10,-5.696722656402078075e-03,-5.879253869484441994e-03,-7.134275225980379886e-01,9.281268603599325540e-03
1.080000000000000000e+10,-6.566069107229672089e-03,-4.702462514152199249e-03,-7.137285142091981394e-01,9.414283261942183942e-03
1.088000000000000000e+10,-7.169724635378099675e-03,-3.384706910668336226e-03,-7.140189175248392583e-01,9.574551607714547677e-03
1.096000000000000000e+10,-7.484110584533972856e-03,-1.992038344124255796e-03,-7.142963628252947395e-01,9.761125244443415866e-03
1.104000000000000000e+10,-7.503223077505635427e-03,-5.940424501376046287e-04,-7.145585133960756785e-01,9.972913811098547618e-03
1.112000000000000191e+10,-7.238863275215515203e-03,7.411528429608581475e-04,-7.148030567746563868e-01,1.020867996891040158e-02
1.120000000000000000e+10,-6.719396778948800303e-03,1.951676419519028953e-03,-7.150276963258103136e-01,1.046702824133223693e-02
1.128000000000000000e+10,-5.953481440129171007e-03,2.999729871981485739e-03,-7.151629851034828622e-01,1.072735269091109819e-02
1.135999999999999809e+10,-5.095032547736758934e-03,3.806499475728735565e-03,-7.154081201521935718e-01,1.104498357250401422e-02
1.143999999999999809e+10,-4.107858499120929305e-03,4.397205262362584299e-03,-7.155917643949440965e-01,1.137013444808317002e-02
1.152000000000000000e+10,-3.068133288470658616e-03,4.732259631559544190e-03,-7.156815820345699963e-01,1.169158617119048227e-02
1.160000000000000000e+10,-2.051710495444624555e-03,4.840698286152614674e-03,-7.157726055115406494e-01,1.203470660003165375e-02
1.168000000000000191e+10,-1.103703264796660225e-03,4.738810300811384033e-03,-7.158302924379721377e-01,1.238719396199646286e-02
1.176000000000000000e+10,-2.655270203826208238e-04,4.460286602366671238e-03,-7.158526549729219424e-01,1.274564236538403700e-02
1.184000000000000000e+10,4.540075824952487368e-04,4.021952241682990106e-03,-7.158547798486616376e-01,1.311042002778371740e-02
1.191999999999999809e+10,9.757574116389066115e-04,3.541329138176855986e-03,-7.157846815512415306e-01,1.346436621475384683e-02
1.200000000000000000e+10,1.369258354001586658e-03,2.952492434395815463e-03,-7.155491444050308125e-01,1.381458491331995393e-02
1.208000000000000000e+10,1.592602034365659660e-03,2.397519316501064805e-03,-7.154501629691135678e-01,1.415413028098733671e-02
1.216000000000000000e+10,1.679307108494654775e-03,1.877641290175048909e-03,-7.153131681859178359e-01,1.447522744749032628e-02
1.224000000000000191e+10,1.663032829713772132e-03,1.439109424450536181e-03,-7.151780726457472870e-01,1.476769908064912151e-02
1.232000000000000000e+10,1.754952318083934570e-03,1.035258592545578848e-03,-7.149335285605448176e-01,1.503104306458832168e-02
1.239999999999999809e+10,1.403453397591646924e-03,7.304498922136756474e-04,-7.146581106653682181e-01,1.525684394985974204e-02
1.247999999999999809e+10,1.217348085332570912e-03,4.985873878861234914e-04,-7.143573704988582795e-01,1.543936305275533417e-02
1.256000000000000000e+10,1.025164836697180139e-03,3.409414932943225863e-04,-7.140382553647286468e-01,1.557377687938449155e-02
1.264000000000000000e+10,8.439291165068832324e-04,2.456431113134386430e-04,-7.137089288888126548e-01,1.565660165882922991e-02
1.272000000000000000e+10,6.846259747551048779e-04,1.985798118888344255e-04,-7.133784374867025990e-01,1.568607603667895520e-02
1.280000000000000191e+10,5.424792564581412983e-04,1.820359594153237587e-04,-7.129730971550887197e-01,1.552657978836109731e-02
1.288000000000000000e+10,4.483888461228175120e-04,1.941255398493759387e-04,-7.127516054012970059e-01,1.558803308692867373e-02
1.295999999999999809e+10,3.695812018896034619e-04,2.144060324256776961e-04,-7.124730604268713074e-01,1.546722471324703252e-02
1.303999999999999809e+10,3.119295224343443355e-04,2.396742444059665983e-04,-7.122277855405099167e-01,1.530608435199254727e-02
1.312000000000000000e+10,2.708898330177920218e-04,2.660035450690122314e-04,-7.120212291508976055e-01,1.511191262813757659e-02
1.320000000000000000e+10,2.425355422589695466e-04,2.916442664297895547e-04,-7.118568885581917360e-01,1.489265005177748888e-02
1.328000000000000000e+10,2.240746597243205524e-04,3.162045096413933741e-04,-7.117363192434984498e-01,1.465626954584517763e-02
1.335999999999999809e+10,2.139700411830546467e-04,3.398474074711773513e-04,-7.116593504012821425e-01,1.441023911121642326e-02
1.344000000000000000e+10,2.117596704652775384e-04,3.626276073901011287e-04,-7.116244550578074701e-01,1.416112520581449923e-02
1.351999999999999809e+10,2.176809932858322092e-04,3.840237952781758797e-04,-7.116292015658336467e-01,1.391437655413096421e-02
1.359999999999999809e+10,2.321818449029989693e-04,4.026845929226326995e-04,-7.116707079006338033e-01,1.367429402443323672e-02
1.368000000000000000e+10,2.553807018918553308e-04,4.163983485058074985e-04,-7.117460290803124812e-01,1.344416075731166144e-02
1.376000000000000000e+10,2.865426764046580688e-04,4.223032746260672876e-04,-7.118524272715537338e-01,1.322648371732396307e-02
1.384000000000000000e+10,3.236651401284063815e-04,4.173455332850882992e-04,-7.119875000768970397e-01,1.302328458007322165e-02
1.392000000000000000e+10,3.632960432016327408e-04,3.989479182702763602e-04,-7.121491700653760359e-01,1.283637635845794912e-02
1.400000000000000000e+10,4.007027415358169762e-04,3.657746860557936348e-04,-7.123355646452426138e-01,1.266757179806252825e-02
1.407999999999999809e+10,4.304458929454119511e-04,3.183999337916120940e-04,-7.125448344152277569e-01,1.251878975659197722e-02
1.415999999999999809e+10,4.472941204135471790e-04,2.596555377680276658e-04,-7.127749655578707877e-01,1.239205251010032198e-02
1.424000000000000000e+10,4.472827436541691325e-04,1.944853547822340194e-04,-7.130236354159802392e-01,1.228939358697361990e-02
1.432000000000000000e+10,4.286338830170984470e-04,1.292640617097733872e-04,-7.132881414567125988e-01,1.221271493803263546e-02
1.440000000000000000e+10,3.922626255734698087e-04,7.070785626924478481e-05,-7.135654089138471212e-01,1.216363783128086157e-02
1.448000000000000000e+10,3.421384844338630016e-04,2.543129715757070676e-05,-7.138573272901149736e-01,1.186969103947421895e-02
1.456000000000000000e+10,2.824482191149938121e-04,-5.061506979683546865e-06,-7.141445133070845053e-01,1.215270547924661784e-02
1.463999999999999809e+10,2.208928842791946939e-04,-1.710161531937129950e-05,-7.144390846577325371e-01,1.219186207456922875e-02
1.471999999999999809e+10,1.631167421534545649e-04,-1.280192845156300180e-05,-7.147320627171989127e-01,1.226062812022966561e-02
1.480000000000000000e+10,1.138376951144731713e-04,4.392607800872899227e-06,-7.150197576739162342e-01,1.235830401801406297e-02
1.488000000000000000e+10,7.574536236137932002e-05,2.980605635601691825e-05,-7.152985306827152057e-01,1.248370873149745423e-02
1.496000000000000191e+10,1.662865852837731070e-04,5.971082071187847182e-05,-7.155648291925510440e-01,1.263514083964322778e-02
1.504000000000000191e+10,3.323616970029684284e-05,8.653899184017424507e-05,-7.158152587218319374e-01,1.281031347797643646e-02
1.511999999999999809e+10,2.485137468457333527e-05,1.109279661179386376e-04,-7.160467169237512142e-01,1.300628999764813325e-02
1.519999999999999809e+10,2.116996851408586594e-05,1.304948839442803628e-04,-7.162565968977854247e-01,1.321946520136114966e-02
1.527999999999999809e+10,1.946383488066212163e-05,1.453749026663274076e-04,-7.164430354968275294e-01,1.344564185151109377e-02
1.536000000000000000e+10,1.775609679188928637e-05,1.566470663463302509e-04,-7.166051486879375654e-01,1.368023444816636111e-02
1.544000000000000000e+10,1.499678853853827150e-05,1.658225178799174564e-04,-7.167431775566004415e-01,1.391859138089226490e-02
1.552000000000000191e+10,1.099893124489614656e-05,1.743972875389744191e-04,-7.168584815783236586e-01,1.415637710388460702e-02
1.560000000000000191e+10,6.233177349866105362e-06,1.835410779042427728e-04,-7.169533617048232665e-01,1.438992348380516151e-02
1.567999999999999809e+10,1.569204078154351550e-06,1.939227907010991235e-04,-7.170307545197578403e-01,1.461646487818829727e-02
1.575999999999999809e+10,-1.989378190116809062e-06,2.056450927950519841e-04,-7.170938799320137891e-01,1.483421405495977986e-02
1.583999999999999809e+10,-3.562505923116769186e-06,2.182733420400346169e-04,-7.171459282837315818e-01,1.504229265788879256e-02
1.592000000000000000e+10,-2.621457762268389276e-06,2.309635878676793855e-04,-7.171898417720039554e-01,1.524057181566685661e-02
