# Frequency, Real(S21), Imag(S21), Real(S11), Imag(S11), Amp(S21), Amp(S11)
2.000000000000000000e+09,3.264741077114340561e-05,5.515037145306857941e-05,-7.197960353269079459e-01,-3.183628044732846312e-03,6.408913247557039236e-05,7.198030758199512880e-01
2.106666666666666746e+09,3.678749192339067210e-05,5.881471606462021972e-05,-7.198156235229681288e-01,-3.377953456134939227e-03,6.937211534741771952e-05,7.198235495156511954e-01
2.213333333333333492e+09,5.108212580060075435e-05,6.412994842799137106e-05,-7.198593162954071145e-01,-3.563333366381649103e-03,8.198801047522274175e-05,7.198681355650985436e-01
2.320000000000000000e+09,2.191274209729718320e-05,6.614104174148478289e-05,-7.199485845692031871e-01,-3.722672957039144769e-03,6.967643553506085836e-05,7.199582090074008178e-01
2.426666666666666508e+09,1.838972161053083695e-05,7.066694646330092520e-05,-7.199953844115001278e-01,-3.901580914644875442e-03,7.302053946226270487e-05,7.200059554666873307e-01
2.533333333333333492e+09,-4.682482249358698909e-06,7.518292414442221468e-05,-7.200542200555661854e-01,-4.062525953183091475e-03,7.532859830716023895e-05,7.200656802937840384e-01
2.640000000000000477e+09,-2.057594810047062019e-06,7.752318871973718070e-05,-7.187438121228374444e-01,-4.200192286417142769e-03,7.755048991256159683e-05,7.187560845517145802e-01
2.746666666666666985e+09,8.594448921795896871e-06,8.179920923672949896e-05,-7.187591728472284558e-01,-4.377922637312708053e-03,8.224946920207820982e-05,7.187725055667129048e-01
2.853333333333333015e+09,1.311247999561515661e-05,8.512488816100241930e-05,-7.187762297051499827e-01,-4.562291310561076424e-03,8.612887852548979553e-05,7.187907086844911309e-01
2.960000000000000000e+09,1.153536871386033394e-05,8.859727011951854187e-05,-7.188010023395573489e-01,-4.748246050869231807e-03,8.934506703783729636e-05,7.188166851186135187e-01
3.066666666666666985e+09,2.168030636183505449e-06,9.204634625297589590e-05,-7.188560267845953700e-01,-4.930969451724237333e-03,9.207187526797834119e-05,7.188729384976657588e-01
3.173333333333333015e+09,-1.374235868762164900e-06,9.562007032504394764e-05,-7.188492928821091921e-01,-5.121873071212411713e-03,9.562994496071480885e-05,7.188675395793483469e-01
3.280000000000000000e+09,1.061787173491071942e-05,9.871350525526978036e-05,-7.188678787902447187e-01,-5.314513644832697531e-03,9.928290547703159995e-05,7.188875233384337538e-01
3.386666666666666508e+09,-4.880651179657973665e-07,1.027543218338489715e-04,-7.188518501202492139e-01,-5.511001538810482089e-03,1.027554809394301278e-04,7.188729745645373592e-01
3.493333333333333492e+09,4.711768251693587489e-06,1.076218001679636724e-04,-7.188765400984490350e-01,-5.710338313595566748e-03,1.077248932765810415e-04,7.188992195485905956e-01
3.600000000000000000e+09,-1.477062910644811601e-06,1.147749094013683060e-04,-7.188612594906615971e-01,-5.915636768918663274e-03,1.147844133274823384e-04,7.188855994905462010e-01
3.706666666666666985e+09,-1.506993684904751989e-06,1.232866429550386143e-04,-7.188875201420369399e-01,-6.122126844825055703e-03,1.232958529760410000e-04,7.189135880292371050e-01
3.813333333333333969e+09,-1.368225948866884417e-06,1.323853743309244123e-04,-7.188941374665933637e-01,-6.335184298844677084e-03,1.323924445691147865e-04,7.189220510207886550e-01
3.920000000000000000e+09,-1.241615184699243615e-06,1.405236244731847338e-04,-7.188888664608840129e-01,-6.554787677469890370e-03,1.405291095942314721e-04,7.189187489298852762e-01
4.026666666666666985e+09,-2.055142610061883602e-07,1.463150007266751738e-04,-7.189103881912879412e-01,-6.778182840607523477e-03,1.463151450594176546e-04,7.189423412290926185e-01
4.133333333333333015e+09,7.273959031098771962e-07,1.490609483134155457e-04,-7.189204567268473456e-01,-7.009345155404691011e-03,1.490627230963348609e-04,7.189546258421642966e-01
4.240000000000000000e+09,1.207383512670070384e-06,1.490166765661375843e-04,-7.189219498459206159e-01,-7.249296929760722964e-03,1.490215678006493209e-04,7.189584982989186690e-01
4.346666666666666985e+09,2.393170363484795471e-06,1.473049570408280272e-04,-7.189461098706643183e-01,-7.494991133251331303e-03,1.473243959199862228e-04,7.189851763355409320e-01
4.453333333333333015e+09,2.765644826693736942e-06,1.453171243353353266e-04,-7.189627049510942669e-01,-7.751652048655084670e-03,1.453434395368388178e-04,7.190044917940900948e-01
4.560000000000000000e+09,2.745493842313347679e-06,1.443807822252407677e-04,-7.189828335790150460e-01,-8.019457882015978284e-03,1.444068835354138576e-04,7.190275562772480145e-01
4.666666666666666985e+09,2.409806737784587534e-06,1.452987577518257268e-04,-7.190077131000599531e-01,-8.300322683450276143e-03,1.453187399227546519e-04,7.190556215300925036e-01
4.773333333333333015e+09,1.904450246920141502e-06,1.482171423712926462e-04,-7.190392247474608478e-01,-8.596646722605665730e-03,1.482293770595256312e-04,7.190906125519250791e-01
4.880000000000000000e+09,1.376931513403965859e-06,1.526983817246847330e-04,-7.190804274371420668e-01,-8.911322034659160257e-03,1.527045897205782583e-04,7.191356428265729406e-01
4.986666666666666985e+09,9.148028455682440793e-07,1.579354149808410567e-04,-7.191364246356460876e-01,-9.247311065576328468e-03,1.579380643461757042e-04,7.191958773517016512e-01
5.093333333333333969e+09,5.106320137108243420e-07,1.629980512642019224e-04,-7.192150806777108940e-01,-9.606055085831276610e-03,1.629988511032541716e-04,7.192792285118195794e-01
5.200000000000000000e+09,5.458422409288375319e-08,1.670142027667273694e-04,-7.193257433430966241e-01,-9.985165715132415798e-03,1.670142116864401568e-04,7.193950434708715758e-01
5.306666666666666985e+09,-6.767869923971655513e-07,1.692312493213788023e-04,-7.194762883801846254e-01,-1.037839570674867380e-02,1.692326026139991558e-04,7.195511383069117528e-01
5.413333333333333015e+09,-2.087111778378947344e-06,1.689733051340765852e-04,-7.196718779855741932e-01,-1.077765177145657664e-02,1.689861943577320683e-04,7.197525753625269029e-01
5.520000000000000000e+09,-4.913130006421296636e-06,1.655718747633991045e-04,-7.199153734676418948e-01,-1.117435233580184317e-02,1.656447540947998708e-04,7.200020910422266773e-01
5.626666666666666985e+09,-1.045372845240236505e-05,1.583676500040242889e-04,-7.202078876105860727e-01,-1.155989546470600517e-02,1.587122963300377184e-04,7.203006542824027525e-01
5.733333333333333969e+09,-2.082484343526248469e-05,1.468700367685147278e-04,-7.205491123151390731e-01,-1.192579634071902830e-02,1.483390771323863516e-04,7.206477973854462649e-01
5.840000000000000954e+09,-3.915451433466495793e-05,1.311280460108918964e-04,-7.209374839700030124e-01,-1.226374325232326701e-02,1.368489694642165209e-04,7.210417846363393890e-01
5.946666666666666985e+09,-6.960689412551106822e-05,1.123156530928200159e-04,-7.213702567600687177e-01,-1.256564476943680501e-02,1.321360118948154108e-04,7.214796897810492604e-01
6.053333333333333969e+09,-1.171160322833823017e-04,9.347201415989500627e-05,-7.218435222890776659e-01,-1.282369020390772968e-02,1.498438602309412572e-04,7.219574209751902227e-01
6.160000000000000000e+09,-1.867275117301698791e-04,8.026948617121315100e-05,-7.223521960845719070e-01,-1.303043347808855584e-02,2.032494872001681398e-04,7.224697138183930889e-01
6.266666666666666985e+09,-2.824926140804029200e-04,8.162103610047697451e-05,-7.228899846258037831e-01,-1.317890895521316511e-02,2.940477351453243612e-04,7.230101060936455770e-01
6.373333333333333015e+09,-4.059359845369295847e-04,1.098978202533284435e-04,-7.234493457921211679e-01,-1.326278810677545932e-02,4.205491106142054459e-04,7.235709070128603093e-01
6.480000000000000000e+09,-5.542165956708229504e-04,1.805196564393568353e-04,-7.240214586861120072e-01,-1.327658555679535161e-02,5.828750992090328672e-04,7.241431767005833686e-01
6.586666666666666985e+09,-7.182105302509215637e-04,3.107164548628632474e-04,-7.245962240138281718e-01,-1.321592017395569439e-02,7.825414245174856049e-04,7.247167366641549258e-01
6.693333333333333015e+09,-8.808454075546695919e-04,5.173395228872399235e-04,-7.251623215803711942e-01,-1.307783021541183803e-02,1.021532580954395610e-03,7.252802370690771827e-01
6.799999999999999046e+09,-1.016092853342698494e-03,8.137253088456555990e-04,-7.257073552550513673e-01,-1.286113094357477227e-02,1.301765556799712106e-03,7.258213100759919323e-01
6.906666666666666031e+09,-1.089062291775379047e-03,1.205770501463025723e-03,-7.262181149980164729e-01,-1.256678891037953279e-02,1.624788964008999420e-03,7.263268374050282361e-01
7.013333333333333015e+09,-1.057625307867330559e-03,1.687555906968314125e-03,-7.266809777853434626e-01,-1.219827106139907517e-02,1.991586360413505948e-03,7.267833523767245341e-01
7.120000000000000000e+09,-8.759265835880717093e-04,2.237046466126731744e-03,-7.270824532545164809e-01,-1.176181324821108133e-02,2.402420502627791547e-03,7.271775808435597677e-01
7.226666666666666985e+09,-5.005488789281738052e-04,2.827302820459676180e-03,-7.274210399791288806e-01,-1.126360194092882773e-02,2.871269826884177093e-03,7.275082392200112880e-01
7.333333333333333015e+09,1.045538469404859103e-04,3.351097393990929221e-03,-7.276520544296146698e-01,-1.072441673600808831e-02,3.352728031159529082e-03,7.277310804342264072e-01
7.440000000000000000e+09,9.530777805118381945e-04,3.769021015554975713e-03,-7.278002287788023494e-01,-1.014987897068845256e-02,3.887656964213847838e-03,7.278710002834269943e-01
7.546666666666666985e+09,2.031532904397279678e-03,3.967158349754134651e-03,-7.278485325066108569e-01,-9.559328577255906886e-03,4.457069812519520551e-03,7.279113043735994104e-01
7.653333333333333969e+09,3.286626577232050744e-03,3.840416635326131256e-03,-7.277945758400713450e-01,-8.970339094352937706e-03,5.054771428171381600e-03,7.278498551251466608e-01
7.760000000000000954e+09,4.618705650080969817e-03,3.293098687444292409e-03,-7.276396503066646648e-01,-8.400764674237273452e-03,5.672472198903860847e-03,7.276881430568434839e-01
7.866666666666666985e+09,5.880374861390631411e-03,2.259435395952831896e-03,-7.273886624656245026e-01,-7.867819132832904253e-03,6.299512427081909935e-03,7.274312124602828611e-01
7.973333333333333969e+09,6.884317049943166830e-03,7.274752086593048919e-04,-7.270497916499009117e-01,-7.387242024040101100e-03,6.922646995431161292e-03,7.270873199849424706e-01
8.080000000000000954e+09,7.418602611731174232e-03,-1.251069179640626212e-03,-7.266332226899051561e-01,-6.969134807428644003e-03,7.523352896350886387e-03,7.266666423860953516e-01
8.186666666666667938e+09,7.304677790778367139e-03,-3.479004475477352754e-03,-7.261540244259434562e-01,-6.635084451984197759e-03,8.090846047693786916e-03,7.261843371594285390e-01
8.293333333333334923e+09,6.393729847127303106e-03,-5.746518406272727204e-03,-7.256243422788031250e-01,-6.382886327239100342e-03,8.596642085819193591e-03,7.256524149656032874e-01
8.399999999999999046e+09,4.662660446480228552e-03,-7.722975932290918923e-03,-7.250598745697540704e-01,-6.221649183624285151e-03,9.021350214347960417e-03,7.250865676797988435e-01
8.506666666666666031e+09,2.226082327263626676e-03,-9.074257157037753097e-03,-7.244757922794392568e-01,-6.154398720680805124e-03,9.343317691259692137e-03,7.245019325181503156e-01
8.613333333333332062e+09,-6.505416440104839701e-04,-9.521174584111731509e-03,-7.238870431797257421e-01,-6.181811446972891588e-03,9.543373087736173321e-03,7.239134382481458019e-01
8.720000000000000000e+09,-3.582671132027138734e-03,-8.914204247530227443e-03,-7.233080481847458110e-01,-6.302476040967406982e-03,9.607214466584294843e-03,7.233355056770499614e-01
8.826666666666666031e+09,-6.157034785693448267e-03,-7.268636451296462200e-03,-7.227287628886388537e-01,-6.491772566048517774e-03,9.525867583236436939e-03,7.227579178518847014e-01
8.933333333333332062e+09,-7.932006544809456355e-03,-4.863713929409638204e-03,-7.222331933797119241e-01,-6.809214170698392118e-03,9.304431256881497136e-03,7.222652913002803876e-01
9.040000000000000000e+09,-8.714932791795063430e-03,-2.020951344165950077e-03,-7.217621620243216407e-01,-7.184686328043463945e-03,8.946189015496546978e-03,7.217979206451453633e-01
9.146666666666666031e+09,-8.428731452926600809e-03,7.993360841698356981e-04,-7.213507488466364137e-01,-7.632759239885825858e-03,8.466549006591182758e-03,7.213911296066907175e-01
9.253333333333333969e+09,-7.210922993509921719e-03,3.185401335343758002e-03,-7.210100111084806196e-01,-8.145736909404958231e-03,7.883158763182426462e-03,7.210560235851640742e-01
9.360000000000000000e+09,-5.351721186495437405e-03,4.839768139027398469e-03,-7.207511583709066416e-01,-8.714870915971759807e-03,7.215557864609559342e-03,7.208038438216639587e-01
9.466666666666666031e+09,-3.219772312396748312e-03,5.628153947909044982e-03,-7.205859785320652966e-01,-9.329786812528552756e-03,6.484061274004192764e-03,7.206463747074436377e-01
9.573333333333333969e+09,-1.179383421876250941e-03,5.586372048455389913e-03,-7.205270419705358531e-01,-9.977458330248390947e-03,5.709509428975505924e-03,7.205961198102180942e-01
9.680000000000000000e+09,4.804238701342456938e-04,4.890001344755382819e-03,-7.205873966550641052e-01,-1.064072480835917545e-02,4.913544570542147973e-03,7.206659567667741406e-01
9.786666666666667938e+09,1.591505198046999159e-03,3.798991885227379506e-03,-7.207793634526361570e-01,-1.129648786598355138e-02,4.118886759724537175e-03,7.208678806947176332e-01
9.893333333333333969e+09,2.120851668640233011e-03,2.592080160622606873e-03,-7.211119715370756245e-01,-1.191400252503770248e-02,3.349162784856445172e-03,7.212103846661214179e-01
1.000000000000000000e+10,2.154008509706578818e-03,1.505657488812613522e-03,-7.215866849500746083e-01,-1.245414128936757001e-02,2.628070990956268577e-03,7.216941523474427189e-01
1.010666666666666794e+10,1.853629546924776168e-03,6.900347477710153153e-04,-7.221916251973987677e-01,-1.287105801266898684e-02,1.977900515790407664e-03,7.223063115047697602e-01
1.021333333333333397e+10,1.404433626712221468e-03,1.928659206846933781e-04,-7.228957293831791420e-01,-1.311787362090800248e-02,1.417614572160429695e-03,7.230147399388014984e-01
1.031999999999999809e+10,9.605895564846478329e-04,-2.666603976708508371e-05,-7.236459578684112381e-01,-1.315701316708679791e-02,9.609596108600154023e-04,7.237655555045220401e-01
1.042666666666666603e+10,6.127099972147953500e-04,-5.941891826652433498e-05,-7.243714632854074686e-01,-1.297302685413686402e-02,6.155843959482065883e-04,7.244876232538417504e-01
1.053333333333333206e+10,3.892816028805051775e-04,-6.498405218377588215e-07,-7.249966635670459514e-01,-1.236403606554773056e-02,3.892821452801542982e-04,7.251020835518117158e-01
1.064000000000000000e+10,2.555232243355268391e-04,8.037646487835787244e-05,-7.254585633384255106e-01,-1.203239213274115774e-02,2.678665605878528984e-04,7.255583405774399530e-01
1.074666666666666603e+10,1.891518360445156597e-04,1.517450440917159603e-04,-7.257230499890353626e-01,-1.139116974013703633e-02,2.424973721206235059e-04,7.258124441158587681e-01
1.085333333333333206e+10,1.549090601375914707e-04,2.071279038703781046e-04,-7.257873536738191911e-01,-1.072769129353763444e-02,2.586479953033630889e-04,7.258666310785576448e-01
1.096000000000000000e+10,1.359103433649547872e-04,2.543324247815647579e-04,-7.256732889521501084e-01,-1.009756893900849717e-02,2.883688674750625952e-04,7.257435381711013767e-01
1.106666666666666603e+10,1.306105951683053440e-04,3.041289733955308177e-04,-7.254140091878548136e-01,-9.536716997508977098e-03,3.309887611820655625e-04,7.254766941102158695e-01
1.117333333333333397e+10,1.505329773085877507e-04,3.595857879639306428e-04,-7.250426419376138076e-01,-9.064008756132963668e-03,3.898231857689184480e-04,7.250992958778860187e-01
1.128000000000000000e+10,2.101913152184689830e-04,4.064265462348884178e-04,-7.245868571168467831e-01,-8.688297665033211867e-03,4.575619373130698710e-04,7.246389445943309804e-01
1.138666666666666603e+10,3.088349147581144353e-04,4.138860946856448781e-04,-7.240693107992929312e-01,-8.414690488655476169e-03,5.164113708544636064e-04,7.241182043405502977e-01
1.149333333333333397e+10,4.171577487452358740e-04,3.534874030151031001e-04,-7.235108329425670171e-01,-8.247048934624452363e-03,5.467850870575708322e-04,7.235578340404982267e-01
1.160000000000000000e+10,4.860676813190307815e-04,2.250273580376672619e-04,-7.229326410794790769e-01,-8.187072231027948607e-03,5.356296320110299136e-04,7.229789980973632124e-01
1.170666666666666794e+10,4.760060937387631261e-04,6.580554982555723268e-05,-7.223560232681698334e-01,-8.232702913532872341e-03,4.805332159843687923e-04,7.224029358668658807e-01
1.181333333333333397e+10,3.833408295758341058e-04,-6.802600325620417358e-05,-7.218008486769370569e-01,-8.378098352512972427e-03,3.893298456821693110e-04,7.218494702379097960e-01
1.192000000000000000e+10,2.424594430633832814e-04,-1.334511438167393675e-04,-7.212851524936283454e-01,-8.614919285781076283e-03,2.767594430486556081e-04,7.213365982965631584e-01
1.202666666666666794e+10,1.041219392679025113e-04,-1.218990715376249920e-04,-7.208265072819510788e-01,-8.932847839462932163e-03,1.603145716354062163e-04,7.208818553485859537e-01
1.213333333333333397e+10,5.639372335536614687e-04,-6.013759051707581391e-05,-7.204435238404761632e-01,-9.317379375918397738e-03,5.671346693523121379e-04,7.205037714003428295e-01
1.224000000000000191e+10,-3.535326279300179486e-05,2.102313867216445148e-05,-7.201539779708236999e-01,-9.745137853043862181e-03,4.113180703227250140e-05,7.202199106515846383e-01
1.234666666666666603e+10,-4.055985551102267623e-05,8.537542564086307898e-05,-7.198958674230325760e-01,-1.022118962720287502e-02,9.452018399492024821e-05,7.199684247591388031e-01
1.245333333333333206e+10,-2.389515765530995705e-05,1.202956007523652525e-04,-7.198711724040168791e-01,-1.058605811121599363e-02,1.226458728198571632e-04,7.199490047806634818e-01
1.256000000000000000e+10,-1.299962467433624365e-05,1.344819803438165580e-04,-7.198355850012111423e-01,-1.093142057441838684e-02,1.351088201372074361e-04,7.199185824729145144e-01
1.266666666666666603e+10,-1.454764922203813035e-05,1.406411804866621257e-04,-7.198208617790703423e-01,-1.121274141883903119e-02,1.413915688666383540e-04,7.199081876340129860e-01
1.277333333333333206e+10,-2.518963626030260846e-05,1.526011268505187075e-04,-7.197974583825987871e-01,-1.144559178732865688e-02,1.546661620748845457e-04,7.198884515433006115e-01
1.288000000000000000e+10,-3.317076878591430585e-05,1.752374954794463338e-04,-7.197521586851529651e-01,-1.165319643458220811e-02,1.783493193812568569e-04,7.198464884397788310e-01
1.298666666666666603e+10,-2.895448707481276861e-05,2.015323306964704323e-04,-7.196852588704045761e-01,-1.185681146917835944e-02,2.036016764118533180e-04,7.197829227020997589e-01
1.309333333333333397e+10,-1.385446428330629411e-05,2.204429511423656887e-04,-7.196058383615216991e-01,-1.207173929763107577e-02,2.208778868264834434e-04,7.197070858992972164e-01
1.320000000000000000e+10,3.098829014672546157e-06,2.279425961725937077e-04,-7.195282426054903091e-01,-1.230542507646364622e-02,2.279636591458478472e-04,7.196334590562460942e-01
1.330666666666666603e+10,1.537859800961804892e-05,2.281594670604604794e-04,-7.194681546771982683e-01,-1.255579460151893915e-02,2.286771603944188764e-04,7.195777050275310449e-01
1.341333333333333397e+10,2.241483369477837302e-05,2.260186109999336483e-04,-7.194372442458805139e-01,-1.281146233644143463e-02,2.271273591796107321e-04,7.195513060062532773e-01
1.352000000000000000e+10,2.551840066900208127e-05,2.237316496114017154e-04,-7.194381853929893156e-01,-1.305529787165221438e-02,2.251822368894641671e-04,7.195566297408946266e-01
1.362666666666666794e+10,2.579747535951764894e-05,2.224777927809219150e-04,-7.194623243570072990e-01,-1.327071263962154198e-02,2.239684754950922827e-04,7.195847052176351788e-01
1.373333333333333397e+10,2.478795188118133782e-05,2.227565670303933759e-04,-7.194915956745744356e-01,-1.344893447620528273e-02,2.241315031708615026e-04,7.196172802850766548e-01
1.384000000000000000e+10,2.367778994889759242e-05,2.237366048538776912e-04,-7.195054415432291517e-01,-1.359403370171598929e-02,2.249860130950462507e-04,7.196338500672411209e-01
