# Frequency, Real(S21), Imag(S21), Real(S11), Imag(S11), Amp(S21), Amp(S11)
4.000000000000000000e+09,1.882614810523749614e-06,1.419185922945123105e-04,-7.187501803728838512e-01,6.720244394802049777e-03,1.419310786169851349e-04,7.187815965025670106e-01
4.080000000000000000e+09,2.361468883171736837e-06,1.446154204186807549e-04,-7.187454348359130218e-01,6.874473550377845597e-03,1.446346997029342759e-04,7.187783096922586434e-01
4.160000000000000477e+09,2.849909688911896203e-06,1.456067946325872444e-04,-7.187404160168273659e-01,7.030442810086521763e-03,1.456346820932822553e-04,7.187747997406057632e-01
4.240000000000000000e+09,1.249892152707153505e-06,1.451353156718331408e-04,-7.187056697143894279e-01,7.187678441934105059e-03,1.451406975508801045e-04,7.187416103169439463e-01
4.320000000000000000e+09,3.002175331031177388e-06,1.437720693690928996e-04,-7.187461164447352946e-01,7.349097630016367816e-03,1.438034109031823752e-04,7.187836873081946409e-01
4.400000000000000000e+09,3.013472960910053245e-05,1.423411816688677049e-04,-7.187234673583208222e-01,7.509569955732403601e-03,1.454960959184238697e-04,7.187626980947796618e-01
4.480000000000000000e+09,3.981061469324481146e-06,1.406873072915009099e-04,-7.187170851003193972e-01,7.673345705646438669e-03,1.407436225317358549e-04,7.187580459719515868e-01
4.560000000000000000e+09,3.971958877595346479e-06,1.401112767969158737e-04,-7.187102742010162970e-01,7.839361257334290581e-03,1.401675652317157226e-04,7.187530270037288949e-01
4.640000000000000000e+09,3.887651345061135519e-06,1.406746446054246225e-04,-7.187029885803027929e-01,8.007771236511205051e-03,1.407283534609968928e-04,7.187475983921164380e-01
4.720000000000000000e+09,3.708999290342264995e-06,1.425263352154185442e-04,-7.187089132825683624e-01,8.180075430332629099e-03,1.425745871664148214e-04,7.187554630511383547e-01
4.800000000000000000e+09,3.685101065178529593e-06,1.454781920027343686e-04,-7.186867694446025245e-01,8.352513503897620456e-03,1.455248580767046457e-04,7.187353038890966772e-01
4.880000000000000000e+09,3.656671569956419378e-06,1.494043442724498033e-04,-7.186776987415635087e-01,8.529283011879327733e-03,1.494490860943994981e-04,7.187283098203147702e-01
4.960000000000000000e+09,3.768419832632212836e-06,1.539900356722607262e-04,-7.186780183205137007e-01,8.710624131968370404e-03,1.540361388583182632e-04,7.187308042583600010e-01
5.040000000000000000e+09,3.916121743996838632e-06,1.588062230194746025e-04,-7.186654014425487569e-01,8.894190132894755699e-03,1.588545009725091572e-04,7.187204365041387488e-01
5.120000000000000000e+09,-5.842933385579525581e-05,1.612227115147282482e-04,-7.186360572770634780e-01,9.081376467183802439e-03,1.714839635738376342e-04,7.186934354905862854e-01
5.200000000000000000e+09,4.453075066931902000e-06,1.680917008886690842e-04,-7.186326783091135928e-01,9.272339426053452169e-03,1.681506758392529370e-04,7.186924951689435126e-01
5.280000000000000000e+09,4.825825262808835123e-06,1.721852508862105617e-04,-7.186184898495445728e-01,9.468951969069574343e-03,1.722528641625863956e-04,7.186808714617584082e-01
5.360000000000000000e+09,5.218336765747294750e-06,1.757801565186315254e-04,-7.186026832607393944e-01,9.670845315549306265e-03,1.758575971185644940e-04,7.186677546952081608e-01
5.440000000000000000e+09,5.605151398579737530e-06,1.788769094879672644e-04,-7.185849158267798575e-01,9.878622749182866883e-03,1.789647073312708556e-04,7.186528149539254118e-01
5.520000000000000000e+09,5.965839198808775658e-06,1.815250536069903009e-04,-7.185647255572045200e-01,1.009298708255648713e-02,1.816230611028421657e-04,7.186356052989228971e-01
5.600000000000000000e+09,6.285825462377558433e-06,1.837988656369975930e-04,-7.185414704567976152e-01,1.031475382468137643e-02,1.839063202045828846e-04,7.186155014419607356e-01
5.680000000000000000e+09,6.555707857539835901e-06,1.857751300836922744e-04,-7.185142301449480851e-01,1.054484722488058072e-02,1.858907643298240661e-04,7.185916035717252459e-01
5.760000000000000000e+09,6.769724316405060756e-06,1.875158447027811611e-04,-7.184816569162466582e-01,1.078423764013270239e-02,1.876380056969207538e-04,7.185625867706959546e-01
5.840000000000000954e+09,6.924107881714610798e-06,1.890568480426178463e-04,-7.184418110946193536e-01,1.103373243699291677e-02,1.891836014610333977e-04,7.185265333864908621e-01
5.920000000000000000e+09,7.015902773571293049e-06,1.904016731665595318e-04,-7.183921677821130114e-01,1.129356663330741833e-02,1.905308899794297319e-04,7.184809332042044749e-01
6.000000000000000000e+09,7.042126031569482244e-06,1.915184774981449245e-04,-7.183300198778633794e-01,1.156305199941490801e-02,1.916479030990215398e-04,7.184230798278077312e-01
6.080000000000000000e+09,6.997770813253549199e-06,1.923376295683053370e-04,-7.182530193629077520e-01,1.184068302214556605e-02,1.924648865229953325e-04,7.183506118869562584e-01
6.160000000000000000e+09,6.870449468947921121e-06,1.927488026667601708e-04,-7.181593925603152462e-01,1.212452554948420004e-02,1.928712109294049683e-04,7.182617331045842990e-01
6.239999999999999046e+09,6.630038714370616390e-06,1.925979577607594539e-04,-7.180478735197470819e-01,1.241250219093725619e-02,1.927120410015143251e-04,7.181551495859865852e-01
6.320000000000000000e+09,6.212749103272486017e-06,1.916853557820016299e-04,-7.179175823118839617e-01,1.270251577770874045e-02,1.917860106282331533e-04,7.180299498625551946e-01
6.400000000000000954e+09,5.499750453789659170e-06,1.897661895732799650e-04,-7.177679334574065262e-01,1.299248997959712160e-02,1.898458689574676768e-04,7.178855139195844393e-01
6.480000000000000000e+09,4.291089670381434493e-06,1.865559113407424597e-04,-7.175985776466368149e-01,1.328037957183946134e-02,1.866052558389881305e-04,7.177214551077935045e-01
6.560000000000000000e+09,2.276296202336045189e-06,1.817426064677282868e-04,-7.174093655070623576e-01,1.356417132239097316e-02,1.817568610261640900e-04,7.175375840058197952e-01
6.640000000000000000e+09,-9.961602910469306458e-07,1.750089186562471717e-04,-7.172003247692850803e-01,1.384188264540776869e-02,1.750117537325833548e-04,7.173338856936407604e-01
6.720000000000000000e+09,-6.147643682904985326e-06,1.660655830079098966e-04,-7.169716456087159573e-01,1.411156026509851648e-02,1.661793350047140422e-04,7.171105052500525989e-01
6.799999999999999046e+09,-1.399272063245358294e-05,1.546979777279638849e-04,-7.167236712986532199e-01,1.437127950398402361e-02,1.553295224476644793e-04,7.168677386201736113e-01
6.880000000000000000e+09,-2.555295565930128894e-05,1.408259549142284951e-04,-7.164568925779658537e-01,1.461914437381955229e-02,1.431254803325757662e-04,7.166060272595378144e-01
6.960000000000000954e+09,-4.205658184652105594e-05,1.245758393453123890e-04,-7.161719448459352710e-01,1.485328854262218772e-02,1.314834431599743488e-04,7.163259556688837959e-01
7.039999999999999046e+09,-6.491940747315526707e-05,1.063619374890920061e-04,-7.158696076593292767e-01,1.507187734288847718e-02,1.246089531819406684e-04,7.160282512980623570e-01
7.120000000000000000e+09,-9.570269535593315204e-05,8.697318120875234461e-05,-7.155508061832357436e-01,1.527311102321631670e-02,1.293187540458112350e-04,7.157137864745978240e-01
7.200000000000000000e+09,-1.360443460154633932e-04,6.765912762799172254e-05,-7.152166143029966561e-01,1.545522952102747899e-02,1.519401909770946651e-04,7.153835820695000347e-01
7.280000000000000000e+09,-1.875609523169519946e-04,5.020809536017387695e-05,-7.148682590769948053e-01,1.561651910867689966e-02,1.941647848445702271e-04,7.150388125863134103e-01
7.359999999999999046e+09,-2.509441592882312748e-04,1.752741225947766724e-04,-7.144417309552215656e-01,1.607302057929419284e-02,3.060947388183044146e-04,7.146225079864443330e-01
7.440000000000000000e+09,-3.296826424981710727e-04,3.109024640233798865e-05,-7.141347658578199864e-01,1.587004378245427880e-02,3.311453580920846592e-04,7.143110821599091276e-01
7.520000000000000000e+09,-4.221226137910598971e-04,3.612043004792467966e-05,-7.137528989689315706e-01,1.595917539858910175e-02,4.236651821198472419e-04,7.139312964606305822e-01
7.599999999999999046e+09,-5.290239888222515036e-04,5.637303186816443584e-05,-7.133634223162258481e-01,1.602130247800502907e-02,5.320190781084967787e-04,7.135433094296447232e-01
7.680000000000000000e+09,-6.494697780608626580e-04,9.663673418251208201e-05,-7.129684127386655135e-01,1.605512952080915406e-02,6.566198679661526148e-04,7.131491602371989869e-01
7.760000000000000954e+09,-7.814307467896022211e-04,1.620715820778743585e-04,-7.125701290738447602e-01,1.605950251743218718e-02,7.980609060374906517e-04,7.127510760913821075e-01
7.840000000000000000e+09,-9.215686787075135812e-04,2.580045033776403977e-04,-7.121710111985658509e-01,1.603343527627070636e-02,9.570032149046601468e-04,7.123514724055437508e-01
7.919999999999999046e+09,-1.065069580001856090e-03,3.896626407585174635e-04,-7.117736752624613805e-01,1.597613835985224953e-02,1.134112068469528061e-03,7.119529491430770518e-01
8.000000000000000000e+09,-1.205523824854734874e-03,5.618457573613295196e-04,-7.113809042449635855e-01,1.588705007292300075e-02,1.330021934915855261e-03,7.115582824227412173e-01
8.080000000000000000e+09,-1.334463319803276017e-03,7.778256247025927160e-04,-7.110986582073942630e-01,1.576800140147821896e-02,1.544605145124267314e-03,7.112734576606620784e-01
8.159999999999999046e+09,-1.443425638870095198e-03,1.042499939116020959e-03,-7.106209272128202192e-01,1.561258533389851821e-02,1.780529050031043423e-03,7.107924134468632804e-01
8.240000000000000000e+09,-1.520004381111203073e-03,1.354758517029785482e-03,-7.102599552110949732e-01,1.542751504544788779e-02,2.036119829003685006e-03,7.104274855303278624e-01
8.320000000000000954e+09,-1.552162066125318055e-03,1.714173148390522785e-03,-7.099159531037601001e-01,1.521132667728564841e-02,2.312487116111459212e-03,7.100789004966301388e-01
8.400000000000000000e+09,-1.526555082268318212e-03,2.116941281166999627e-03,-7.095921823839392850e-01,1.496506794648054875e-02,2.609944598474881090e-03,7.097499690447647280e-01
8.480000000000000000e+09,-1.429435287440872704e-03,2.556167371090628092e-03,-7.092918808129859976e-01,1.469018510938101610e-02,2.928698835662271131e-03,7.094439891392209097e-01
8.560000000000000000e+09,-1.247278253308792446e-03,3.021495501782416743e-03,-7.090182071646063955e-01,1.438853516698593987e-02,3.268812950975997882e-03,7.091641897580307496e-01
8.640000000000000000e+09,-9.675421111266548080e-04,3.498847909689998051e-03,-7.087741810797665298e-01,1.406238890006903698e-02,3.630161763881258833e-03,7.089136693186769422e-01
8.720000000000000000e+09,-5.795459166202609168e-04,3.970304351868773722e-03,-7.085626197143111149e-01,1.371442334061587394e-02,4.012379607656700944e-03,7.086953304939811460e-01
8.800000000000000000e+09,-7.544851266781232293e-05,4.414170609861738613e-03,-7.083860733350918482e-01,1.334770250507201494e-02,4.414815358656683231e-03,7.085118136328243388e-01
8.880000000000000000e+09,5.487019403280250437e-04,4.805270428261294857e-03,-7.082467623221867514e-01,1.296564583369785167e-02,4.836496429032303632e-03,7.083654313359348809e-01
8.959999999999998093e+09,1.291888775634197212e-03,5.115504919844816520e-03,-7.081465184031009441e-01,1.257198426338657603e-02,5.276112886734527288e-03,7.082581071295634967e-01
9.040000000000000000e+09,2.147072888290065505e-03,5.314713100224551304e-03,-7.080867328644493419e-01,1.217070470311734307e-02,5.732023842006303375e-03,7.081913211213622938e-01
9.120000000000000000e+09,3.100233976786273809e-03,5.371860428807733248e-03,-7.080683145071954288e-01,1.176598428966318596e-02,6.202284674006059047e-03,7.081660655491515133e-01
9.200000000000000000e+09,4.129593107370798863e-03,5.256568493912925841e-03,-7.080916596613558989e-01,1.136211662646294772e-02,6.684687843395712564e-03,7.081828126806006818e-01
9.280000000000000000e+09,5.205118655315066865e-03,4.940978933011009114e-03,-7.081566361056120806e-01,1.096343273370124424e-02,7.176805210702568751e-03,7.082414970317134628e-01
9.360000000000000000e+09,6.288431180383430991e-03,4.401917059027244013e-03,-7.082625819495024233e-01,1.057421994286013647e-02,7.676017229330169694e-03,7.083415130550909655e-01
9.440000000000000000e+09,7.333230968546579354e-03,3.623284331030237563e-03,-7.084083197594565062e-01,1.019864218719146974e-02,8.179515008943979287e-03,7.084817286330528097e-01
9.520000000000000000e+09,8.286370446331764450e-03,2.598564051158811818e-03,-7.085921852207416327e-01,9.840665105814005303e-03,8.684265674299432303e-03,7.086605136774805080e-01
9.600000000000000000e+09,9.089677675836899465e-03,1.333273238188424550e-03,-7.088120688712720163e-01,9.503989143733898928e-03,9.186939521858034086e-03,7.088757823393440072e-01
9.680000000000000000e+09,9.682601134673573390e-03,-1.528608668802572987e-04,-7.090654685722047601e-01,9.191993247454554108e-03,9.683807679720067563e-03,7.091250464208561644e-01
9.760000000000000000e+09,1.000568536353774012e-02,-1.824271422841750468e-03,-7.093495499004296434e-01,8.907691151857298137e-03,1.017062956843431745e-02,7.094054770761211159e-01
9.840000000000000000e+09,1.000479917899386485e-02,-3.628777488229913660e-03,-7.096612112619831159e-01,8.653701291794093850e-03,1.064255761887529170e-02,7.097139714813797129e-01
9.920000000000000000e+09,9.635924379208085644e-03,-5.497980660131926087e-03,-7.099971504066988626e-01,8.432230650641381678e-03,1.109408986717709197e-02,7.100472210348958146e-01
1.000000000000000000e+10,8.870180985576080895e-03,-7.349115543863696948e-03,-7.103539292351181977e-01,8.245071884791583400e-03,1.151909762064435606e-02,7.104017778624689416e-01
1.008000000000000000e+10,7.698630824877568737e-03,-9.088547675521935904e-03,-7.107280340921856565e-01,8.093612418049634868e-03,1.191094519456748456e-02,7.107741167252199510e-01
1.016000000000000000e+10,6.136288741916578679e-03,-1.061696069984609248e-02,-7.111159293386805080e-01,7.978853575911475787e-03,1.226270337349185703e-02,7.111606900438192103e-01
1.024000000000000000e+10,4.224710772950061172e-03,-1.183606308817063482e-02,-7.115141025891233983e-01,7.901437503639906559e-03,1.256744089073967736e-02,7.115579743758265741e-01
1.032000000000000000e+10,2.032553063183979193e-03,-1.265639279220342681e-02,-7.119191007051091091e-01,7.861679414624756293e-03,1.281856273008785685e-02,7.119625074061061154e-01
1.040000000000000000e+10,-3.463712458676249193e-04,-1.300554248701325799e-02,-7.123275562448651010e-01,7.859602785019259921e-03,1.301015405064332407e-02,7.123709151430311914e-01
1.048000000000000000e+10,-2.797760437626521657e-03,-1.283591969789888224e-02,-7.127362046417137220e-01,7.894975298444772624e-03,1.313728655230054360e-02,7.127799296010220997e-01
1.056000000000000000e+10,-5.194094986852734741e-03,-1.213105133684729171e-02,-7.131418927245831707e-01,7.967343671848996570e-03,1.319625057619296452e-02,7.131863976016272755e-01
1.064000000000000000e+10,-7.403993962254986835e-03,-1.090948798325758889e-02,-7.135415794886573737e-01,8.076065865801068319e-03,1.318469016131778616e-02,7.135872816264571261e-01
1.072000000000000000e+10,-9.302771003393908028e-03,-9.225579370790664910e-03,-7.139323300663961147e-01,8.220339499483754822e-03,1.310163589283203783e-02,7.139796536985633102e-01
1.080000000000000000e+10,-1.078303924837985608e-02,-7.166762273870512338e-03,-7.143113038026558392e-01,8.399225550593207926e-03,1.294744827841664073e-02,7.143606832196882639e-01
1.088000000000000000e+10,-1.176412096509224514e-02,-4.847465596965028212e-03,-7.146757372101109063e-01,8.611666603454857724e-03,1.272369697827963921e-02,7.147276195576217628e-01
1.096000000000000000e+10,-1.219912539004731900e-02,-2.400211942315124553e-03,-7.150229225296048652e-01,8.856498774388377182e-03,1.243300758666740675e-02,7.150777701154735766e-01
1.104000000000000000e+10,-1.207885364330492373e-02,3.511607110137296558e-05,-7.153501824043174695e-01,9.132456453818925748e-03,1.207890468853986023e-02,7.154084743884232545e-01
1.112000000000000191e+10,-1.143211391840779495e-02,2.322641885428999506e-03,-7.156548414815834258e-01,9.438168606723400939e-03,1.166567160395844474e-02,7.157170748016838946e-01
1.120000000000000000e+10,-1.032250062812961611e-02,4.341250436517831920e-03,-7.159341957213098961e-01,9.772144964505614234e-03,1.119823533286841422e-02,7.160008850695130933e-01
1.128000000000000000e+10,-8.842119771085014263e-03,5.993632358763958251e-03,-7.161854808831701336e-01,1.013275044400536139e-02,1.068207427882033114e-02,7.162571574926271945e-01
1.135999999999999809e+10,-7.103063463506516760e-03,7.212797344411638056e-03,-7.164058422940308146e-01,1.051816533245404466e-02,1.012313963640494238e-02,7.164830512126442175e-01
1.143999999999999809e+10,-5.227613439953525745e-03,7.965591693327125911e-03,-7.165923090008000651e-01,1.092632901752258259e-02,9.527780082599768621e-03,7.166756044298545625e-01
1.152000000000000000e+10,-3.338185352113591346e-03,8.253115528053911465e-03,-7.167417768262048794e-01,1.135486497325844703e-02,8.902662375069063036e-03,7.168317149837514224e-01
1.160000000000000000e+10,-1.547938660435793515e-03,8.108251073284045846e-03,-7.168510065341767712e-01,1.180098518063411872e-02,8.254686521236504274e-03,7.169481353768177856e-01
1.168000000000000191e+10,4.719063268726164488e-05,7.590753150081110297e-03,-7.169166453851579801e-01,1.226137344658767558e-02,7.590899837389485788e-03,7.170214904095308928e-01
1.176000000000000000e+10,1.374484539920292321e-03,6.780508489544024436e-03,-7.169352827508888026e-01,1.273204917789996608e-02,6.918417675108846053e-03,7.170483280291261030e-01
1.184000000000000000e+10,2.388129127526594005e-03,5.769649133511267104e-03,-7.169035526354952115e-01,1.320821682123494642e-02,6.244358402075289062e-03,7.170252162741496127e-01
1.191999999999999809e+10,3.055237778087430568e-03,4.698217659511063141e-03,-7.168381179735587860e-01,1.368941762567767693e-02,5.604259724244962937e-03,7.169688190812791850e-01
1.200000000000000000e+10,3.430783332496915600e-03,3.526111849810989116e-03,-7.166768092787059174e-01,1.415286107778216534e-02,4.919729571014662926e-03,7.168165402908847073e-01
1.208000000000000000e+10,3.502047995728677782e-03,2.465809120465973798e-03,-7.164771547317138056e-01,1.460638804432083833e-02,4.283054375438214052e-03,7.166260250815298383e-01
1.216000000000000000e+10,3.421674721753779555e-03,1.531079349741515773e-03,-7.161682921167584759e-01,1.493919794479151887e-02,3.748607991867609034e-03,7.163240902473323457e-01
1.224000000000000191e+10,2.994519933217431457e-03,7.810381122517406297e-04,-7.159020752486828787e-01,1.542950780993237667e-02,3.094700334963999822e-03,7.160683284831326212e-01
1.232000000000000000e+10,2.546429201119155845e-03,2.187453722904866404e-04,-7.155307607268827086e-01,1.577753710854850819e-02,2.555807350762346903e-03,7.157046878591777350e-01
1.239999999999999809e+10,2.067240382070257947e-03,-1.712561502589138741e-04,-7.150437211789124614e-01,1.607618281701070004e-02,2.074321929273151548e-03,7.152244171246898707e-01
1.247999999999999809e+10,1.573470067454423114e-03,-3.828712134900117076e-04,-7.144522573460975190e-01,1.609123263257211320e-02,1.619382110341577394e-03,7.146334415590764877e-01
1.256000000000000000e+10,1.139007291149776420e-03,-4.135053653235003929e-04,-7.141156600248322883e-01,1.632844838126699949e-02,1.211744319748878909e-03,7.143023128334680116e-01
1.264000000000000000e+10,8.100774625350287000e-04,-3.763797192374291993e-04,-7.136612578939367513e-01,1.649486163336342723e-02,8.932453125320259516e-04,7.138518554147351702e-01
1.272000000000000000e+10,5.517951578735507106e-04,-2.817075774249090669e-04,-7.131643604445395690e-01,1.646783244169058857e-02,6.195458461093157404e-04,7.133544662463372488e-01
1.280000000000000191e+10,3.746920302124157769e-04,-1.633681518840015764e-04,-7.126893963963910616e-01,1.635523616953835774e-02,4.087582054891327680e-04,7.128770367223322690e-01
1.288000000000000000e+10,2.641792115076485462e-04,-4.653473656356934499e-05,-7.122534768466045607e-01,1.616345076010934287e-02,2.682464119048821437e-04,7.124368550408878287e-01
