# Frequency, Real(S21), Imag(S21), Real(S11), Imag(S11), Amp(S21), Amp(S11)
4.000000000000000000e+09,6.559483400150911171e-06,1.439840548512030024e-04,-7.187705455514862285e-01,6.991754169563896976e-03,1.441333926398427959e-04,7.188045504716485956e-01
4.080000000000000000e+09,2.645459451620113132e-06,1.471586979929852040e-04,-7.187539685901545017e-01,7.152022439315980362e-03,1.471824746724309876e-04,7.187895511128895576e-01
4.160000000000000477e+09,2.776191241636735506e-06,1.481262515067916549e-04,-7.187517593059090659e-01,7.316966886859180980e-03,1.481522649953872063e-04,7.187890020790266288e-01
4.240000000000000000e+09,1.069228324750642829e-05,1.471943172873837720e-04,-7.187289287361593448e-01,7.481580836403916440e-03,1.475821532663889170e-04,7.187678672937730662e-01
4.320000000000000000e+09,2.095699446452469253e-05,1.454561118538764194e-04,-7.187193147700099427e-01,7.649239259267067402e-03,1.469580759694189996e-04,7.187600185630236282e-01
4.400000000000000000e+09,1.456515152189563031e-05,1.436281601632608288e-04,-7.187453170249669121e-01,7.820102735290447235e-03,1.443647880569880627e-04,7.187878579609637830e-01
4.480000000000000000e+09,2.096697552420786348e-05,1.421426606722700069e-04,-7.187285246390695548e-01,7.992147697769215464e-03,1.436807225957081023e-04,7.187729589756952642e-01
4.560000000000000000e+09,3.533698241515712214e-06,1.425973119516234450e-04,-7.186983275004966698e-01,8.165822997649362092e-03,1.426410894486252292e-04,7.187447158882214193e-01
4.640000000000000000e+09,3.381163471871562079e-05,1.407458478101916884e-04,-7.187461619893852349e-01,8.345845919563965945e-03,1.447501997171730785e-04,7.187946149760616743e-01
4.720000000000000000e+09,3.100394640267509979e-06,1.451919405838406855e-04,-7.186818407562119981e-01,8.523086935939590617e-03,1.452250393610789235e-04,7.187323780404322182e-01
4.800000000000000000e+09,2.883647338703113363e-06,1.483373500754350707e-04,-7.186726753268114498e-01,8.706167559006931789e-03,1.483653761811568560e-04,7.187254076592548557e-01
4.880000000000000000e+09,2.784453050019546478e-06,1.524966804797789008e-04,-7.186740416122157082e-01,8.894158199050629376e-03,1.525220991730035912e-04,7.187290756170273687e-01
4.960000000000000000e+09,2.713371470586386711e-06,1.571828238435641018e-04,-7.186521027607429835e-01,9.082487972758861508e-03,1.572062419122545365e-04,7.187094937387517035e-01
5.040000000000000000e+09,2.810031976027338139e-06,1.622089595731777013e-04,-7.186404885235672113e-01,9.276335927858371869e-03,1.622332975856654908e-04,7.187003563054896738e-01
5.120000000000000000e+09,3.025779737595146080e-06,1.672087776202996028e-04,-7.186278134798400608e-01,9.474450068494025268e-03,1.672361523603531439e-04,7.186902667428550773e-01
5.200000000000000000e+09,3.337610533771535221e-06,1.719399038515306974e-04,-7.186139074105699631e-01,9.677248202610441719e-03,1.719722948051480933e-04,7.186790640172162625e-01
5.280000000000000000e+09,3.713052136248173968e-06,1.762469629227520255e-04,-7.185985566023305182e-01,9.885208885404610235e-03,1.762860706228952805e-04,7.186665450023821400e-01
5.360000000000000000e+09,4.117077974625601462e-06,1.800601672879348684e-04,-7.185814875485150299e-01,1.009888358972330438e-02,1.801072296572467943e-04,7.186524484736661611e-01
5.440000000000000000e+09,4.517763233581994754e-06,1.833806699510413623e-04,-7.185623422209239664e-01,1.031891155807388057e-02,1.834363112808570036e-04,7.186364307448959154e-01
5.520000000000000000e+09,4.889544510639730358e-06,1.862583373389021916e-04,-7.185406393247386614e-01,1.054603642210519103e-02,1.863225050115358949e-04,7.186180273590557777e-01
5.600000000000000000e+09,5.215352689411956041e-06,1.887674074913669336e-04,-7.185157119339586895e-01,1.078112025238902455e-02,1.888394398283545358e-04,7.185965911760645586e-01
5.680000000000000000e+09,5.484631535048289892e-06,1.909843995931173025e-04,-7.184866065786411626e-01,1.102514031160078262e-02,1.910631363476972624e-04,7.185711917073920318e-01
5.760000000000000000e+09,5.691296385322815219e-06,1.929708993570139280e-04,-7.184519304401196793e-01,1.127912632658450466e-02,1.930548078997267308e-04,7.185404616608765949e-01
5.840000000000000954e+09,5.832765673963020316e-06,1.947621761490086177e-04,-7.184096816262057761e-01,1.154394895023037014e-02,1.948494968269223531e-04,7.185024240819454233e-01
5.920000000000000000e+09,5.907211259228424704e-06,1.963609440089392124e-04,-7.183572518551955000e-01,1.181990389833908507e-02,1.964497785108013594e-04,7.184544880652599108e-01
6.000000000000000000e+09,5.912478440696058926e-06,1.977340394917751940e-04,-7.182918305405330273e-01,1.210635233702238647e-02,1.978224147437458616e-04,7.183938457337853967e-01
6.080000000000000000e+09,5.843785064158279846e-06,1.988096850236686355e-04,-7.182109518215210597e-01,1.240182144697001693e-02,1.988955521953329557e-04,7.183180190497644446e-01
6.160000000000000000e+09,5.688115161425097095e-06,1.994742076287390120e-04,-7.181127152239596967e-01,1.270439202237577149e-02,1.995552909927544654e-04,7.182250854314308208e-01
6.239999999999999046e+09,5.413609975167058200e-06,1.995686128829064917e-04,-7.179957224306051655e-01,1.301198413072629859e-02,1.996420256884071413e-04,7.181136185588357090e-01
6.320000000000000000e+09,4.953237905102341094e-06,1.988861937204115988e-04,-7.178589579821337274e-01,1.332248077229258171e-02,1.989478640708103633e-04,7.179825708533061901e-01
6.400000000000000954e+09,4.182705471330192752e-06,1.971728341137817225e-04,-7.177016997792321495e-01,1.363376864873344467e-02,1.972171938181881351e-04,7.178311845507732158e-01
6.480000000000000000e+09,2.893297471341051608e-06,1.941321000698296377e-04,-7.175234626871539456e-01,1.394374865223489864e-02,1.941536593726217116e-04,7.176589354512631358e-01
6.560000000000000000e+09,7.609308611359477540e-07,1.894376584668957370e-04,-7.173239640407195195e-01,1.425033709546915002e-02,1.894391867096025721e-04,7.174654984697353965e-01
6.640000000000000000e+09,-2.686378506666826666e-06,1.827556109008560462e-04,-7.171031023469848220e-01,1.455146480722791305e-02,1.827753537685707097e-04,7.172507264016581008e-01
6.720000000000000000e+09,-8.099668673297794660e-06,1.737790739389587333e-04,-7.168609440241877628e-01,1.484507629575954231e-02,1.739677302596642045e-04,7.170146367805030341e-01
6.799999999999999046e+09,-1.633498299445027956e-05,1.622766088867837284e-04,-7.165977153077314199e-01,1.512912958001232967e-02,1.630966874624471287e-04,7.167574039702061528e-01
6.880000000000000000e+09,-2.846978333186564176e-05,1.481550180045108260e-04,-7.163137977468433393e-01,1.540159681509711311e-02,1.508656286994499763e-04,7.164793549202659317e-01
6.960000000000000954e+09,-4.580486185061651916e-05,1.315356331302558576e-04,-7.160097264567620856e-01,1.566046578676029422e-02,1.392828350951089893e-04,7.161809677514096029e-01
7.039999999999999046e+09,-6.984680977455004903e-05,1.128414565089911443e-04,-7.156861906421915220e-01,1.590374238366019238e-02,1.327093483623242095e-04,7.158628726912279472e-01
7.120000000000000000e+09,-1.022661843830799844e-04,9.289091915328023471e-05,-7.153440360884719684e-01,1.612945429093692873e-02,1.381560542626176840e-04,7.155258550626025782e-01
7.200000000000000000e+09,-1.448272236364826380e-04,7.299215865141499846e-05,-7.149842693704346885e-01,1.633565615375273672e-02,1.621813180697613229e-04,7.151708600811053085e-01
7.280000000000000000e+09,-1.992861341367390044e-04,5.503045906006306790e-05,-7.146080635328916353e-01,1.652043661364446456e-02,2.067445638548390382e-04,7.147989992243516388e-01
7.359999999999999046e+09,-2.672564538166751066e-04,4.153997278967471070e-05,-7.142167649025993326e-01,1.668192753868224729e-02,2.704654903051986292e-04,7.144115578392756793e-01
7.440000000000000000e+09,-3.468339843466448349e-04,1.139990279353405547e-04,-7.137556385595519304e-01,1.693039828348365250e-02,3.650884701931454441e-04,7.139564062053026516e-01
7.520000000000000000e+09,-4.484422357658366092e-04,4.159898942671092208e-05,-7.133951864670835530e-01,1.692785831313185427e-02,4.503675329550141794e-04,7.135959952672621398e-01
7.599999999999999046e+09,-5.625308888930810993e-04,6.369761685350592076e-05,-7.129685341520094477e-01,1.700889949571060197e-02,5.661257699059952988e-04,7.131713912888824058e-01
7.680000000000000000e+09,-6.914251350314557041e-04,1.072473387427008663e-04,-7.125340576854810593e-01,1.705989319906334178e-02,6.996932963953980634e-04,7.127382572289071572e-01
7.760000000000000954e+09,-8.330486891503208723e-04,1.778917048870216986e-04,-7.120940776954717277e-01,1.707942737648517756e-02,8.518307209549789115e-04,7.122988714917868336e-01
7.840000000000000000e+09,-9.839082564557187754e-04,2.815039902784317438e-04,-7.116511229818435202e-01,1.706625241678905169e-02,1.023386512352206061e-03,7.118557282293038746e-01
7.919999999999999046e+09,-1.138898553994545067e-03,4.239050019041624030e-04,-7.112079282906718092e-01,1.701931263101178968e-02,1.215230581795172671e-03,7.114115365004572977e-01
8.000000000000000000e+09,-1.291154594652075931e-03,6.105118068726168943e-04,-7.107674273470139248e-01,1.693778041294004277e-02,1.428217369178107210e-03,7.109692146519493994e-01
8.080000000000000000e+09,-1.431970939402134064e-03,8.459213436762052455e-04,-7.103327401579692113e-01,1.682109236213333650e-02,1.663166765835340666e-03,7.105318788686292297e-01
8.159999999999999046e+09,-1.550807644902502027e-03,1.133437434446027273e-03,-7.099071536973059482e-01,1.666898641440153761e-02,1.920855218201423251e-03,7.101028249336105436e-01
8.240000000000000000e+09,-1.635401896731374788e-03,1.474554868320353870e-03,-7.094940952204039641e-01,1.648153874684441314e-02,2.202010768257011732e-03,7.096855023685374464e-01
8.320000000000000954e+09,-1.672002515446236598e-03,1.868419251124648706e-03,-7.090970976502584122e-01,1.625919894917486272e-02,2.507305906671887345e-03,7.092834803141047084e-01
8.400000000000000000e+09,-1.645741557646366628e-03,2.311287295686333468e-03,-7.087197567901168949e-01,1.600282174979616653e-02,2.837342812873575384e-03,7.089004048303246819e-01
8.480000000000000000e+09,-1.541153425472602864e-03,2.796017242403053393e-03,-7.083656804428827281e-01,1.571369337472908190e-02,3.192626865241397684e-03,7.085399476308892330e-01
8.560000000000000000e+09,-1.342846648408551648e-03,3.311624809322882574e-03,-7.080384301147528703e-01,1.539355054724123907e-02,3.573527109014971483e-03,7.082057468827926971e-01
8.640000000000000000e+09,-1.036327411272651867e-03,3.842944448735449887e-03,-7.077414562946948706e-01,1.504459017033760865e-02,3.980225689508283364e-03,7.079013410437424714e-01
8.720000000000000000e+09,-6.089662572750756571e-04,4.370439890524446119e-03,-7.074780290596961452e-01,1.466946785934264419e-02,4.412661865494221444e-03,7.076300975011369232e-01
8.800000000000000000e+09,-5.109035192155136256e-05,4.870210852731632518e-03,-7.072511660883994411e-01,1.427128382219328834e-02,4.870478823906787547e-03,7.073951381479338663e-01
8.880000000000000000e+09,6.428272167531762834e-04,5.314244386161084965e-03,-7.070635608045715559e-01,1.385355514067852442e-02,5.352982367469861016e-03,7.071992647109270891e-01
8.959999999999998093e+09,1.472922672937704031e-03,5.670958720133484343e-03,-7.069175136658172320e-01,1.342017399079888096e-02,5.859118876240006733e-03,7.070448869749389464e-01
9.040000000000000000e+09,2.432698250622426957e-03,5.906084248427653262e-03,-7.068148697020392168e-01,1.297535232724721446e-02,6.387476178280952939e-03,7.069339571699232438e-01
9.120000000000000000e+09,3.507854860369156915e-03,5.983918839794486952e-03,-7.067569656026342351e-01,1.252355410859118390e-02,6.936305241456932821e-03,7.068679139947957601e-01
9.200000000000000000e+09,4.675294889987698099e-03,5.868981871434332358e-03,-7.067445891083812270e-01,1.206941725150834782e-02,7.503554525394609716e-03,7.068476392170844891e-01
9.280000000000000000e+09,5.902409485295813038e-03,5.528071395819969536e-03,-7.067779531681434024e-01,1.161766809256388998e-02,8.086903677514214323e-03,7.068734294740885993e-01
9.360000000000000000e+09,7.146783507804676215e-03,4.932699797800740860e-03,-7.068566864669718619e-01,1.117303173064822588e-02,8.683780386597325651e-03,7.069449850173074035e-01
9.440000000000000000e+09,8.356465634967141787e-03,4.061844016482392059e-03,-7.069798410417825751e-01,1.074014212717707382e-02,9.291345151409486844e-03,7.070614162096360289e-01
9.520000000000000000e+09,9.470956154608595884e-03,2.904895818143852365e-03,-7.071459167283382641e-01,1.032345582368861779e-02,9.906433777943911625e-03,7.072212675575484386e-01
9.600000000000000000e+09,1.042305454838316457e-02,1.464636933270160434e-03,-7.073529011754906559e-01,9.927173020904333026e-03,1.052545616421777727e-02,7.074225579988034918e-01
9.680000000000000000e+09,1.114167697253650932e-02,-2.400035184552492987e-04,-7.075983232111526799e-01,9.555169296029427176e-03,1.114426163768695785e-02,7.076628351634064451e-01
9.760000000000000000e+09,1.155569257335791952e-02,-2.171719013153367624e-03,-7.078793166654001601e-01,9.210940476624723122e-03,1.175799278457217122e-02,7.079392406041198349e-01
9.840000000000000000e+09,1.163957026393535980e-02,-4.289126978652021277e-03,-7.085074573207748028e-01,8.905957287000530048e-03,1.240468484759241555e-02,7.085634291680226182e-01
9.920000000000000000e+09,1.121479668464852447e-02,-6.468528240897409957e-03,-7.085350064369270173e-01,8.617666250777877152e-03,1.294656411104084560e-02,7.085874113461133605e-01
1.000000000000000000e+10,1.036431976533075915e-02,-8.661906500863299219e-03,-7.089026459056838592e-01,8.373429234129838722e-03,1.350732203020731104e-02,7.089520968931669609e-01
1.008000000000000000e+10,8.994215846784486129e-03,-1.074533830503773650e-02,-7.093085353464883003e-01,8.165327099141939451e-03,1.401278751670275054e-02,7.093555320726104840e-01
1.016000000000000000e+10,7.223068811526349615e-03,-1.259679478747044792e-02,-7.096989663593533670e-01,7.998413282595913040e-03,1.452074247322385735e-02,7.097440365840165244e-01
1.024000000000000000e+10,4.985173019462724696e-03,-1.410031111516287829e-02,-7.101201324859548469e-01,7.869822462421948231e-03,1.495562514836357160e-02,7.101637393358380956e-01
1.032000000000000000e+10,2.391834115569909346e-03,-1.514310130900970927e-02,-7.105516941800784636e-01,7.781328967078410958e-03,1.533083127854897691e-02,7.105942999930928705e-01
1.040000000000000000e+10,-4.499465012199267873e-04,-1.563170845022823080e-02,-7.109900542717493277e-01,7.733124309995849377e-03,1.563818278851148227e-02,7.110321079142200018e-01
1.048000000000000000e+10,-3.406284684340729358e-03,-1.550065759618177164e-02,-7.114317346242312601e-01,7.725111110659236766e-03,1.587051231891528635e-02,7.114736751083026167e-01
1.056000000000000000e+10,-6.324556909213495566e-03,-1.472087181769347365e-02,-7.118733909456246289e-01,7.756944693869925050e-03,1.602198761611187128e-02,7.119156515538943575e-01
1.064000000000000000e+10,-9.044388717202095015e-03,-1.330539790018747323e-02,-7.123118186979451316e-01,7.828072899237474569e-03,1.608833678632336922e-02,7.123548313741474569e-01
1.072000000000000000e+10,-1.141048280980861904e-02,-1.131141579614204987e-02,-7.127439510169470971e-01,7.937772837651062285e-03,1.606696129534610634e-02,7.127881508196319826e-01
1.080000000000000000e+10,-1.328589118397447560e-02,-8.837937590242799651e-03,-7.131668498177315962e-01,8.085183542093209857e-03,1.595694348556256012e-02,7.132126792702554452e-01
1.088000000000000000e+10,-1.456415381521052391e-02,-6.019180781720393988e-03,-7.135776908645837802e-01,8.269334055668946595e-03,1.575896930754493858e-02,7.136256040707590342e-01
1.096000000000000000e+10,-1.517880545335996943e-02,-3.014223922283782234e-03,-7.139737435534325716e-01,8.489166191364071537e-03,1.547519566417879418e-02,7.140242099721320068e-01
1.104000000000000000e+10,-1.510908997951216498e-02,5.911566598329172709e-06,-7.143523458020123451e-01,8.743551522432295789e-03,1.510909113598877564e-02,7.144058535916844033e-01
1.112000000000000191e+10,-1.438124835951123080e-02,2.872264664522000167e-03,-7.147108743678945997e-01,9.031301826428035640e-03,1.466527219934925588e-02,7.147679332149704523e-01
1.120000000000000000e+10,-1.306535330151326925e-02,5.431441238218547712e-03,-7.150467108544499295e-01,9.351171747493660855e-03,1.414934665691616744e-02,7.151078541848203685e-01
1.128000000000000000e+10,-1.126823072183875604e-02,7.557202299168733033e-03,-7.153572037751154689e-01,9.701852363163919468e-03,1.356776806225519147e-02,7.154229902178351752e-01
1.135999999999999809e+10,-9.123438683506370633e-03,9.159043764525108544e-03,-7.156396273911193040e-01,1.008195357130887981e-02,1.292769183157561029e-02,7.157106413071654405e-01
1.143999999999999809e+10,-6.779516694505168840e-03,1.018716403899004933e-02,-7.158911384998102312e-01,1.048997290754492308e-02,1.223683610123002009e-02,7.159679893082898650e-01
1.152000000000000000e+10,-4.387765447105586997e-03,1.063363801396241710e-02,-7.161087332135732675e-01,1.092424793940823327e-02,1.150333616959881185e-02,7.161920531378369592e-01
1.160000000000000000e+10,-2.090705047477008430e-03,1.053005555435277719e-02,-7.162892068803760059e-01,1.138288900764340694e-02,1.073560047567445608e-02,7.163796465949311409e-01
1.168000000000000191e+10,-1.214049986919454177e-05,9.942166613341588133e-03,-7.164291217903339115e-01,1.186368887647587002e-02,9.942174025794420222e-03,7.165273432766030570e-01
1.176000000000000000e+10,1.750505820051829250e-03,8.962266742270269537e-03,-7.165247894870100387e-01,1.236400599311177767e-02,9.131620654935194634e-03,7.166314552080460532e-01
1.184000000000000000e+10,3.131206666497871310e-03,7.700134887281230231e-03,-7.165722771170466299e-01,1.288061901098649410e-02,8.312432403974556738e-03,7.166880344186133955e-01
1.191999999999999809e+10,4.097544565230713635e-03,6.273340213959303045e-03,-7.165674506235532037e-01,1.340955195257902480e-02,7.492974636559950052e-03,7.166929100923959961e-01
1.200000000000000000e+10,4.576496002237896710e-03,4.782068514454998129e-03,-7.164941149128716269e-01,1.376316916376028703e-02,6.619100764865366512e-03,7.166262914031340525e-01
1.208000000000000000e+10,4.819846850512845074e-03,3.378394814622705938e-03,-7.163839658255879428e-01,1.448347691288411933e-02,5.885955758062421869e-03,7.165303605538869691e-01
1.216000000000000000e+10,4.662063831579953480e-03,2.102860858343084775e-03,-7.161972926092353697e-01,1.501486787169864327e-02,5.114378061825051308e-03,7.163546664872109115e-01
1.224000000000000191e+10,4.250281965682223273e-03,1.035065168643574526e-03,-7.159429255801643688e-01,1.553097841778162784e-02,4.374500736214670740e-03,7.161113628332526071e-01
1.232000000000000000e+10,3.667761545633862162e-03,2.124473280155493408e-04,-7.156189702783073425e-01,1.602107071437944633e-02,3.673909174545751059e-03,7.157982853632858244e-01
1.239999999999999809e+10,2.999001361427626813e-03,-3.547302415107546868e-04,-7.152254086370753994e-01,1.647279004819535847e-02,3.019907732048619699e-03,7.154150808950306972e-01
1.247999999999999809e+10,2.321439973201945475e-03,-6.813302516554965282e-04,-7.147648374689218320e-01,1.687245226056200906e-02,2.419358274625895734e-03,7.149639519075483562e-01
1.256000000000000000e+10,1.691248264367374143e-03,-8.098254973680409780e-04,-7.142658625253486271e-01,1.723938346396910321e-02,1.875136802452837155e-03,7.144738754575271633e-01
1.264000000000000000e+10,1.173449527448416343e-03,-7.680376134092288531e-04,-7.136705000971270696e-01,1.745821992343300419e-02,1.402449845477639779e-03,7.138840046896822722e-01
1.272000000000000000e+10,7.690847530899071237e-04,-6.320541939955361642e-04,-7.130609195501317332e-01,1.761760573834199317e-02,9.954817233795456004e-04,7.132785255576050698e-01
1.280000000000000191e+10,4.866280509869684080e-04,-4.469627513287612172e-04,-7.124327741242308942e-01,1.767442968736343892e-02,6.607439451729781726e-04,7.126519789568543928e-01
1.288000000000000000e+10,3.107900359475883551e-04,-2.553390025617681696e-04,-7.118074968887879717e-01,1.762410101500103132e-02,4.022293533216365295e-04,7.120256467035923631e-01
