# Frequency, Real(S21), Imag(S21), Real(S11), Imag(S11), Amp(S21), Amp(S11)
4.000000000000000000e+09,1.742888306981770062e-06,1.424637141517385945e-04,-7.187485069133996429e-01,6.775014319378024237e-03,1.424743749225063083e-04,7.187804372750200566e-01
4.080000000000000000e+09,2.237335061833910897e-06,1.451818439113185439e-04,-7.187436669054018124e-01,6.930768955747625484e-03,1.451990821929304573e-04,7.187770824636392497e-01
4.160000000000000477e+09,2.120625426548900414e-06,1.461841056253184367e-04,-7.187543016010752295e-01,7.089410364951930638e-03,1.461994862838922099e-04,7.187892638384161259e-01
4.240000000000000000e+09,5.138826611880641421e-07,1.456720520931675182e-04,-7.187202239822063632e-01,7.247904429219735600e-03,1.456729584941006959e-04,7.187567686496232344e-01
4.320000000000000000e+09,3.560113978275154952e-06,1.443626829255584818e-04,-7.187273782293247537e-01,7.408975397577109191e-03,1.444065740643536158e-04,7.187655647934455549e-01
4.400000000000000000e+09,3.791250795388854128e-06,1.426718634773884169e-04,-7.187212680679235799e-01,7.572312313812939490e-03,1.427222274584589350e-04,7.187611571912758679e-01
4.480000000000000000e+09,3.477432680420968504e-06,1.412996721131429224e-04,-7.187296520297983271e-01,7.739070538780540819e-03,1.413424560326038807e-04,7.187713168454060719e-01
4.560000000000000000e+09,3.860071499916443650e-06,1.407360539585911241e-04,-7.187078209111906757e-01,7.905566679609978692e-03,1.407889805198543913e-04,7.187512990064350848e-01
4.640000000000000000e+09,3.754058639213585049e-06,1.413250263933057060e-04,-7.187003967524566717e-01,8.075778030236804850e-03,1.413748776881352696e-04,7.187457676278394825e-01
4.720000000000000000e+09,3.554125629248261223e-06,1.432101760384751714e-04,-7.187059935479164219e-01,8.249986058830283478e-03,1.432542715941117237e-04,7.187533425533884079e-01
4.800000000000000000e+09,3.502471046860826592e-06,1.461953962922590779e-04,-7.186838738042495844e-01,8.424279673201452712e-03,1.462373454370831155e-04,7.187332460338082818e-01
4.880000000000000000e+09,3.452112903944951923e-06,1.501600408693013909e-04,-7.186746360487277219e-01,8.603014713911028358e-03,1.501997169017699663e-04,7.187261261161578263e-01
4.960000000000000000e+09,3.996122748402897668e-06,1.547350398311354890e-04,-7.186446088887950001e-01,8.785692308551621213e-03,1.547866323316176684e-04,7.186983110278398756e-01
5.040000000000000000e+09,3.641728888151614638e-06,1.596138478079179093e-04,-7.186537550955020004e-01,8.970803529851212668e-03,1.596553870100974194e-04,7.187097432405080699e-01
5.120000000000000000e+09,3.885794603079394235e-06,1.644509978455968536e-04,-7.186418715646138988e-01,9.160511115490712133e-03,1.644968999468069684e-04,7.187002536035367317e-01
5.200000000000000000e+09,4.207648419879016643e-06,1.690169829340951971e-04,-7.186288185089455549e-01,9.354607471638803559e-03,1.690693491599513216e-04,7.186897017994006154e-01
5.280000000000000000e+09,4.580097637194284154e-06,1.731562889265432471e-04,-7.186143903128160426e-01,9.553548501659363604e-03,1.732168516316433694e-04,7.186778918636873570e-01
5.360000000000000000e+09,4.973935174931601397e-06,1.767985371455345236e-04,-7.185983233146607807e-01,9.757860386862713883e-03,1.768684900368784542e-04,7.186645713474202335e-01
5.440000000000000000e+09,5.362492114108927474e-06,1.799442692725118913e-04,-7.185802716510378829e-01,9.968153877020675263e-03,1.800241549506403005e-04,7.186494074983958980e-01
5.520000000000000000e+09,5.724428371418668363e-06,1.826429601108265667e-04,-7.185597693690365384e-01,1.018514025801103492e-02,1.827326461205673255e-04,7.186319497752367003e-01
5.600000000000000000e+09,6.044619475371848450e-06,1.849687593799145900e-04,-7.185361693667164928e-01,1.040964470049489214e-02,1.850674994999035111e-04,7.186115692020169643e-01
5.680000000000000000e+09,6.313455564366819421e-06,1.869982801331270775e-04,-7.185085445027136197e-01,1.064260245950807496e-02,1.871048275537291056e-04,7.185873596929737150e-01
5.760000000000000000e+09,6.525216860546670378e-06,1.887933442939379028e-04,-7.184755378713517660e-01,1.088499623786375568e-02,1.889060753516586390e-04,7.185579876827106194e-01
5.840000000000000954e+09,6.676303853090331228e-06,1.903896065574693815e-04,-7.184351971251370372e-01,1.113764662954788189e-02,1.905066280165778779e-04,7.185215234359225711e-01
5.920000000000000000e+09,6.763969316976359663e-06,1.917903829518495442e-04,-7.183849803423952851e-01,1.140080149210776980e-02,1.919096200656394947e-04,7.184754402595860956e-01
6.000000000000000000e+09,6.785362880226639227e-06,1.929635086898407815e-04,-7.183221591575816856e-01,1.167378328391485524e-02,1.930827719795596151e-04,7.184170109017254946e-01
6.080000000000000000e+09,6.735490765949825047e-06,1.938388701706666658e-04,-7.182443611179887277e-01,1.195509383307139309e-02,1.939558568976424650e-04,7.183438498005989548e-01
6.160000000000000000e+09,6.601800632163027384e-06,1.943054008991657294e-04,-7.181497860526321331e-01,1.224280264486384689e-02,1.944175213044656108e-04,7.182541342895579772e-01
6.239999999999999046e+09,6.353775931554732980e-06,1.942079827077869772e-04,-7.180371402115219848e-01,1.253483228670962055e-02,1.943118910823948733e-04,7.181465426663257157e-01
6.320000000000000000e+09,5.926914151253955871e-06,1.933453641838778106e-04,-7.179055151137062607e-01,1.282908187792767239e-02,1.934361862805216705e-04,7.180201347960282199e-01
6.400000000000000954e+09,5.201203347219687979e-06,1.914707274675238368e-04,-7.177542964431583572e-01,1.312346774236258957e-02,1.915413584404212122e-04,7.178742616003154220e-01
6.480000000000000000e+09,3.974794509431125295e-06,1.882969426144203979e-04,-7.175831061730112426e-01,1.341593373926082758e-02,1.883388902731736206e-04,7.177085073642386348e-01
6.560000000000000000e+09,1.934282497303353612e-06,1.835089792043918930e-04,-7.173917667004785503e-01,1.370445222911191412e-02,1.835191731057474716e-04,7.175226539563289707e-01
6.640000000000000000e+09,-1.376270296306138555e-06,1.767859056968190245e-04,-7.171802783322706043e-01,1.398702283108765008e-02,1.767912627167221649e-04,7.173166584127476098e-01
6.720000000000000000e+09,-6.584608868809323895e-06,1.678346449651090498e-04,-7.169488049067995750e-01,1.426167118968832588e-02,1.679637613430927140e-04,7.170906387078351818e-01
6.799999999999999046e+09,-1.451421525770627604e-05,1.564369350382475987e-04,-7.166976647044398518e-01,1.452644837396811425e-02,1.571088065281763175e-04,7.168448648732578254e-01
6.880000000000000000e+09,-2.619865344570223350e-05,1.425097993087193920e-04,-7.164273250434468610e-01,1.477943106766605418e-02,1.448979376712432007e-04,7.165797538666526245e-01
6.960000000000000954e+09,-4.288170951909157621e-05,1.261784620356287614e-04,-7.161383996885396508e-01,1.501872263760714934e-02,1.332660695486902875e-04,7.162958673188949410e-01
7.039999999999999046e+09,-6.599863698124257380e-05,1.078590511501274264e-04,-7.158316485603257728e-01,1.524245521562889519e-02,1.264491795085584847e-04,7.159939116512054058e-01
7.120000000000000000e+09,-9.713408464297892757e-05,8.834676928562990570e-05,-7.155079794089834744e-01,1.544879301395837672e-02,1.313018737209706093e-04,7.156747402301651961e-01
7.200000000000000000e+09,-1.379529464320953429e-04,6.890363545490415143e-05,-7.151684511571122504e-01,1.563593717299318481e-02,1.542035226841426316e-04,7.153393572715964766e-01
7.280000000000000000e+09,-1.901016312359336965e-04,5.133861018932940482e-05,-7.148142786282307704e-01,1.580213244590950375e-02,1.969118663126598996e-04,7.149889232153432417e-01
7.359999999999999046e+09,-2.550787007010398878e-04,3.807173929935647001e-05,-7.144468382905618808e-01,1.594567609095742453e-02,2.579042475117632985e-04,7.146247612064516863e-01
7.440000000000000000e+09,-3.340760007713059702e-04,3.217350021188350234e-05,-7.140676745874733333e-01,1.606492929781157264e-02,3.356216745194411468e-04,7.142483642572136082e-01
7.520000000000000000e+09,-4.277936816109806448e-04,3.737024870996950594e-05,-7.136785063351134273e-01,1.615833144182026587e-02,4.294228330153417061e-04,7.138614025703464705e-01
7.599999999999999046e+09,-5.362351757437173539e-04,5.800706546044750306e-05,-7.132812325682474919e-01,1.622441741252907133e-02,5.393634983461785114e-04,7.134657303994735855e-01
7.680000000000000000e+09,-6.683476308239924514e-04,1.886919069662351331e-04,-7.128779370981156438e-01,1.626183811593187589e-02,6.944733194173826566e-04,7.130633916982231923e-01
7.760000000000000954e+09,-7.925215568589975227e-04,1.654917690387760522e-04,-7.124708910412941298e-01,1.626938419017295162e-02,8.096159235747484376e-04,7.126566237979572449e-01
7.840000000000000000e+09,-9.349565505585692455e-04,2.630448078873926562e-04,-7.120625524291905872e-01,1.624601276739475950e-02,9.712550243828310106e-04,7.122478581946120046e-01
7.919999999999999046e+09,-1.080920445444841791e-03,3.969719702168815305e-04,-7.116555620194210396e-01,1.619087695059467230e-02,1.151510205998430457e-03,7.118397175274834288e-01
8.000000000000000000e+09,-1.223907689442825953e-03,5.722036584532036061e-04,-7.112527344167728360e-01,1.610335752003087817e-02,1.351061456420287171e-03,7.114350078108009345e-01
8.080000000000000000e+09,-1.355721839149489315e-03,7.928572807355076506e-04,-7.108570436519868752e-01,1.598309606360731605e-02,1.570542700076052543e-03,7.110367050085538709e-01
8.159999999999999046e+09,-1.466497942511685651e-03,1.061797708998222286e-03,-7.104716024398374241e-01,1.583002857302755195e-02,1.810533233670368232e-03,7.106479351113695886e-01
8.240000000000000000e+09,-1.544824853158018605e-03,1.380161918152968559e-03,-7.100996345016740152e-01,1.564441827590001832e-02,2.071552738226660299e-03,7.102719470333896945e-01
8.320000000000000954e+09,-1.577982528192316833e-03,1.746866884863504431e-03,-7.097444395749308299e-01,1.542688625430276017e-02,2.354054539026855224e-03,7.099120778850264157e-01
8.400000000000000000e+09,-1.552306281969359578e-03,2.158123619897582123e-03,-7.094093510196277652e-01,1.517843819232649744e-02,2.658411621965526238e-03,7.095717104705117073e-01
8.480000000000000000e+09,-1.453686066148558460e-03,2.606986078386793523e-03,-7.090976862676435788e-01,1.490048551179102947e-02,2.984891889468866983e-03,7.092542232081614495e-01
8.560000000000000000e+09,-1.268203769515348876e-03,3.082967803940893717e-03,-7.088126908786682723e-01,1.459485906053458598e-02,3.333621346396299385e-03,7.089629332071285539e-01
8.640000000000000000e+09,-9.829054956825124603e-04,3.571763348484162468e-03,-7.085574773575687990e-01,1.426381361501379008e-02,3.704537303229336106e-03,7.087010336511196940e-01
8.720000000000000000e+09,-5.866984840897518719e-04,4.055114664557905521e-03,-7.083349604447587433e-01,1.391002166714542902e-02,4.097336946596629240e-03,7.084715272267887443e-01
8.800000000000000000e+09,-7.135365919287657349e-05,4.510864812180994179e-03,-7.081477910091055206e-01,1.353655525991728087e-02,4.511429119298328121e-03,7.082771577845642375e-01
8.880000000000000000e+09,5.674154081866922793e-04,4.913241891229354688e-03,-7.079982910922376638e-01,1.314685522723154677e-02,4.945897909093825706e-03,7.081203428739317740e-01
8.959999999999998093e+09,1.328838384590364701e-03,5.233414704678867810e-03,-7.078883929270703979e-01,1.274468768912387188e-02,5.399485246160945669e-03,7.080031100956857282e-01
9.040000000000000000e+09,2.205994139361196378e-03,5.440357272082030349e-03,-7.078195848332120566e-01,1.233408850080593144e-02,5.870595999623187330e-03,7.079270403174372506e-01
9.120000000000000000e+09,3.184807693072764980e-03,5.502051155704693053e-03,-7.077928667916544292e-01,1.191929699308805386e-02,6.357323883667310126e-03,7.078932207063139970e-01
9.200000000000000000e+09,4.243225955442816652e-03,5.387041190194180248e-03,-7.078087181888120805e-01,1.150468120037140447e-02,6.857490743252398803e-03,7.079022102194704180e-01
9.280000000000000000e+09,5.350676955680106622e-03,5.066340204021954619e-03,-7.078670796585239122e-01,1.109465731749168654e-02,7.368686921489835985e-03,7.079540196123471629e-01
9.360000000000000000e+09,6.467931922480327916e-03,4.515650374085740208e-03,-7.079673502386053530e-01,1.069360666503365795e-02,7.888297766617381399e-03,7.080481072832399692e-01
9.440000000000000000e+09,7.547499111742766997e-03,3.717831867181884895e-03,-7.081084001779228698e-01,1.030579371901884679e-02,8.413502043405646919e-03,7.081833913519267609e-01
9.520000000000000000e+09,8.534678160427210114e-03,2.665503435663825818e-03,-7.082885988176030878e-01,9.935288715506846932e-03,8.941232569819938109e-03,7.083582774111304436e-01
9.600000000000000000e+09,9.369389017458869956e-03,1.363606078851281687e-03,-7.085058560798137561e-01,9.585898147175291734e-03,9.468097596600864169e-03,7.085707004545683807e-01
9.680000000000000000e+09,9.988854256840592333e-03,-1.682964309613286245e-04,-7.087576752855778706e-01,9.261105889612436179e-03,9.990271920877666009e-03,7.088181786315269628e-01
9.760000000000000000e+09,1.033115283022085357e-02,-1.894260413788316586e-03,-7.090412144138866779e-01,8.964027114429184290e-03,1.050337761468309039e-02,7.090978758391731640e-01
9.840000000000000000e+09,1.033957374998230837e-02,-3.761068518875237705e-03,-7.093533525782321769e-01,8.697376091324730482e-03,1.100238254811191328e-02,7.094066698057269749e-01
9.920000000000000000e+09,9.967580707106616505e-03,-5.698533525107869931e-03,-7.096907582921809787e-01,8.463448342627298213e-03,1.148154821831369465e-02,7.097412221106923491e-01
1.000000000000000000e+10,9.184060714160328931e-03,-7.621302230379311052e-03,-7.100499563109599066e-01,8.264116544973838796e-03,1.193445511484155647e-02,7.100980468072455309e-01
1.008000000000000000e+10,7.978386982600354019e-03,-9.432375399676416750e-03,-7.104273901087074794e-01,8.100838889885898439e-03,1.235412338146853715e-02,7.104735746017508680e-01
1.016000000000000000e+10,6.364703665499142973e-03,-1.102840529540793403e-02,-7.108194776810554671e-01,7.974678013738446813e-03,1.273323117317045998e-02,7.108642101978347450e-01
1.024000000000000000e+10,4.384769856131346538e-03,-1.230661347639836790e-02,-7.112226589446120073e-01,7.886328176938598930e-03,1.306441510166865549e-02,7.112663810193465830e-01
1.032000000000000000e+10,2.108716765737732833e-03,-1.317290783137849315e-02,-7.116334337176908331e-01,7.836148217843579358e-03,1.334062169211376256e-02,7.116765762646141136e-01
1.040000000000000000e+10,-3.667969693331913673e-04,-1.355050420993667189e-02,-7.120483899418708074e-01,7.824197814614745200e-03,1.355546769241930231e-02,7.120913759414958522e-01
1.048000000000000000e+10,-2.923292004273314419e-03,-1.338813131000051587e-02,-7.124642223513590888e-01,7.850274795288816540e-03,1.370356508781800202e-02,7.125074700977445108e-01
1.056000000000000000e+10,-5.427936197017009003e-03,-1.266677551568372133e-02,-7.128777422143852682e-01,7.913951548717931134e-03,1.378077259530872956e-02,7.129216688906258037e-01
1.064000000000000000e+10,-7.743256260808639019e-03,-1.140395841680262590e-02,-7.132858790525594683e-01,8.014609013215693092e-03,1.378434928071382154e-02,7.133309044289454226e-01
1.072000000000000000e+10,-9.738179093547547766e-03,-9.654757114358323081e-03,-7.136856752997212672e-01,8.151467017338324267e-03,1.371300357307833444e-02,7.137322253776650083e-01
1.080000000000000000e+10,-1.129919876678454893e-02,-7.509161024958630956e-03,-7.140742748629954617e-01,8.323610092454398687e-03,1.356684901036579044e-02,7.141227853150212690e-01
1.088000000000000000e+10,-1.234035392809706977e-02,-5.085848267791093572e-03,-7.144489063139485285e-01,8.530007998177397549e-03,1.334729139839594715e-02,7.144998255910537388e-01
1.096000000000000000e+10,-1.281080408730071382e-02,-2.522969639162801151e-03,-7.148068614319091907e-01,8.769530260660688553e-03,1.305687853827774449e-02,7.148606534221402242e-01
1.104000000000000000e+10,-1.269909853568545327e-02,3.305192452937480256e-05,-7.151454695854627674e-01,9.040953825741496891e-03,1.269914154770957447e-02,7.152026157073890777e-01
1.112000000000000191e+10,-1.203367857930012080e-02,2.439442806217353293e-03,-7.154620685149369885e-01,9.342962699146388147e-03,1.227844865423609495e-02,7.155230691149447875e-01
1.120000000000000000e+10,-1.087965252083626308e-02,4.568407355946045231e-03,-7.157539722345890310e-01,9.674138103139225120e-03,1.179988070888857675e-02,7.158193471244203021e-01
1.128000000000000000e+10,-9.332340179152973439e-03,6.316696356276128507e-03,-7.160184371651225899e-01,1.003293726464275261e-02,1.126912712133575425e-02,7.160887250826819539e-01
1.135999999999999809e+10,-7.508426188035933514e-03,7.612544225858532132e-03,-7.162526282155954327e-01,1.041765862355212117e-02,1.069239418520641187e-02,7.163283849164047146e-01
1.143999999999999809e+10,-5.535750378592837508e-03,8.419478197944960107e-03,-7.164535874562079076e-01,1.082639092580479044e-02,1.007631606192269276e-02,7.165353820428886911e-01
1.152000000000000000e+10,-3.542798514718747439e-03,8.736885633822879388e-03,-7.166182093109997320e-01,1.125694367732675907e-02,9.427862530520582721e-03,7.167066182874679559e-01
1.160000000000000000e+10,-1.648862874049027236e-03,8.597558542939573445e-03,-7.167432277398041451e-01,1.170675649674411331e-02,8.754242495881095487e-03,7.168388261377496296e-01
1.168000000000000191e+10,4.433595735849277589e-05,8.062686660391447588e-03,-7.168252230469533970e-01,1.217278592618795466e-02,8.062808559104519060e-03,7.169285718351021686e-01
1.176000000000000000e+10,1.458994842038735962e-03,7.214930793994156488e-03,-7.168606582847170117e-01,1.265136963859419920e-02,7.360970881019757682e-03,7.169722871562960176e-01
1.184000000000000000e+10,2.545195806675805677e-03,6.150286615283316952e-03,-7.168459579006266624e-01,1.313807114273865366e-02,6.656128540259211371e-03,7.169663424958097053e-01
1.191999999999999809e+10,3.274299061234464594e-03,4.980818755575153363e-03,-7.167776436315105304e-01,1.362751268531300387e-02,5.960670249081903051e-03,7.169071763568343192e-01
1.200000000000000000e+10,3.435201344441747833e-03,3.775706222994285998e-03,-7.166525440840216810e-01,1.411321123551176338e-02,5.104563229034602377e-03,7.167914980477090303e-01
1.208000000000000000e+10,3.765536817001776879e-03,2.636070075535305347e-03,-7.164680930785439772e-01,1.458744213896398002e-02,4.596534886556240089e-03,7.166165793977716802e-01
1.216000000000000000e+10,3.596870565263228427e-03,1.637628165368747689e-03,-7.162227262508370496e-01,1.504116702057370358e-02,3.952126499906857479e-03,7.163806462374051609e-01
1.224000000000000191e+10,3.237880237823137324e-03,8.209143589022534649e-04,-7.159163724608579304e-01,1.546407504078290383e-02,3.340324657744739734e-03,7.160833680336256002e-01
1.232000000000000000e+10,2.759780660692358334e-03,2.091655391733436477e-04,-7.155510142636276605e-01,1.584479603087254537e-02,2.767695705439675996e-03,7.157264222976306156e-01
1.239999999999999809e+10,2.253270607737552049e-03,-2.128712236783745441e-04,-7.150429962943414264e-01,1.615659618193243316e-02,2.263303468287954784e-03,7.152255044038737797e-01
1.247999999999999809e+10,1.713576249268075656e-03,-4.182313689849431054e-04,-7.146648263795759570e-01,1.643183121713277448e-02,1.763876707726100106e-03,7.148537047125781418e-01
1.256000000000000000e+10,1.243005857840828905e-03,-5.386064132228779661e-04,-7.138865221517809445e-01,1.637278905916052588e-02,1.354680933279651727e-03,7.140742501529802055e-01
1.264000000000000000e+10,8.723664556789894036e-04,-4.485730392015399798e-04,-7.136395916485281932e-01,1.671366243072243060e-02,9.809388383036062118e-04,7.138352844179994827e-01
1.272000000000000000e+10,5.878357716237352700e-04,-3.438004497348277292e-04,-7.131122348062604033e-01,1.672139742191520312e-02,6.809916619448008789e-04,7.133082535356791709e-01
1.280000000000000191e+10,3.927643682165227927e-04,-2.116277528452445715e-04,-7.125993873138536383e-01,1.663809399088032881e-02,4.461503723128024709e-04,7.127935977348063279e-01
1.288000000000000000e+10,2.718208215659946884e-04,-8.050645041068931395e-05,-7.121197148211961814e-01,1.646825551835410031e-02,2.834922355101477764e-04,7.123101092058427009e-01
