# Frequency, Real(S21), Imag(S21), Real(S11), Imag(S11), Amp(S21), Amp(S11)
4.000000000000000000e+09,1.800370234984657644e-05,1.431662454979473200e-04,-7.187637927624357381e-01,6.925785920793964788e-03,1.442938222803748216e-04,7.187971593550313010e-01
4.080000000000000000e+09,1.096864843432291653e-05,1.462822214008856008e-04,-7.187828068090126310e-01,7.086633618437117657e-03,1.466928749000901170e-04,7.188177402793314297e-01
4.160000000000000477e+09,9.890885855669372519e-06,1.471360175390154827e-04,-7.187335020934617624e-01,7.246564386836339480e-03,1.474680890235285848e-04,7.187700325743586749e-01
4.240000000000000000e+09,2.850921919014522897e-05,1.464646070710503699e-04,-7.187527448692688781e-01,7.411326424084627856e-03,1.492134601948126051e-04,7.187909543229329401e-01
4.320000000000000000e+09,4.755598824256492392e-06,1.456045263811367549e-04,-7.187614482604970378e-01,7.578473594881766744e-03,1.456821671408426756e-04,7.188014000873645948e-01
4.400000000000000000e+09,3.111316833143228084e-05,1.420675076456367428e-04,-7.187455968836171660e-01,7.744707355010734331e-03,1.454345418814357769e-04,7.187873214877971151e-01
4.480000000000000000e+09,1.934027019929813456e-05,1.415421680765319482e-04,-7.187626065038985601e-01,7.916749361581704517e-03,1.428573813115271984e-04,7.188062043616013641e-01
4.560000000000000000e+09,3.614818488898471816e-06,1.421190886374956849e-04,-7.187011954336955943e-01,8.086517322304474439e-03,1.421650529063315019e-04,7.187466870046963496e-01
4.640000000000000000e+09,3.325635855280276127e-06,1.427928707842532005e-04,-7.187062192968880492e-01,8.263052337899416677e-03,1.428315924459653890e-04,7.187537183834009635e-01
4.720000000000000000e+09,3.241415946424963664e-06,1.446770693968626976e-04,-7.186850407698645027e-01,8.439473010607193362e-03,1.447133759767989106e-04,7.187345911607974092e-01
4.800000000000000000e+09,3.056643983758855628e-06,1.477876511821515221e-04,-7.186760572901641497e-01,8.620308142764772363e-03,1.478192575897360425e-04,7.187277544624331993e-01
4.880000000000000000e+09,2.984344468882080956e-06,1.519027844485033982e-04,-7.186778171744795385e-01,8.805926513616356421e-03,1.519320974485557300e-04,7.187317644576715070e-01
4.960000000000000000e+09,2.937426046284180682e-06,1.565448261758029523e-04,-7.186558859457405912e-01,8.991932662596390305e-03,1.565723828591420179e-04,7.187121379644746400e-01
5.040000000000000000e+09,3.049563681267303544e-06,1.615224296639517594e-04,-7.186444937084599527e-01,9.183320287571156149e-03,1.615512151708935662e-04,7.187031666195669022e-01
5.120000000000000000e+09,3.273803733416454960e-06,1.664728369833573247e-04,-7.186320571316273664e-01,9.378891853189227912e-03,1.665050246814563746e-04,7.186932566468314798e-01
5.200000000000000000e+09,3.588235738804762244e-06,1.711542951972888356e-04,-7.186184080322551848e-01,9.579059024661790850e-03,1.711919045988972076e-04,7.186822487960939920e-01
5.280000000000000000e+09,3.962074200453704037e-06,1.754115292311069006e-04,-7.186033351376438505e-01,9.784293563863590698e-03,1.754562698200476747e-04,7.186699420954578699e-01
5.360000000000000000e+09,4.362163413642235288e-06,1.791745829930544830e-04,-7.185865679107733550e-01,9.995139358605237626e-03,1.792276754867458942e-04,7.186560779625971174e-01
5.440000000000000000e+09,4.758267125120447136e-06,1.824443394890476358e-04,-7.185677519965740778e-01,1.021222710416522066e-02,1.825063782930034259e-04,7.186403160078322916e-01
5.520000000000000000e+09,5.126351951298357653e-06,1.852704205105600954e-04,-7.185464107375399978e-01,1.043629072948993458e-02,1.853413289055852757e-04,7.186221959750421773e-01
5.600000000000000000e+09,5.449655871122833549e-06,1.877269041124819140e-04,-7.185218832079406370e-01,1.066818123336574567e-02,1.878059883943284953e-04,7.186010762165009336e-01
5.680000000000000000e+09,5.717922297021015541e-06,1.898902170385883951e-04,-7.184932239187659109e-01,1.090886327690255078e-02,1.899762857894557791e-04,7.185760336353947952e-01
5.760000000000000000e+09,5.925529877479710458e-06,1.918219097098760651e-04,-7.184590509534748426e-01,1.115935249936707459e-02,1.919134100292961510e-04,7.185457111730421120e-01
5.840000000000000954e+09,6.069402313756826577e-06,1.935572925581683008e-04,-7.184173774688977776e-01,1.142050460452035884e-02,1.936524287141645599e-04,7.185081462131870378e-01
5.920000000000000000e+09,6.147403336372237980e-06,1.950992048105887734e-04,-7.183656153141897427e-01,1.169260113736725164e-02,1.951960304040635638e-04,7.184607673262973782e-01
6.000000000000000000e+09,6.157146724110200226e-06,1.964147455609158003e-04,-7.183009787388452416e-01,1.197499198535047389e-02,1.965112279986604680e-04,7.184007909866414465e-01
6.080000000000000000e+09,6.093751477990469566e-06,1.974326061168682738e-04,-7.182210299336326820e-01,1.226619715101332463e-02,1.975266254588832861e-04,7.183257669271482238e-01
6.160000000000000000e+09,5.944310820517492938e-06,1.980398675257383722e-04,-7.181238983902246131e-01,1.256429447375953350e-02,1.981290588498893577e-04,7.182338024172888469e-01
6.239999999999999046e+09,5.677345035312842978e-06,1.980786650818446286e-04,-7.180082169257367974e-01,1.286720515454622266e-02,1.981600106158040123e-04,7.181235022900761544e-01
6.320000000000000000e+09,5.226549620165589711e-06,1.973438887774704546e-04,-7.178730018625909537e-01,1.317281735435054703e-02,1.974130878608272176e-04,7.179938508930689967e-01
6.400000000000000954e+09,4.468881077810000211e-06,1.955835584986051522e-04,-7.177175630787733240e-01,1.347902693176709910e-02,1.956346064812279270e-04,7.178441227165966998e-01
6.480000000000000000e+09,3.197629739221100249e-06,1.925039516050713092e-04,-7.175414471776676573e-01,1.378374790068608198e-02,1.925305072437009555e-04,7.176738257202999183e-01
6.560000000000000000e+09,1.091837836457866095e-06,1.877820404200206822e-04,-7.173444025838140448e-01,1.408491358517242019e-02,1.877852145781647988e-04,7.174826664868154680e-01
6.640000000000000000e+09,-2.315782283816047765e-06,1.810877057731499881e-04,-7.171263578789096593e-01,1.438047562108174006e-02,1.811025124888359164e-04,7.172705286318116213e-01
6.720000000000000000e+09,-7.669442742042935292e-06,1.721181000257300975e-04,-7.168874082075760157e-01,1.466840299978017584e-02,1.722888873620138797e-04,7.170374593374739813e-01
6.799999999999999046e+09,-1.581563774334258845e-05,1.606456184051976597e-04,-7.166278068672287116e-01,1.494668177125246626e-02,1.614222695603584508e-04,7.167836611358444632e-01
6.880000000000000000e+09,-2.781894774332263382e-05,1.465800374167844562e-04,-7.163479605374168946e-01,1.521331552931539689e-02,1.491965188020539829e-04,7.165094874009074744e-01
6.960000000000000954e+09,-4.496342862563162024e-05,1.300438024501518334e-04,-7.160484272707969833e-01,1.546632676002715825e-02,1.375976034292254149e-04,7.162154406744033475e-01
7.039999999999999046e+09,-6.873470652776449879e-05,1.114578641516546123e-04,-7.157299167751838276e-01,1.570375919408573823e-02,1.309477581431106737e-04,7.159021733587889180e-01
7.120000000000000000e+09,-1.007780748071000927e-04,9.163376718248267055e-05,-7.153932926588139063e-01,1.592368135947591287e-02,1.362092788685077230e-04,7.155704904544746281e-01
7.200000000000000000e+09,-1.428285512700136419e-04,7.186602780844943768e-05,-7.150395763832916307e-01,1.612419163693308913e-02,1.598897151503364924e-04,7.152213540928022972e-01
7.280000000000000000e+09,-1.966100194323298531e-04,5.401738340058857488e-05,-7.146699526783744094e-01,1.630342516497353123e-02,2.038955062050836267e-04,7.148558896263076390e-01
7.359999999999999046e+09,-2.637021592960421133e-04,4.058827715223078340e-05,-7.142857760378935605e-01,1.645956294916440035e-02,2.668074906361915955e-04,7.144753929020462024e-01
7.440000000000000000e+09,-3.453759831214234417e-04,3.476137891954928991e-05,-7.138885779332579951e-01,1.659084355416402812e-02,3.471209057107887269e-04,7.140813383595793207e-01
7.520000000000000000e+09,-4.424012005190302351e-04,4.041151908365471154e-05,-7.134800741936534463e-01,1.669557770330547253e-02,4.442430788378450338e-04,7.136753874039851731e-01
7.599999999999999046e+09,-5.548314036977450335e-04,6.207173544881222464e-05,-7.130621719642836753e-01,1.677216606317918565e-02,5.582927429860050231e-04,7.132593964616746884e-01
7.680000000000000000e+09,-6.938958185081895401e-04,2.073620587553776226e-04,-7.126369755123396210e-01,1.681912035823488610e-02,7.242171154801707632e-04,7.128354239773719847e-01
7.760000000000000954e+09,-8.211694382456605299e-04,1.742678660892949850e-04,-7.122067900705958410e-01,1.683508795321425958e-02,8.394572862629820107e-04,7.124057355250968948e-01
7.840000000000000000e+09,-9.695554832491138850e-04,2.760803215396574750e-04,-7.117741228570213519e-01,1.681887967671457165e-02,1.008096314366768937e-03,7.119728061397161412e-01
7.919999999999999046e+09,-1.121897166119179565e-03,4.159665377186566918e-04,-7.113416802862104760e-01,1.676950073804652289e-02,1.196528901384288478e-03,7.115393188485177323e-01
8.000000000000000000e+09,-1.271436492317781081e-03,5.991994895144987267e-04,-7.109123604929342699e-01,1.668618416935998758e-02,1.405557107424589393e-03,7.111081584708260905e-01
8.080000000000000000e+09,-1.409619487173174824e-03,8.302342165189464419e-04,-7.104892401367672861e-01,1.656842609917075562e-02,1.635944972453900461e-03,7.106823995945901196e-01
8.159999999999999046e+09,-1.526107034163322416e-03,1.112244778723057905e-03,-7.100755546999001355e-01,1.641602188137613119e-02,1.888409682118654060e-03,7.102652878726234409e-01
8.240000000000000000e+09,-1.608889661372801642e-03,1.446620497332305137e-03,-7.096746715250930038e-01,1.622910183460803124e-02,2.163616603230399810e-03,7.098602138101604009e-01
8.320000000000000954e+09,-1.644522820264074587e-03,1.832440124734971334e-03,-7.092900550889363886e-01,1.600816512625629837e-02,2.462172235467702513e-03,7.094706784630185892e-01
8.400000000000000000e+09,-1.618496232891206404e-03,2.265948154714295028e-03,-7.089252243286140454e-01,1.575411008433849971e-02,2.784609684630171954e-03,7.091002507924568654e-01
8.480000000000000000e+09,-1.515746974532766658e-03,2.740062668267030828e-03,-7.085837021308964978e-01,1.546825905620553658e-02,3.131362693275225803e-03,7.087525167248134306e-01
8.560000000000000000e+09,-1.321320863153772809e-03,3.243949465773895459e-03,-7.082689576959831923e-01,1.515237590873415134e-02,3.502727074709100635e-03,7.084310205880556266e-01
8.640000000000000000e+09,-1.021180557261046557e-03,3.762700896062442894e-03,-7.079843428187940768e-01,1.480867420163347291e-02,3.898811070538952140e-03,7.081391999516548630e-01
8.720000000000000000e+09,-6.031513825378860376e-04,4.277163121806223586e-03,-7.077330237983540107e-01,1.443981438461999257e-02,4.319480982802971492e-03,7.078803156001894914e-01
8.800000000000000000e+09,-5.798673181539872284e-05,4.763956462419084541e-03,-7.075179111311935554e-01,1.404888846321151671e-02,4.764309355708463110e-03,7.076573788483373484e-01
8.880000000000000000e+09,6.194754715486334475e-04,5.195736142108969835e-03,-7.073415896253263391e-01,1.363939139057374073e-02,5.232535133018009765e-03,7.074730789303497192e-01
8.959999999999998093e+09,1.429106831053700332e-03,5.541739249765336404e-03,-7.072062518713002621e-01,1.321517876140744854e-02,5.723042918496594987e-03,7.073297135251346290e-01
9.040000000000000000e+09,2.364289362003635722e-03,5.768660412239671326e-03,-7.071136382141919308e-01,1.278041136275284706e-02,6.234365014901255969e-03,7.072291257174807555e-01
9.120000000000000000e+09,3.410796587148913483e-03,5.841890820388554589e-03,-7.070649862721765100e-01,1.233948779663003419e-02,6.764704111507519220e-03,7.071726506102710141e-01
9.200000000000000000e+09,4.545847307051670110e-03,5.727143102987424655e-03,-7.070609927738176204e-01,1.189696730336596737e-02,7.311969355866129727e-03,7.071610745320431324e-01
9.280000000000000000e+09,5.737442966769762051e-03,5.392462308481760745e-03,-7.071017899750666746e-01,1.145748561447205473e-02,7.873811119485419480e-03,7.071946092572745091e-01
9.360000000000000000e+09,6.944118711833615482e-03,4.810598730080779817e-03,-7.071869381717459380e-01,1.102566715305903014e-02,8.447641376496315552e-03,7.072728828796555067e-01
9.440000000000000000e+09,8.115249200076016245e-03,3.961674679846959209e-03,-7.073154348874658437e-01,1.060603737857068393e-02,9.030622118562758871e-03,7.073949480021189951e-01
9.520000000000000000e+09,9.192055470608416143e-03,2.836031917238674479e-03,-7.074857404294229157e-01,1.020293906839022172e-02,9.619613339960114695e-03,7.075593069676930913e-01
9.600000000000000000e+09,1.010944665219621827e-02,1.437085985417428918e-03,-7.076958184247276185e-01,9.820456100648720238e-03,1.021107867676498276e-02,7.077639527228479777e-01
9.680000000000000000e+09,1.079879757049696971e-02,-2.160504282799897264e-04,-7.079431891504803787e-01,9.462347943093652944e-03,1.080095860357455605e-02,7.080064230592466590e-01
9.760000000000000000e+09,1.119170215813987401e-02,-2.086475863015935586e-03,-7.082249927190682470e-01,9.131997201980894888e-03,1.138453243323856584e-02,7.082838651874128200e-01
9.840000000000000000e+09,1.122464950507608486e-02,-4.118293612481382752e-03,-7.085380587475602621e-01,8.832371774661913061e-03,1.195629954419049137e-02,7.085931071390174640e-01
9.920000000000000000e+09,1.084444228142970347e-02,-6.236666598985722218e-03,-7.088789788881794118e-01,8.566002292234425539e-03,1.250991361529584650e-02,7.089307322332828454e-01
1.000000000000000000e+10,1.001402453695624320e-02,-8.349490360046150222e-03,-7.092441787301693168e-01,8.334974444883151354e-03,1.303820066954275957e-02,7.092931529781104638e-01
1.008000000000000000e+10,8.718221218722654528e-03,-1.035095718858434349e-02,-7.096299858567937102e-01,8.140935005960090246e-03,1.353328104852965195e-02,7.096766810667266556e-01
1.016000000000000000e+10,6.968742758907452498e-03,-1.212712573903998101e-02,-7.100326914281195334e-01,7.985109754381209193e-03,1.398679928826860111e-02,7.100775907423418909e-01
1.024000000000000000e+10,4.807710674988871849e-03,-1.356337474991820002e-02,-7.104486032494092829e-01,7.868330871255820730e-03,1.439024727171567784e-02,7.104921734190575711e-01
1.032000000000000000e+10,2.308954844117251139e-03,-1.455332382017584560e-02,-7.108740891196849709e-01,7.791071261424168878e-03,1.473534888243472132e-02,7.109167823122073404e-01
1.040000000000000000e+10,-4.235446464221342272e-04,-1.500848774223581712e-02,-7.113056098751771028e-01,7.753483163210349131e-03,1.501446284008707555e-02,7.113478664767751702e-01
1.048000000000000000e+10,-3.260431392136662818e-03,-1.486765293820491857e-02,-7.117397422496940518e-01,7.755438586809724859e-03,1.522095649930527671e-02,7.117819943812393468e-01
1.056000000000000000e+10,-6.054925492950844271e-03,-1.410479715030700174e-02,-7.121731921272483889e-01,7.796569499566972580e-03,1.534950896206437390e-02,7.122158676136584043e-01
1.064000000000000000e+10,-8.796347227545539202e-03,-1.240720357147014757e-02,-7.126027990980292603e-01,7.876306043616635930e-03,1.520902445955853166e-02,7.126463256617822095e-01
1.072000000000000000e+10,-1.090790066454597022e-02,-1.081304992797449058e-02,-7.130255333332979895e-01,7.993911501345835752e-03,1.535917789637425597e-02,7.130703428178214454e-01
1.080000000000000000e+10,-1.268836722245687484e-02,-8.437228336755036792e-03,-7.134384858352902370e-01,8.148513086096315430e-03,1.523750257681553803e-02,7.134850182985384981e-01
1.088000000000000000e+10,-1.389455749560673109e-02,-5.736590285554118290e-03,-7.138388528362831220e-01,8.339127940457605886e-03,1.503220529739515872e-02,7.138875603856870145e-01
1.096000000000000000e+10,-1.446475908496446666e-02,-2.864043121823433430e-03,-7.142239150571226824e-01,8.564683682160231099e-03,1.474557555301678202e-02,7.142752653187001144e-01
1.104000000000000000e+10,-1.438110608906723389e-02,1.668937271248908862e-05,-7.145910122572954881e-01,8.824032894803161137e-03,1.438111577312999045e-02,7.146454913839692669e-01
1.112000000000000191e+10,-1.367062049276915846e-02,2.744454895650207983e-03,-7.149375133934864346e-01,9.115960649370122987e-03,1.394338184701180913e-02,7.149956285151836122e-01
1.120000000000000000e+10,-1.240201622208804422e-02,5.173530444083775798e-03,-7.152607827714607680e-01,9.439183865519167049e-03,1.343783552618488773e-02,7.153230637711116557e-01
1.128000000000000000e+10,-1.067879512634352379e-02,7.184602072724746366e-03,-7.155581427099466651e-01,9.792340858573373927e-03,1.287070985974817644e-02,7.156251431706399657e-01
1.135999999999999809e+10,-8.629567930885040372e-03,8.692851985780666868e-03,-7.158268336719971758e-01,1.017396903117718208e-02,1.224888232943930309e-02,7.158991307794168035e-01
1.143999999999999809e+10,-6.396758450731593326e-03,9.652567981387302071e-03,-7.160639733931347672e-01,1.058246813086612809e-02,1.157974901767345674e-02,7.161421664888227845e-01
1.152000000000000000e+10,-4.124892206871027048e-03,1.005813074031050060e-02,-7.162665175679991947e-01,1.101604631420255095e-02,1.087109606743884814e-02,7.163512249346583038e-01
1.160000000000000000e+10,-1.949563160794039402e-03,9.941617443570664389e-03,-7.164312257873750589e-01,1.147264567334012157e-02,1.013097003806811072e-02,7.165230790993035725e-01
1.168000000000000191e+10,1.203497493120820640e-05,9.367546634054911905e-03,-7.165546382990805041e-01,1.194984429345425335e-02,9.367554365031201605e-03,7.166542740028583047e-01
1.176000000000000000e+10,1.668381279991170037e-03,8.425466319519181457e-03,-7.166330713285905540e-01,1.244473209251631581e-02,8.589061578355174781e-03,7.167411180326571651e-01
1.184000000000000000e+10,2.932940581526108717e-03,7.255346939767470631e-03,-7.166792533312047464e-01,1.295593771520686492e-02,7.825739560652137522e-03,7.167963507701845538e-01
1.191999999999999809e+10,3.853099687800713106e-03,5.867303656367341483e-03,-7.166393335383133278e-01,1.347255832490813418e-02,7.019375285604234280e-03,7.167659619443824681e-01
1.200000000000000000e+10,4.355610830845713620e-03,4.474169244356455272e-03,-7.165591276087087680e-01,1.399574683399270984e-02,6.244160162658041018e-03,7.166957961986347714e-01
1.208000000000000000e+10,4.497369074109589318e-03,3.141280653435168154e-03,-7.164182078744372184e-01,1.451672248698130871e-02,5.485797365233555795e-03,7.165652683501931852e-01
1.216000000000000000e+10,4.333253312033777740e-03,1.950365650485432790e-03,-7.162132713156100783e-01,1.502747661056713126e-02,4.751948067566097444e-03,7.163709060688386865e-01
1.224000000000000191e+10,3.934647242228776418e-03,9.602403039361256248e-04,-7.159419544043635897e-01,1.551846354841666595e-02,4.050124734138673029e-03,7.161101205731165154e-01
1.232000000000000000e+10,3.381491438331792661e-03,2.039717926808949384e-04,-7.156033822703208314e-01,1.597858145022513707e-02,3.387637648822652923e-03,7.157817515010315157e-01
1.239999999999999809e+10,2.753931872424895174e-03,-3.114077992424717743e-04,-7.151988222317341437e-01,1.639533475056950684e-02,2.771482559098419930e-03,7.153867222162030304e-01
1.247999999999999809e+10,2.344262359907569194e-03,-6.239777449491333648e-04,-7.145563666230153599e-01,1.666127315212190957e-02,2.425884217820630136e-03,7.147505852425268813e-01
1.256000000000000000e+10,1.550742661626237874e-03,-7.049500306715167364e-04,-7.142116824528388364e-01,1.704465033803431381e-02,1.703454533684829698e-03,7.144150386555846444e-01
1.264000000000000000e+10,1.072042941775119308e-03,-6.661639841499527193e-04,-7.136482491881870338e-01,1.725069195370830533e-02,1.262161052634880754e-03,7.138567152743233724e-01
1.272000000000000000e+10,7.065512513466054535e-04,-5.378900226454735650e-04,-7.130576020943738547e-01,1.736280550825299723e-02,8.879979432639481399e-04,7.132689611357666548e-01
1.280000000000000191e+10,4.533311400858651224e-04,-3.682117207251904816e-04,-7.124586976837000707e-01,1.737417612575675036e-02,5.840282474769143946e-04,7.126705114575758726e-01
1.288000000000000000e+10,2.965738692010140153e-04,-1.953211165551707162e-04,-7.118727296404484539e-01,1.728310381611634222e-02,3.551146272194638282e-04,7.120825014584065693e-01
