# Frequency, Real(S21), Imag(S21), Real(S11), Imag(S11), Amp(S21), Amp(S11)
4.000000000000000000e+09,3.375039028476086296e-07,1.474376609571196478e-04,-7.187443885432349688e-01,7.339172937069456462e-03,1.474380472516880565e-04,7.187818580917223477e-01
4.080000000000000000e+09,8.865700707423622997e-07,1.502551985059778674e-04,-7.187449477966132427e-01,7.510826147560515850e-03,1.502578140549141301e-04,7.187841904859727515e-01
4.160000000000000477e+09,2.230628287437878013e-06,1.511051431379876390e-04,-7.187364475767218375e-01,7.683484015100343692e-03,1.511216066130467326e-04,7.187775156484905725e-01
4.240000000000000000e+09,3.620930776071969181e-07,1.503393774866929576e-04,-7.187106073445660437e-01,7.858590894066009094e-03,1.503398135374765462e-04,7.187535701201318572e-01
4.320000000000000000e+09,3.270923646206838994e-06,1.485929368475364949e-04,-7.187067258929149549e-01,8.037160199109065831e-03,1.486289333288619101e-04,7.187516635026174328e-01
4.400000000000000000e+09,2.588654766207775225e-05,1.454637367521762750e-04,-7.187195875257462729e-01,8.218407497366721215e-03,1.477491524840919741e-04,7.187665738714980046e-01
4.480000000000000000e+09,3.498207664630590703e-06,1.448391950557943654e-04,-7.187102260198956483e-01,8.399464186284783321e-03,1.448814338736172341e-04,7.187593060157108082e-01
4.560000000000000000e+09,4.214368036001829942e-06,1.441297608529974695e-04,-7.187000977118431777e-01,8.584976598112324664e-03,1.441913619516963733e-04,7.187513702764003476e-01
4.640000000000000000e+09,2.311516378353466563e-06,1.446946219581583771e-04,-7.186955221272511851e-01,8.773642422087422205e-03,1.447130841754876336e-04,7.187490732704375773e-01
4.720000000000000000e+09,2.330605593524644621e-06,1.467475760739630781e-04,-7.186686393266997763e-01,8.965466469972720523e-03,1.467660819331774165e-04,7.187245597172218226e-01
4.800000000000000000e+09,2.148050400534378571e-06,1.500220122530598215e-04,-7.186552286833745029e-01,9.159863704588886227e-03,1.500373896099917571e-04,7.187136013858649308e-01
4.880000000000000000e+09,-4.681448440157062925e-05,1.619026183403356222e-04,-7.186116664948528632e-01,9.360817769636440092e-03,1.685350223996225603e-04,7.186726321015890484e-01
4.960000000000000000e+09,-1.622870755001640768e-05,1.619518114801352527e-04,-7.186170276966770132e-01,9.561856603892700257e-03,1.627628956194907049e-04,7.186806395036116069e-01
5.040000000000000000e+09,1.689982743242929149e-06,1.646912929833289625e-04,-7.186198439727611298e-01,9.767173535783754690e-03,1.646999636496412878e-04,7.186862165300749172e-01
5.120000000000000000e+09,1.861103572158186046e-06,1.699871542532210063e-04,-7.186059460253954034e-01,9.978456210426407333e-03,1.699973420898534256e-04,7.186752223719674593e-01
5.200000000000000000e+09,2.164542319407982816e-06,1.750051610268852623e-04,-7.185907225057146519e-01,1.019486672290408763e-02,1.750185465300707762e-04,7.186630377157174898e-01
5.280000000000000000e+09,2.557587403074959898e-06,1.795852329996469837e-04,-7.185739471694295721e-01,1.041691821429485861e-02,1.796034441898647620e-04,7.186494484348662226e-01
5.360000000000000000e+09,-5.458696823334978777e-05,1.891549301145569600e-04,-7.185553312410682958e-01,1.064520076957481236e-02,1.968738801556764743e-04,7.186341797843920354e-01
5.440000000000000000e+09,3.430833077394523239e-06,1.872261218706043737e-04,-7.185344977577037273e-01,1.088039712894898516e-02,1.872575534559590136e-04,7.186168711556939481e-01
5.520000000000000000e+09,3.835375915287159980e-06,1.903449062254386091e-04,-7.185109414522100613e-01,1.112330028986729252e-02,1.903835429715042076e-04,7.185970364508050823e-01
5.600000000000000000e+09,4.184928797858967334e-06,1.930924033426655961e-04,-7.184839642872674625e-01,1.137482860518470792e-02,1.931377484017296042e-04,7.185740001306369917e-01
5.680000000000000000e+09,4.466876297276094890e-06,1.955488682514060531e-04,-7.184525712634359795e-01,1.163602332931903266e-02,1.955998794944949139e-04,7.185467933224412018e-01
5.760000000000000000e+09,4.675840046191179553e-06,1.977787076182369985e-04,-7.184153126533378009e-01,1.190798551016821263e-02,1.978339724801522748e-04,7.185139953916719335e-01
5.840000000000000954e+09,4.810557320313937010e-06,1.998189990540668410e-04,-7.183701078927463568e-01,1.219166081360546425e-02,1.998768967257126279e-04,7.184735544939911955e-01
5.920000000000000000e+09,4.871198020069122191e-06,2.016730894595445409e-04,-7.183142437732653596e-01,1.248741465712748661e-02,2.017319101736464904e-04,7.184227782666534612e-01
6.000000000000000000e+09,4.857343911483398106e-06,2.033071799115442773e-04,-7.182447814637743511e-01,1.279466142265757098e-02,2.033651966130376474e-04,7.183587331277218047e-01
6.080000000000000000e+09,4.765146448031482788e-06,2.046474512927656027e-04,-7.181591121439941938e-01,1.311195953432531258e-02,2.047029211840809394e-04,7.182787995188775199e-01
6.160000000000000000e+09,4.581417459120535964e-06,2.055764883578242708e-04,-7.180551844213849400e-01,1.343739946657111946e-02,2.056275320852472561e-04,7.181809044933270547e-01
6.239999999999999046e+09,4.272720322322765720e-06,2.059295900842516300e-04,-7.179314444586826216e-01,1.376889067615885524e-02,2.059739114820629505e-04,7.180634660620065501e-01
6.320000000000000000e+09,3.768628647013783827e-06,2.054921751907825525e-04,-7.177867188480043792e-01,1.410428570824084557e-02,2.055267297129946568e-04,7.179252778875555574e-01
6.400000000000000954e+09,2.938886488586644054e-06,2.039996030950494963e-04,-7.176201271787954195e-01,1.444142101647593115e-02,2.040207712874611329e-04,7.177654223860924221e-01
6.480000000000000000e+09,1.565110496090294152e-06,2.011422514323550452e-04,-7.174310277116074941e-01,1.477812755516869081e-02,2.011483404906481065e-04,7.175832164824997861e-01
6.560000000000000000e+09,-6.918804425593239006e-07,1.965779125622203413e-04,-7.172189849356357394e-01,1.511223221652867668e-02,1.965791301381373569e-04,7.173781791458880841e-01
6.640000000000000000e+09,-4.326812311082682376e-06,1.899545031251839483e-04,-7.169837501997509133e-01,1.544155737495603482e-02,1.900037751264717736e-04,7.171500120230515085e-01
6.720000000000000000e+09,-1.002374298999050449e-05,1.809460059988546234e-04,-7.167252502515391033e-01,1.576392062466525079e-02,1.812234325645194102e-04,7.168985880454725734e-01
6.799999999999999046e+09,-1.868498948671853976e-05,1.693026614146541384e-04,-7.164435807814862889e-01,1.607713534664349797e-02,1.703306196613040165e-04,7.166239451232091495e-01
6.880000000000000000e+09,-3.145046749595539152e-05,1.549173802210573512e-04,-7.161390034124798243e-01,1.637901212675247839e-02,1.580775967690228813e-04,7.163262833701330434e-01
6.960000000000000954e+09,-4.970223148659090205e-05,1.379066494699470380e-04,-7.158119453300354484e-01,1.666736110598451490e-02,1.465897533348545689e-04,7.160059650613302962e-01
7.039999999999999046e+09,-7.504871391156943189e-05,1.187041651882097843e-04,-7.154630010745072211e-01,1.693999533903782495e-02,1.404385570020227382e-04,7.156635168489636767e-01
7.120000000000000000e+09,-1.092833094504713277e-04,9.816266296078364169e-05,-7.150929362650072507e-01,1.719473536042588624e-02,1.468970732315653699e-04,7.152996340137640630e-01
7.200000000000000000e+09,-1.543124607685377814e-04,7.765790835710334006e-05,-7.147026930360007579e-01,1.742941525425658819e-02,1.727515159957844439e-04,7.149151865424437924e-01
7.280000000000000000e+09,-2.120496768278443828e-04,5.918656875768179225e-05,-7.142933969785586479e-01,1.764189055392261993e-02,2.201547532171427572e-04,7.145112268323607907e-01
7.359999999999999046e+09,-2.842732029740290575e-04,4.544925711969042539e-05,-7.138663653025828504e-01,1.783004842156054801e-02,2.878834640993561218e-04,7.140889987508810544e-01
7.440000000000000000e+09,-3.724476008165324105e-04,3.990801468145831763e-05,-7.134231158620766289e-01,1.799182047089192479e-02,3.745795843206174919e-04,7.136499476985974644e-01
7.520000000000000000e+09,-4.775119056274206193e-04,4.680761077641701958e-05,-7.129653765294255985e-01,1.812519863542160631e-02,4.798005548585028467e-04,7.131957311673416955e-01
7.599999999999999046e+09,-5.996400528362272808e-04,7.114970067643609439e-05,-7.124950943692031080e-01,1.822825447996095222e-02,6.038463984092145870e-04,7.127282292441950995e-01
7.680000000000000000e+09,-7.379826466127820724e-04,1.186099442943224121e-04,-7.120144438412043808e-01,1.829916210474725677e-02,7.474534805505348312e-04,7.122495542801240420e-01
7.760000000000000954e+09,-8.904022508516118255e-04,1.953886670599848927e-04,-7.115258332266630736e-01,1.833622495131927155e-02,9.115881194580665540e-04,7.117620589033687439e-01
7.840000000000000000e+09,-1.053217749975266957e-03,3.079882874914039261e-04,-7.110319083128316953e-01,1.833790632740507284e-02,1.097326029079257696e-03,7.112683413785965136e-01
7.919999999999999046e+09,-1.220976011782303784e-03,4.629128111161210485e-04,-7.105355523305387777e-01,1.830286362692735286e-02,1.305783554821874021e-03,7.107712472677899518e-01
8.000000000000000000e+09,-1.386271408461658278e-03,6.662882536806235059e-04,-7.100398810711476827e-01,1.822998570195723603e-02,1.538079469634467305e-03,7.102738662587996243e-01
8.080000000000000000e+09,-1.539635264983955920e-03,9.234072151833743781e-04,-7.095482320791186570e-01,1.811843287769549643e-02,1.795315469279683707e-03,7.097795229904468872e-01
8.159999999999999046e+09,-1.669517872791488958e-03,1.238205371254753103e-03,-7.090641468811264003e-01,1.796767849895129776e-02,2.078567407849535743e-03,7.092917607465218932e-01
8.240000000000000000e+09,-1.762385259390166891e-03,1.612683608372216058e-03,-7.085913453367556070e-01,1.777755090654880785e-02,2.388880537663651358e-03,7.088143170128466952e-01
8.320000000000000954e+09,-1.802951268637748451e-03,2.046295468426246201e-03,-7.081336913804850974e-01,1.754827426164475013e-02,2.727262074166004330e-03,7.083510900660165976e-01
8.400000000000000000e+09,-1.774562741058816452e-03,2.535326099433853151e-03,-7.076951496722014845e-01,1.728050639395480384e-02,3.094664982259736664e-03,7.079060960118871426e-01
8.480000000000000000e+09,-1.659751512087990610e-03,3.072295177700457708e-03,-7.072797331425991763e-01,1.697537164714731095e-02,3.491958295970880918e-03,7.074834161708846159e-01
8.560000000000000000e+09,-1.440961689669516960e-03,3.645422934193014337e-03,-7.068914418109667475e-01,1.663448652665531005e-02,3.919882518677777344e-03,7.070871351167357099e-01
8.640000000000000000e+09,-1.101454098883548243e-03,4.238203692584705147e-03,-7.065341938675089306e-01,1.625997591584944085e-02,4.378992084005862116e-03,7.067212703186417366e-01
8.720000000000000000e+09,-6.263813897985997213e-04,4.829137498136282930e-03,-7.062117505535302486e-01,1.585447778102060112e-02,4.869591627784816690e-03,7.063896949174658380e-01
8.800000000000000000e+09,-4.017699367856445618e-06,5.391673077095657587e-03,-7.059276370542649781e-01,1.542113442562171796e-02,5.391674574024879658e-03,7.060960558904086914e-01
8.880000000000000000e+09,7.728857523922516484e-04,5.894419495628971592e-03,-7.056850620995194223e-01,1.496356912859400298e-02,5.944874563580112431e-03,7.058436903957340247e-01
8.959999999999998093e+09,1.705662035788390631e-03,6.301683745949438267e-03,-7.054868395181159713e-01,1.448584716857716746e-02,6.528437869375272075e-03,7.056355436777907997e-01
9.040000000000000000e+09,2.788267543373009437e-03,6.574389101791372134e-03,-7.053353151380269415e-01,1.399242156335810637e-02,7.141220340752729191e-03,7.054740921125781661e-01
9.120000000000000000e+09,4.005879673416529521e-03,6.671422570536270774e-03,-7.052323027095958041e-01,1.348806430300625303e-02,7.781706180045125723e-03,7.053612752793571028e-01
9.200000000000000000e+09,5.333657486747554050e-03,6.551447196117417618e-03,-7.051790320844512072e-01,1.297778506844777732e-02,8.448038976558583726e-03,7.052984405178039928e-01
9.280000000000000000e+09,6.735794162500322903e-03,6.175194067243519949e-03,-7.051761126246477440e-01,1.246674020792166125e-02,9.138049286783968619e-03,7.052863031619298617e-01
9.360000000000000000e+09,8.165014548602914785e-03,5.508218310600665468e-03,-7.052235139863242130e-01,1.196013538883350727e-02,9.849260456305016648e-03,7.053249247812942713e-01
9.440000000000000000e+09,9.562690807564007411e-03,4.524059649378150624e-03,-7.053205655691879850e-01,1.146312608957485851e-02,1.057885490930850735e-02,7.054137108637630327e-01
9.520000000000000000e+09,1.085976056847317434e-02,3.207692037819625738e-03,-7.054659747576399464e-01,1.098072016170891993e-02,1.132358988192596998e-02,7.055514281439850821e-01
9.600000000000000000e+09,1.197862664395722351e-02,1.559075903038186156e-03,-7.056578630326026946e-01,1.051768660368178863e-02,1.207966116854095572e-02,7.057362406673138855e-01
9.680000000000000000e+09,1.283880235328309014e-02,-4.039105192052112143e-04,-7.058938181356911867e-01,1.007847451879809349e-02,1.284515432270831245e-02,7.059657627185685902e-01
9.760000000000000000e+09,1.332296734898249027e-02,-2.662064322204088940e-03,-7.061678752443725227e-01,9.533267056182260016e-03,1.358631831798465771e-02,7.062322218703392940e-01
9.840000000000000000e+09,1.343419198275261697e-02,-5.088725824849107092e-03,-7.064860113315639678e-01,9.287320331088425723e-03,1.436567592387984031e-02,7.065470532994352348e-01
9.920000000000000000e+09,1.302504233181913870e-02,-7.662227982299951203e-03,-7.068353863278447058e-01,8.942145626746720796e-03,1.511163344574043520e-02,7.068919474245292101e-01
1.000000000000000000e+10,1.206910701368395233e-02,-1.025201281249963833e-02,-7.072152643405977823e-01,8.634273380471508066e-03,1.583562789457405515e-02,7.072679695795295318e-01
1.008000000000000000e+10,1.054009321602103651e-02,-1.273060835929824136e-02,-7.076216740063078214e-01,8.365859880054090161e-03,1.652761187226536171e-02,7.076711249832241535e-01
1.016000000000000000e+10,8.443667010247972796e-03,-1.495807457809602420e-02,-7.080505669415892989e-01,8.138578024280550272e-03,1.717671411137277129e-02,7.080973392116111098e-01
1.024000000000000000e+10,5.822613933478680559e-03,-1.679069109835056028e-02,-7.084978842403375499e-01,7.953642210488534939e-03,1.777161052292585211e-02,7.085425268799659948e-01
1.032000000000000000e+10,2.759466987036495421e-03,-1.809175203459700149e-02,-7.089596130650447359e-01,7.811842875112935507e-03,1.830098767099440013e-02,7.090026500983218627e-01
1.040000000000000000e+10,-6.242883156203577269e-04,-1.874364947587335573e-02,-7.094318322437668245e-01,7.713587845002954808e-03,1.875404307277307031e-02,7.094737655743098559e-01
1.048000000000000000e+10,-4.173034264452228290e-03,-1.866004732365914368e-02,-7.099107465934962891e-01,7.658947689653795160e-03,1.912097228420906250e-02,7.099520600777549095e-01
1.056000000000000000e+10,-7.706000696284383625e-03,-1.779666344355352453e-02,-7.103927102495916079e-01,7.647702596828355112e-03,1.939339259784759323e-02,7.104338745659372067e-01
1.064000000000000000e+10,-1.102993458990133256e-02,-1.615910709086351010e-02,-7.108742398340314184e-01,7.679388634158203913e-03,1.956466710760746200e-02,7.109157178382022879e-01
1.072000000000000000e+10,-1.395435662357576503e-02,-1.380641671041404200e-02,-7.113520185109861727e-01,7.753341810469489663e-03,1.963010981017510731e-02,7.113942708153364602e-01
1.080000000000000000e+10,-1.630777236149673348e-02,-1.084942207548941426e-02,-7.118228920161778772e-01,7.868738782819340721e-03,1.958707223569959230e-02,7.118663825805425782e-01
1.088000000000000000e+10,-1.795291203358547957e-02,-7.443746696672237477e-03,-7.122838577758640044e-01,8.024633432363171073e-03,1.943492771712509309e-02,7.123290593467257459e-01
1.096000000000000000e+10,-1.879910093982646579e-02,-3.778044879935899686e-03,-7.127320479524890118e-01,8.219988765319131974e-03,1.917497898983449092e-02,7.127794472302432238e-01
1.104000000000000000e+10,-1.881022378567191386e-02,-5.876847328018739705e-05,-7.131647069017283957e-01,8.453703832801490875e-03,1.881031559013588567e-02,7.132148093517975962e-01
1.112000000000000191e+10,-1.800736806020632186e-02,3.506755605686701603e-03,-7.135791635145604106e-01,8.724635110508256741e-03,1.834564360641931582e-02,7.136324977605429387e-01
1.120000000000000000e+10,-1.646598198251453607e-02,6.726988757832784091e-03,-7.139727984748532874e-01,9.031611765322968347e-03,1.778710039316419925e-02,7.140299202226003672e-01
1.128000000000000000e+10,-1.430810606594317726e-02,9.440779488389675761e-03,-7.143430065880721491e-01,9.373443785385220800e-03,1.714205986871703696e-02,7.144045020222676845e-01
1.135999999999999809e+10,-1.169080415080370888e-02,1.152849963763407856e-02,-7.146871541730290822e-01,9.748921745331713684e-03,1.641892827158272089e-02,7.147536427435257078e-01
1.143999999999999809e+10,-8.792253544130091553e-03,1.291887095136421901e-02,-7.150025319343887853e-01,1.015680629568764363e-02,1.562693025012495615e-02,7.150746683995418129e-01
1.152000000000000000e+10,-5.797039206191019478e-03,1.359121913349751500e-02,-7.152863036992647139e-01,1.059580531017465660e-02,1.477588918112425313e-02,7.153647792210123812e-01
1.160000000000000000e+10,-2.882073094478152051e-03,1.357340265498935272e-02,-7.155354523169891179e-01,1.106453571555467835e-02,1.387600825008355500e-02,7.156209942931236467e-01
1.168000000000000191e+10,-2.042948627502725288e-04,1.293605431168892532e-02,-7.157467245619929530e-01,1.156146664020825041e-02,1.293766739199581420e-02,7.158400947363133815e-01
1.176000000000000000e+10,2.109024974190721723e-03,1.178400645952309977e-02,-7.159165781089517067e-01,1.208484003025373128e-02,1.197124866418880669e-02,7.160185683135511514e-01
1.184000000000000000e+10,3.966898451957322214e-03,1.024587446704279883e-02,-7.160411353571526361e-01,1.263256416891682908e-02,1.098700263595767807e-02,7.161525600045299811e-01
1.191999999999999809e+10,5.317974110201916654e-03,8.462768835376489190e-03,-7.161161512038840549e-01,1.320207537478337682e-02,9.994963981815912363e-03,7.162378353656455587e-01
1.200000000000000000e+10,6.150705713645466741e-03,6.577026589726923250e-03,-7.161370051492732536e-01,1.379016366183804035e-02,9.004913077750720599e-03,7.162697667485278252e-01
1.208000000000000000e+10,6.490598509020798802e-03,4.721741949456013596e-03,-7.160987322920265852e-01,1.439275942238416733e-02,8.026376270930469028e-03,7.162433566282050412e-01
1.216000000000000000e+10,6.343920296170427880e-03,2.365236244442621687e-03,-7.159961129767865584e-01,1.500468166125222547e-02,6.770499775953627876e-03,7.161533175721682687e-01
1.224000000000000191e+10,5.945476257642350049e-03,1.536557965097702302e-03,-7.158238464897609399e-01,1.561935488724674158e-02,6.140822282910821280e-03,7.159942342299207008e-01
1.232000000000000000e+10,5.239728344972527894e-03,3.557050837652408343e-04,-7.155768394340302763e-01,1.622851219727366318e-02,5.251788194103507862e-03,7.157608383688877085e-01
1.239999999999999809e+10,4.381398789506078459e-03,-5.032983632499449939e-04,-7.152506414459495199e-01,1.682191883515894368e-02,4.410211400277247798e-03,7.154484307356743233e-01
1.247999999999999809e+10,3.470778098045061971e-03,-1.044165365789877231e-03,-7.148420566864466252e-01,1.738717317626007827e-02,3.624442290475102160e-03,7.150534803766570580e-01
1.256000000000000000e+10,2.595820268027327748e-03,-1.298244463351286640e-03,-7.143499426421988652e-01,1.790966923324764648e-02,2.902364820370405881e-03,7.145744165620240285e-01
1.264000000000000000e+10,1.824771702480207890e-03,-1.318320062089733307e-03,-7.137761720442477031e-01,1.837283200212986092e-02,2.251168485982512051e-03,7.140125942404084158e-01
1.272000000000000000e+10,1.201209315852560643e-03,-1.170322080688924408e-03,-7.131266742071650233e-01,1.875875030417313225e-02,1.677068153963645527e-03,7.133733553888499390e-01
1.280000000000000191e+10,7.422470987565765082e-04,-9.237549980375260421e-04,-7.124123896440485160e-01,1.904931587966667006e-02,1.185012258169452441e-03,7.126670255833553735e-01
1.288000000000000000e+10,4.403939633099108672e-04,-6.421125560817736401e-04,-7.116498841117571139e-01,1.922790586314010453e-02,7.786240283973260533e-04,7.119095939233850423e-01
