# Frequency, Real(S21), Imag(S21), Real(S11), Imag(S11), Amp(S21), Amp(S11)
4.000000000000000000e+09,-3.218013356076526567e-07,1.501133209576844521e-04,-7.187348856140344244e-01,7.583634318439972863e-03,1.501136658837042188e-04,7.187748933484634506e-01
4.080000000000000000e+09,8.440247181417632177e-07,1.529615699517459159e-04,-7.187319907195433011e-01,7.762467386361725057e-03,1.529638985506962434e-04,7.187739076953211237e-01
4.160000000000000477e+09,2.120896076464660304e-06,1.535574597175029640e-04,-7.187413313446031626e-01,7.943390141832698190e-03,1.535721056541835216e-04,7.187852244098774657e-01
4.240000000000000000e+09,1.709388523416572152e-06,1.525688273175976556e-04,-7.187206884140627805e-01,8.126782518116406479e-03,1.525784030529580627e-04,7.187666328847500674e-01
4.320000000000000000e+09,2.637476406971250408e-05,1.493100253022736415e-04,-7.187033513333533907e-01,8.310426775955883846e-03,1.516216074162867876e-04,7.187513968062894110e-01
4.400000000000000000e+09,2.958067261800200742e-06,1.477366371120529846e-04,-7.187136585910353093e-01,8.498000917320154210e-03,1.477662481999992032e-04,7.187638966064601176e-01
4.480000000000000000e+09,4.481109934271817956e-06,1.455138737640462518e-04,-7.186874418708005807e-01,8.687147990474125558e-03,1.455828554605995508e-04,7.187399429856419220e-01
4.560000000000000000e+09,3.379023205600417999e-06,1.443782510637914936e-04,-7.186735314009552456e-01,8.879884063721948939e-03,1.444177869172048835e-04,7.187283889462728892e-01
4.640000000000000000e+09,1.108834399542117001e-06,1.450011876238609088e-04,-7.186992302748193007e-01,9.080153450463108317e-03,1.450054272296582788e-04,7.187565879936695934e-01
4.720000000000000000e+09,2.319394526157034428e-06,1.467122336781994719e-04,-7.186541955003499238e-01,9.274974855222556033e-03,1.467305663514408150e-04,7.187140445746279527e-01
4.800000000000000000e+09,1.765416094162754212e-06,1.501032214359691256e-04,-7.186434702909890726e-01,9.477718877453416776e-03,1.501136029127310835e-04,7.187059652924802089e-01
4.880000000000000000e+09,-1.254720709157396171e-05,1.564686383080142397e-04,-7.186340840397509311e-01,9.684809542165183360e-03,1.569709118905889011e-04,7.186993406700188380e-01
4.960000000000000000e+09,7.194368790238857962e-07,1.599371307511960271e-04,-7.186226090181582205e-01,9.895417856072220159e-03,1.599387488457630537e-04,7.186907356343276154e-01
5.040000000000000000e+09,1.652727993343965762e-07,1.655790018193938464e-04,-7.186317062408251743e-01,1.011221621727988358e-02,1.655790843029548434e-04,7.187028496753192774e-01
5.120000000000000000e+09,-6.761170711261248583e-06,1.721578964173280470e-04,-7.185947451327451274e-01,1.033048953755405508e-02,1.722906112596570591e-04,7.186689966503915228e-01
5.200000000000000000e+09,1.445062452978146552e-06,1.763805877152154855e-04,-7.185751284480369483e-01,1.055616363594914960e-02,1.763865072171276753e-04,7.186526614539333613e-01
5.280000000000000000e+09,1.858481001784111615e-06,1.811936101073725392e-04,-7.185574021127764111e-01,1.078774168519539521e-02,1.812031409644339797e-04,7.186383760290907530e-01
5.360000000000000000e+09,2.327346658605602503e-06,1.854649454241994973e-04,-7.185377538188684188e-01,1.102588484770933991e-02,1.854795474538112646e-04,7.186223443504520247e-01
5.440000000000000000e+09,2.800534296954418531e-06,1.892025429687575159e-04,-7.185157938890104345e-01,1.127130493964718233e-02,1.892232682790172748e-04,7.186041945208763160e-01
5.520000000000000000e+09,3.237967720605741177e-06,1.924676521943172820e-04,-7.184910009087763783e-01,1.152482780060748620e-02,1.924948871428858762e-04,7.185834259449135342e-01
5.600000000000000000e+09,3.612929065036545703e-06,1.953471280649667649e-04,-7.184626557993138984e-01,1.178740910760363997e-02,1.953805356212831828e-04,7.185593439596158483e-01
5.680000000000000000e+09,3.911052868210192331e-06,1.979290214740613886e-04,-7.184297353616029280e-01,1.206013236077026207e-02,1.979676586622607570e-04,7.185309537134096924e-01
5.760000000000000000e+09,4.127158587052179634e-06,2.002840295899643310e-04,-7.183907510710291211e-01,1.234414539277907397e-02,2.003265482825388832e-04,7.184967982878388559e-01
5.840000000000000954e+09,4.261363395661300503e-06,2.024535620415559905e-04,-7.183435686240509099e-01,1.264044243595759467e-02,2.024984049352093990e-04,7.184547747551778274e-01
5.920000000000000000e+09,4.315680216136750345e-06,2.044432669964092015e-04,-7.182854034166833435e-01,1.294943276749303471e-02,2.044888126912888424e-04,7.184021217747531551e-01
6.000000000000000000e+09,4.291359494002608787e-06,2.062198392269182364e-04,-7.182132303313611965e-01,1.327056218051689621e-02,2.062644852054826468e-04,7.183358212170655177e-01
6.080000000000000000e+09,4.185644194483019914e-06,2.077082028174980096e-04,-7.181243459031904086e-01,1.360240504795250799e-02,2.077503721657260880e-04,7.182531598273504958e-01
6.160000000000000000e+09,3.985601831920921305e-06,2.087882568207811203e-04,-7.180166003432101318e-01,1.394305343924179784e-02,2.088262943410696749e-04,7.181519665834179555e-01
6.239999999999999046e+09,3.657042666702894481e-06,2.092912278563759240e-04,-7.178883393164229298e-01,1.429040542548222492e-02,2.093231760190341479e-04,7.180305588299958908e-01
6.320000000000000000e+09,3.127515398397262130e-06,2.089969823292027115e-04,-7.177382883159859617e-01,1.464228954829378468e-02,2.090203817221667078e-04,7.178876285032201876e-01
6.400000000000000954e+09,2.263086763717787506e-06,2.076339931320742547e-04,-7.175654659441677019e-01,1.499650568283139758e-02,2.076463259142101133e-04,7.177221559199393752e-01
6.480000000000000000e+09,8.393145934846075085e-07,2.048841548125973514e-04,-7.173691311003457249e-01,1.535083553707809051e-02,2.048858739451287771e-04,7.175333569997643934e-01
6.560000000000000000e+09,-1.492432630240516159e-06,2.003953309402142194e-04,-7.171487518234531677e-01,1.570304421090050473e-02,2.004008882659799682e-04,7.173206520374456607e-01
6.640000000000000000e+09,-8.519892238424039131e-05,2.060955447076498871e-04,-7.169039872751049591e-01,1.605087992955630052e-02,2.230117259782066512e-04,7.170836476433254392e-01
6.720000000000000000e+09,-1.111135728249763681e-05,1.847733667169503457e-04,-7.166346775449106143e-01,1.639207419199686239e-02,1.851071562867733194e-04,7.168221265810744702e-01
6.799999999999999046e+09,-2.003446735119208000e-05,1.730417819864655973e-04,-7.163408383647275057e-01,1.672434281367460307e-02,1.741976985929994336e-04,7.165360426047177045e-01
6.880000000000000000e+09,-3.318939160446880633e-05,1.584942521804084362e-04,-7.160226591993045231e-01,1.704538798529080246e-02,1.619319724121882388e-04,7.162255187707378123e-01
6.960000000000000954e+09,-5.200898306254953061e-05,1.412448656198624151e-04,-7.156805038341237379e-01,1.735290129411827878e-02,1.505159339843245775e-04,7.158908483502136599e-01
7.039999999999999046e+09,-7.816537344899592422e-05,1.217348622648028637e-04,-7.153149130727882721e-01,1.764456783947316795e-02,1.446692859492004280e-04,7.155324979611843439e-01
7.120000000000000000e+09,-1.135287793555651652e-04,1.008395586633048003e-04,-7.149266092747110779e-01,1.791807157639520656e-02,1.518466342510583534e-04,7.151511126594519707e-01
7.200000000000000000e+09,-1.600968924462090352e-04,7.999760214333302482e-05,-7.145165025546329485e-01,1.817110221412816806e-02,1.789710348621140006e-04,7.147475228208777231e-01
7.280000000000000000e+09,-2.198745432947372177e-04,6.121973867509811012e-05,-7.140856984700442167e-01,1.840136394991307572e-02,2.282381896013823839e-04,7.143227526508364456e-01
7.359999999999999046e+09,-2.947495308700057983e-04,4.737102377659992885e-05,-7.136355068988932127e-01,1.860658651663616228e-02,2.985319075772834463e-04,7.138780300363930520e-01
7.440000000000000000e+09,-3.862836184010476695e-04,4.204306740986302800e-05,-7.131674518186413847e-01,1.878453892567810354e-02,3.885648637772546807e-04,7.134147974608773257e-01
7.520000000000000000e+09,-4.955018235469837258e-04,4.967738213917504558e-05,-7.126832814582840792e-01,1.893304630785557635e-02,4.979858426045742723e-04,7.129347234583565118e-01
7.599999999999999046e+09,-6.226371839442362485e-04,7.552464026404511442e-05,-7.121849782543787644e-01,1.905001027305158745e-02,6.272009519420567152e-04,7.124397140408396112e-01
7.680000000000000000e+09,-7.668561437083692110e-04,1.255634510086022946e-04,-7.116747679157506834e-01,1.913343297831912593e-02,7.770679026780482950e-04,7.119319233925904822e-01
7.760000000000000954e+09,-9.259749531120031480e-04,2.063490671955860764e-04,-7.111551266894217127e-01,1.918144521818305678e-02,9.486883320265222103e-04,7.114137629096766169e-01
7.840000000000000000e+09,-1.096183212357357099e-03,3.247841254986361679e-04,-7.106287859525965978e-01,1.919233843361038694e-02,1.143285774961802156e-03,7.108879076753321646e-01
7.919999999999999046e+09,-1.271793761877497084e-03,4.878052688239067750e-04,-7.100987329558425820e-01,1.916460054676337108e-02,1.362135585410967744e-03,7.103572991527644653e-01
8.000000000000000000e+09,-1.445041057274211406e-03,7.019877909074076537e-04,-7.095682068076153426e-01,1.909695525335498162e-02,1.606527471222086697e-03,7.098251431247863952e-01
8.080000000000000000e+09,-1.605951529463574539e-03,9.730576217393249999e-04,-7.090406883274709138e-01,1.898840412600304520e-02,1.877743712600680147e-03,7.092949014303896460e-01
8.159999999999999046e+09,-1.742310902129981347e-03,1.305340327826431035e-03,-7.085198828394894122e-01,1.883827053914371302e-02,2.177053203560033387e-03,7.087702764759465923e-01
8.240000000000000000e+09,-1.839752649938183188e-03,1.701138689468349426e-03,-7.080096948324953177e-01,1.864624430421217560e-02,2.505706019021517340e-03,7.082551873466621517e-01
8.320000000000000954e+09,-1.881990638149111513e-03,2.160072477802966757e-03,-7.075141936929699726e-01,1.841242537025419845e-02,2.864926154622968353e-03,7.077537366097255145e-01
8.400000000000000000e+09,-1.851216012111660779e-03,2.678403578379636926e-03,-7.070375699874170694e-01,1.813736479113388714e-02,3.255894109484435469e-03,7.072701671746648433e-01
8.480000000000000000e+09,-1.728674416706862515e-03,3.248381746307975760e-03,-7.065840821061373234e-01,1.782210088018351332e-02,3.679714555332202260e-03,7.068088089190428525e-01
8.560000000000000000e+09,-1.495433749230280036e-03,3.857652769396510521e-03,-7.061579936511604982e-01,1.746818824769252529e-02,4.137367156486054451e-03,7.063740153757704920e-01
8.640000000000000000e+09,-1.133346108501036417e-03,4.488777479223739035e-03,-7.057635023976214228e-01,1.707771743711384085e-02,4.629643254035959062e-03,7.059700912570017195e-01
8.720000000000000000e+09,-6.261982269630120886e-04,5.118915888309901255e-03,-7.054046623656486936e-01,1.665332289303083843e-02,5.157075148865213239e-03,7.056012123363836208e-01
8.800000000000000000e+09,3.896557008037623338e-05,5.719735712412514494e-03,-7.050853011331701392e-01,1.619817725536211103e-02,5.719868436904714144e-03,7.052713398547039159e-01
8.880000000000000000e+09,8.703770552861882573e-04,6.257607419228638883e-03,-7.048089351249577916e-01,1.571597047153039037e-02,6.317848275445838921e-03,7.049841322752158357e-01
8.959999999999998093e+09,1.869979691663094766e-03,6.694149424050334710e-03,-7.045786861419502944e-01,1.521087281091029753e-02,6.950428803947698159e-03,7.047428577979251152e-01
9.040000000000000000e+09,3.031830107791872765e-03,6.987184550702700905e-03,-7.043972026616422966e-01,1.468748165087483196e-02,7.616609596670410008e-03,7.045503113580970922e-01
9.120000000000000000e+09,4.340551884694026155e-03,7.092162297524203136e-03,-7.042665896711450824e-01,1.415075283007521251e-02,8.314995894054587680e-03,7.044087401024230477e-01
9.200000000000000000e+09,5.769953571703523472e-03,6.964088237763239007e-03,-7.041883505457102732e-01,1.360591834560967092e-02,9.043831555428625407e-03,7.043197811067892777e-01
9.280000000000000000e+09,7.281949786938293409e-03,6.559980276131681734e-03,-7.041633441486355727e-01,1.305839308378259345e-02,9.801027187123161066e-03,7.042844147590662240e-01
9.360000000000000000e+09,8.825951463129266122e-03,5.841838595851869820e-03,-7.041917596345175223e-01,1.251367402006006192e-02,1.058416257478588494e-02,7.043029365086009852e-01
9.440000000000000000e+09,1.033891399425559618e-02,4.780070287465475014e-03,-7.042731104019035460e-01,1.197723606917631273e-02,1.139044400072817403e-02,7.043749486026803508e-01
9.520000000000000000e+09,1.174624569993920967e-02,3.357248433211607389e-03,-7.044062478003852990e-01,1.145442892017192217e-02,1.221660366409756983e-02,7.044993725207319146e-01
9.600000000000000000e+09,1.296377574565197449e-02,1.572009820200431524e-03,-7.045893937814613484e-01,1.095037928350850800e-02,1.305874023244053307e-02,7.046744813286344167e-01
9.680000000000000000e+09,1.390095183042571424e-02,-5.571923281568854280e-04,-7.048201908473888944e-01,1.046990260633494201e-02,1.391211432825265742e-02,7.048979502642462869e-01
9.760000000000000000e+09,1.444478667141940904e-02,-3.007968456949489718e-03,-7.050933774780535623e-01,9.877245980809058745e-03,1.475465134189279763e-02,7.051625564021208881e-01
9.840000000000000000e+09,1.456866218684454636e-02,-5.656184301074302506e-03,-7.054128087184003970e-01,9.596937814309092207e-03,1.562812652758203968e-02,7.054780874835122617e-01
9.920000000000000000e+09,1.413350325424330561e-02,-8.466330233389513654e-03,-7.057676485079785733e-01,9.211926511577371232e-03,1.647527425745961421e-02,7.058277645931310129e-01
1.000000000000000000e+10,1.310151370775584391e-02,-1.130168374801556082e-02,-7.061563454668440265e-01,8.865374502598163259e-03,1.730253498695128594e-02,7.062119930361988596e-01
1.008000000000000000e+10,1.144133362318680222e-02,-1.402363365936531298e-02,-7.065747723852845441e-01,8.559741258896844118e-03,1.809879598451644492e-02,7.066266186195762078e-01
1.016000000000000000e+10,9.156127828426266838e-03,-1.647910428251903384e-02,-7.070186953399730800e-01,8.296973346615072603e-03,1.885193769257205790e-02,7.070673767944269938e-01
1.024000000000000000e+10,6.289490502450223799e-03,-1.850986139222215998e-02,-7.074838463421633250e-01,8.078526295485312370e-03,1.954923680197485567e-02,7.075299678615801779e-01
1.032000000000000000e+10,2.928669642478902609e-03,-1.996419842855987753e-02,-7.079659864344132192e-01,7.905397386581691777e-03,2.017786720071499881e-02,7.080101222834964680e-01
1.040000000000000000e+10,-7.958874894688993361e-04,-2.071016063876330443e-02,-7.084609577653754320e-01,7.778166580270071996e-03,2.072544789815829180e-02,7.085036545799771046e-01
1.048000000000000000e+10,-4.715376861796271787e-03,-2.064902547486266449e-02,-7.089647241902469199e-01,7.697042843638960199e-03,2.118058148423435094e-02,7.090065053401765072e-01
1.056000000000000000e+10,-8.632079604950798624e-03,-1.972743070224809020e-02,-7.094734003810594380e-01,7.661912840372717484e-03,2.153333045346697214e-02,7.095147713449216909e-01
1.064000000000000000e+10,-1.233296192510657460e-02,-1.794643299142059667e-02,-7.099832701757158304e-01,7.672390138845550794e-03,2.177559200025749181e-02,7.100247245693956932e-01
1.072000000000000000e+10,-1.560628945868935968e-02,-1.536596470433090195e-02,-7.104907949570820058e-01,7.727862885460325126e-03,2.190135023150722657e-02,7.105328209052153010e-01
1.080000000000000000e+10,-1.825950989660749674e-02,-1.210365253055620954e-02,-7.109926134341094661e-01,7.827538606150071313e-03,2.190680502137970151e-02,7.110357000309448505e-01
1.088000000000000000e+10,-2.013629880467535452e-02,-8.327704151738151567e-03,-7.114855335875115427e-01,7.970485301591114305e-03,2.179039205682281946e-02,7.115301772519904144e-01
1.096000000000000000e+10,-2.108088833392236794e-02,-4.106951270772327481e-03,-7.119665179372106634e-01,8.155668027641747864e-03,2.147721820180171007e-02,7.120132285179915366e-01
1.104000000000000000e+10,-2.119628571461267680e-02,-8.172302818221726479e-05,-7.124326627087672614e-01,8.381980737172792240e-03,2.119644325703793145e-02,7.124819692422976747e-01
1.112000000000000191e+10,-2.035020301805955112e-02,3.929491800968324886e-03,-7.128811713775532466e-01,8.648272753325986911e-03,2.072611079508447987e-02,7.129336274340328794e-01
1.120000000000000000e+10,-1.867023211320194276e-02,7.573845135370382495e-03,-7.133093227864223396e-01,8.953369408393569914e-03,2.014797005396351884e-02,7.133655113599112196e-01
1.128000000000000000e+10,-1.628699187723902861e-02,1.066797032822724284e-02,-7.137144340441465840e-01,9.296086166611193871e-03,1.946976361780458284e-02,7.137749719491245370e-01
1.135999999999999809e+10,-1.337151698342532724e-02,1.307330160922729606e-02,-7.140938181050612288e-01,9.675234978984445164e-03,1.870049949610589832e-02,7.141593598264766030e-01
1.143999999999999809e+10,-1.012010904067466542e-02,1.470418808730035790e-02,-7.144447361873493829e-01,1.008962156971503557e-02,1.785020320057592244e-02,7.145159770986448944e-01
1.152000000000000000e+10,-6.738121713197731469e-03,1.553096909877878587e-02,-7.147643453223793131e-01,1.053803173103206800e-02,1.692965697730134875e-02,7.148420241262356534e-01
1.160000000000000000e+10,-3.424270366756811210e-03,1.557823059076869285e-02,-7.150496416400168309e-01,1.101920414191895174e-02,1.595013780140504961e-02,7.151345417957644113e-01
1.168000000000000191e+10,-3.567763666113082065e-04,1.491890654058928428e-02,-7.152974003446727069e-01,1.153178683707041519e-02,1.492317197323042577e-02,7.153903501218776828e-01
1.176000000000000000e+10,2.317708714568820268e-03,1.366516409367459634e-02,-7.155041146167666621e-01,1.207427349580113100e-02,1.386032046500518949e-02,7.156059852418610312e-01
1.184000000000000000e+10,4.491833025565172138e-03,1.195714693028308677e-02,-7.156659361346967563e-01,1.264491534557547932e-02,1.277301556571259350e-02,7.157776372782602703e-01
1.191999999999999809e+10,6.180382297977683216e-03,9.827836412162189311e-03,-7.158618124459460441e-01,1.323523030436764801e-02,1.160962936072366079e-02,7.159841519472373017e-01
1.200000000000000000e+10,7.127554493665840332e-03,7.804671930526036437e-03,-7.158374989757162465e-01,1.386171688321013486e-02,1.056952870298941659e-02,7.159716978587623570e-01
1.208000000000000000e+10,7.591146904250391583e-03,5.669856320847838776e-03,-7.158374447321618206e-01,1.450192867605675125e-02,9.474849973533538972e-03,7.159843246999170185e-01
1.216000000000000000e+10,7.550426530354433820e-03,3.678293675542550299e-03,-7.157729208917444907e-01,1.515797057528116797e-02,8.398737116603686645e-03,7.159334035745646974e-01
1.224000000000000191e+10,7.091889927950092293e-03,1.935499761083160283e-03,-7.156380601833655097e-01,1.582435091579885780e-02,7.351262617762538941e-03,7.158129946186480019e-01
1.232000000000000000e+10,6.321334684226924752e-03,5.148514695961499237e-04,-7.154268475395045845e-01,1.649403470284813156e-02,6.342266489651441838e-03,7.156169557529309388e-01
1.239999999999999809e+10,5.353655753971919319e-03,-5.451767642881593171e-04,-7.151334258791998133e-01,1.715810237504945129e-02,5.381342549620526071e-03,7.153392323134762920e-01
1.247999999999999809e+10,4.292422125428917851e-03,-1.262211349603234011e-03,-7.148223124700898712e-01,1.785096474797439464e-02,4.474155249199442824e-03,7.150451701448798936e-01
1.256000000000000000e+10,3.343283408856776839e-03,-2.059921511302614978e-03,-7.142803338992838036e-01,1.842239804984637658e-02,3.926935266166764298e-03,7.145178655185463468e-01
1.264000000000000000e+10,2.339276762470053183e-03,-1.675799973805802440e-03,-7.137149812623978518e-01,1.899288289413166020e-02,2.877589498806232271e-03,7.139676491823806481e-01
1.272000000000000000e+10,1.567106951453568027e-03,-1.539289670817395664e-03,-7.130580312357133188e-01,1.949838668981826797e-02,2.196642184785501523e-03,7.133245705800812519e-01
1.280000000000000191e+10,9.815674340823104908e-04,-1.268450158058436091e-03,-7.123154867357757158e-01,1.991872280294756589e-02,1.603882923136661564e-03,7.125939293607024272e-01
1.288000000000000000e+10,5.823225107084726085e-04,-9.382094615070887995e-04,-7.114989782884066916e-01,2.023323184641888026e-02,1.104235708596330769e-03,7.117866111247088678e-01
