# Frequency, Real(S21), Imag(S21), Real(S11), Imag(S11), Amp(S21), Amp(S11)
4.000000000000000000e+09,6.193549514966019808e-07,1.478080723119146265e-04,-7.187306017164665217e-01,7.385028325865038157e-03,1.478093699368214313e-04,7.187685416649004511e-01
4.080000000000000000e+09,1.360078901622716306e-06,1.506691935369216812e-04,-7.187247579450986024e-01,7.557396919027870377e-03,1.506753320742482973e-04,7.187644898932001869e-01
4.160000000000000477e+09,2.655263133711523138e-06,1.515616843707603468e-04,-7.187451573144874040e-01,7.730452448031117051e-03,1.515849418366192107e-04,7.187867284932843992e-01
4.240000000000000000e+09,2.182183577387107267e-06,1.507735779445771120e-04,-7.187147279540434530e-01,7.908823336033148077e-03,1.507893687611128956e-04,7.187582414585694801e-01
4.320000000000000000e+09,3.095432415748867331e-06,1.489099498246929305e-04,-7.187080485787372686e-01,8.087942551705746067e-03,1.489421191558420109e-04,7.187535557523011542e-01
4.400000000000000000e+09,3.588949569800580586e-06,1.466871433820626249e-04,-7.187176900645830813e-01,8.270197593863083674e-03,1.467310416803628169e-04,7.187652705717016977e-01
4.480000000000000000e+09,3.087421639877196331e-06,1.449677188093657855e-04,-7.187099314397887850e-01,8.453227980881076672e-03,1.450005919614596962e-04,7.187596417534046767e-01
4.560000000000000000e+09,3.126055591018392019e-06,1.442087631263692785e-04,-7.187003160890792497e-01,8.639360225145296945e-03,1.442426413582177202e-04,7.187522402689554557e-01
4.640000000000000000e+09,3.880238298151273668e-06,1.447708535052689407e-04,-7.186895153006247483e-01,8.829180764972195672e-03,1.448228444476025456e-04,7.187437469891667652e-01
4.720000000000000000e+09,2.501167366810063635e-06,1.467846251910381091e-04,-7.186632365844494164e-01,9.022502971199745578e-03,1.468059332270679578e-04,7.187198711444547916e-01
4.800000000000000000e+09,-2.195836209150436866e-05,1.524956376197343785e-04,-7.186733607953812442e-01,9.218251654641811468e-03,1.540684560797276302e-04,7.187324785206916644e-01
4.880000000000000000e+09,-2.273954079170799163e-05,1.571466500690317698e-04,-7.186943291796007438e-01,9.422563666023850773e-03,1.587833629299256017e-04,7.187560945835218540e-01
4.960000000000000000e+09,-1.661136826748823157e-05,1.618989917574076439e-04,-7.186124776791475988e-01,9.623834216051733309e-03,1.627489511111615843e-04,7.186769171617949370e-01
5.040000000000000000e+09,-1.184539897635673619e-05,1.666999756276085927e-04,-7.185984583802598191e-01,9.832059926299747607e-03,1.671203020316633370e-04,7.186657176941727565e-01
5.120000000000000000e+09,1.723290593087638424e-06,1.702377142013698959e-04,-7.186031794371062764e-01,1.004375686755178999e-02,1.702464362827472706e-04,7.186733656878709908e-01
5.200000000000000000e+09,2.026203958433320387e-06,1.752993448934037839e-04,-7.185877900489741066e-01,1.026189658750199449e-02,1.753110544789965525e-04,7.186610595607926255e-01
5.280000000000000000e+09,2.422565096381452730e-06,1.799187980429815998e-04,-7.185708354040186707e-01,1.048573618849314888e-02,1.799351069438018410e-04,7.186473378206058582e-01
5.360000000000000000e+09,-5.488262010969343317e-05,1.896028088737668812e-04,-7.185520248010138777e-01,1.071587061133317392e-02,1.973862384335014824e-04,7.186319240255025775e-01
5.440000000000000000e+09,3.307387234350328536e-06,1.876257250447554558e-04,-7.185309788830228639e-01,1.095298805840604593e-02,1.876548733949857180e-04,7.186144554362948744e-01
5.520000000000000000e+09,3.717465798532078363e-06,1.907727567618730784e-04,-7.185071893443478741e-01,1.119788771611771733e-02,1.908089732546350802e-04,7.185944432214997901e-01
5.600000000000000000e+09,4.071250974644080170e-06,1.935467970345032909e-04,-7.184799541953781343e-01,1.145149497942341173e-02,1.935896116190477588e-04,7.185712082444275506e-01
5.680000000000000000e+09,4.355819581265586822e-06,1.960291289043869371e-04,-7.184482731441086401e-01,1.171485909467593137e-02,1.960775166693960552e-04,7.185437767508392470e-01
5.760000000000000000e+09,4.565824928397972693e-06,1.982850048058721205e-04,-7.184106891941764994e-01,1.198908998322806632e-02,1.983375654991799896e-04,7.185107213028053552e-01
5.840000000000000954e+09,4.700238942115523786e-06,2.003520677195739488e-04,-7.183651117109740580e-01,1.227514256574199769e-02,2.004071936972865299e-04,7.184699804783284405e-01
5.920000000000000000e+09,4.759549283979228604e-06,2.022339576809241326e-04,-7.183088140979070335e-01,1.257339069477184101e-02,2.022899576070854796e-04,7.184188489762117769e-01
6.000000000000000000e+09,4.743614674569961130e-06,2.038969065568199701e-04,-7.182388412833268232e-01,1.288325493340307035e-02,2.039520786450125145e-04,7.183543772997385002e-01
6.080000000000000000e+09,4.648767337407498933e-06,2.052668556426524979e-04,-7.181525665494522537e-01,1.320329701328954754e-02,2.053194902175116887e-04,7.182739281733582226e-01
6.160000000000000000e+09,4.461844359743634655e-06,2.062259143226793478e-04,-7.180479197971287864e-01,1.353160800912399722e-02,2.062741762638155795e-04,7.181754100080957048e-01
6.239999999999999046e+09,4.149251424217813885e-06,2.066086692161266851e-04,-7.179233280541051920e-01,1.386609549021920046e-02,2.066503290165303105e-04,7.180572216532790097e-01
6.320000000000000000e+09,3.640165967038732486e-06,2.061994616009258676e-04,-7.177775985714488494e-01,1.420460771316716872e-02,2.062315901426822783e-04,7.179181373187899506e-01
6.400000000000000954e+09,2.803618165010038474e-06,2.047324150682110341e-04,-7.176098316181184211e-01,1.454497441643930189e-02,2.047516106273096265e-04,7.177572198980370910e-01
6.480000000000000000e+09,1.420071185771534512e-06,2.018962498141393383e-04,-7.174193664092340939e-01,1.488501741991670249e-02,2.019012439069804590e-04,7.175737669693743603e-01
6.560000000000000000e+09,-8.514769578807655824e-07,1.973468552224545583e-04,-7.172057489118226492e-01,1.522255209146543969e-02,1.973486921142429196e-04,7.173672785709881428e-01
6.640000000000000000e+09,-4.508484241636364015e-06,1.907300538916907096e-04,-7.169687127277386551e-01,1.555538692156180867e-02,1.907833323109865416e-04,7.171374380777719715e-01
6.720000000000000000e+09,-1.023897110602468819e-05,1.817174792552508499e-04,-7.167081678692851510e-01,1.588132334893333636e-02,1.820057108889513325e-04,7.168841010385575974e-01
6.799999999999999046e+09,-1.895081591846939795e-05,1.700573130109058113e-04,-7.164241945165060743e-01,1.619815640773168350e-02,1.711099737959915340e-04,7.166072890779396909e-01
6.880000000000000000e+09,-3.179144498572427442e-05,1.556408084622662295e-04,-7.161170402106993294e-01,1.650367626285785538e-02,1.588545159353934688e-04,7.163071873228143982e-01
6.960000000000000954e+09,-5.015268627601187951e-05,1.385839554931409456e-04,-7.157871196560807725e-01,1.679567068975554647e-02,1.473797973292979629e-04,7.159841445307760788e-01
7.039999999999999046e+09,-7.565522410133909562e-05,1.193218379131379407e-04,-7.154350166869916094e-01,1.707192854959817957e-02,1.412848680389835858e-04,7.156386754824801688e-01
7.120000000000000000e+09,-1.101072306527841119e-04,9.871150033099557143e-05,-7.150614881371533116e-01,1.733024451508744304e-02,1.478768492348330279e-04,7.152714653835094971e-01
7.200000000000000000e+09,-1.554322691415174480e-04,7.813694363372833819e-05,-7.146674694273456030e-01,1.756842525846565722e-02,1.739671585412073127e-04,7.148833760997301834e-01
7.280000000000000000e+09,-2.135627664341894290e-04,5.960850909912467598e-05,-7.142540816558463623e-01,1.778429751142141663e-02,2.217255726434020800e-04,7.144754540220477068e-01
7.359999999999999046e+09,-2.822081969188284037e-04,3.874820892226237294e-05,-7.137664904110859743e-01,1.804814587010813640e-02,2.848559111250098942e-04,7.139946347159112916e-01
7.440000000000000000e+09,-3.751179967075375828e-04,4.034343622684184293e-05,-7.133746623909023032e-01,1.814058837498372379e-02,3.772812005659245812e-04,7.136052759669903045e-01
7.520000000000000000e+09,-4.809822340685583966e-04,4.737956505884493782e-05,-7.129118800781474308e-01,1.827686734098782698e-02,4.833101826723153497e-04,7.131461229203723828e-01
7.599999999999999046e+09,-6.040750064953469365e-04,7.200482635981810854e-05,-7.124362459444669726e-01,1.838259407624742020e-02,6.083513035175160556e-04,7.126733643826020925e-01
7.680000000000000000e+09,-7.435503488292438592e-04,1.199527772296384975e-04,-7.119499434169783703e-01,1.845590937309017979e-02,7.531638533607368366e-04,7.121891199128406180e-01
7.760000000000000954e+09,-8.972624957325509455e-04,1.974916705838303504e-04,-7.114553929751246120e-01,1.849508308593818262e-02,9.187398686234303589e-04,7.116957526160633263e-01
7.840000000000000000e+09,-1.061506294007387918e-03,3.112005423180279708e-04,-7.109552560437443214e-01,1.849854493686612852e-02,1.106183253243482123e-03,7.111958747497115763e-01
7.919999999999999046e+09,-1.230784717251018736e-03,4.676664447451380066e-04,-7.104524351102331492e-01,1.846491904017998412e-02,1.316640772480947913e-03,7.106923496065090662e-01
8.000000000000000000e+09,-1.397624366341047430e-03,6.731013545245276329e-04,-7.099500690592825958e-01,1.839306167963116259e-02,1.551263776039706228e-03,7.101882886074867285e-01
8.080000000000000000e+09,-1.552461280689527382e-03,9.328817717077818664e-04,-7.094515225011253090e-01,1.828210169883232386e-02,1.811188678195846521e-03,7.096870423092781488e-01
8.159999999999999046e+09,-1.683620068187140217e-03,1.251018862006702571e-03,-7.089603681544069946e-01,1.813148256758440394e-02,2.097528242264932053e-03,7.091921843010756676e-01
8.240000000000000000e+09,-1.777409008447974718e-03,1.629572816752959024e-03,-7.084803612411829654e-01,1.794100497829723140e-02,2.411366904561017960e-03,7.087074868548154383e-01
8.320000000000000954e+09,-1.818352062924430065e-03,2.068031177239805854e-03,-7.080154053604180708e-01,1.771086791777536085e-02,2.753753288654847264e-03,7.082368876795941404e-01
8.400000000000000000e+09,-1.789576087947656723e-03,2.562677637788864874e-03,-7.075695089470700472e-01,1.744170758435389240e-02,3.125683805150027573e-03,7.077844468163000391e-01
8.480000000000000000e+09,-1.673367359330868703e-03,3.105984211933891445e-03,-7.071467325166651552e-01,1.713463098268892121e-02,3.528072596199879982e-03,7.073542937509526007e-01
8.560000000000000000e+09,-1.451906181759103631e-03,3.686065836750641953e-03,-7.067511276471430959e-01,1.679124163766832975e-02,3.961705808548952878e-03,7.069505656170329555e-01
8.640000000000000000e+09,-1.108181972673481222e-03,4.286243870813966420e-03,-7.063866671670330222e-01,1.641365710930040023e-02,4.427183506999544244e-03,7.065773359590939995e-01
8.720000000000000000e+09,-6.270823012651308408e-04,4.884768263323574153e-03,-7.060571694543152921e-01,1.600451424129992542e-02,4.924854637340393346e-03,7.062385369079908770e-01
8.800000000000000000e+09,3.359997765873455567e-06,5.454753191031776888e-03,-7.057662189176332479e-01,1.556696084676305845e-02,5.454754225870890594e-03,7.059378768951962702e-01
8.880000000000000000e+09,7.905903465511740199e-04,5.964385210281471922e-03,-7.055170844630714866e-01,1.510463295947994146e-02,6.016554166022629151e-03,7.056787558132335825e-01
8.959999999999998093e+09,1.736069882099096047e-03,6.377461351110514862e-03,-7.053126400392499828e-01,1.462161623299544806e-02,6.609534924670564318e-03,7.054641818408654563e-01
9.040000000000000000e+09,2.833788137423300449e-03,6.654313723430640287e-03,-7.051552904247083697e-01,1.412239181277564169e-02,7.232582273133045248e-03,7.052966932890500917e-01
9.120000000000000000e+09,4.068832388618015029e-03,6.753170212309282314e-03,-7.050469059062444144e-01,1.361176758782710848e-02,7.884206042658220212e-03,7.051782893317360967e-01
9.200000000000000000e+09,5.416120890858915245e-03,6.631987837036614278e-03,-7.049887691842288140e-01,1.309479662190589713e-02,8.562571352987369960e-03,7.051103731859735824e-01
9.280000000000000000e+09,6.839428140755899818e-03,6.250775356196556706e-03,-7.049815375751422586e-01,1.257668562768711647e-02,9.265525880714914342e-03,7.050937110364758897e-01
9.360000000000000000e+09,8.290860428983030245e-03,5.574389277585183045e-03,-7.050252225967305053e-01,1.206269687251743626e-02,9.990604709972931291e-03,7.051284089819439549e-01
9.440000000000000000e+09,9.710956264204434127e-03,4.575744817426543633e-03,-7.051191884016159150e-01,1.155804768019313630e-02,1.073499474613272449e-02,7.052139096177351130e-01
9.520000000000000000e+09,1.106971580624797891e-02,2.885478344299977765e-03,-7.052621691780420754e-01,1.106781182930626981e-02,1.143960634403651429e-02,7.053490084578032393e-01
9.600000000000000000e+09,1.216793250092225095e-02,1.564802148284192337e-03,-7.054523046682642518e-01,1.059682696280407448e-02,1.226813706763479547e-02,7.055318893596838059e-01
9.680000000000000000e+09,1.304141106624998395e-02,-4.295042768660694990e-04,-7.056871919817269134e-01,1.014961212402616837e-02,1.304848177079440119e-02,7.057601770809421859e-01
9.760000000000000000e+09,1.356411406302768935e-02,-2.703677864708003802e-03,-7.059639506658706987e-01,9.730298476204383290e-03,1.383094589357277381e-02,7.060310038151298428e-01
9.840000000000000000e+09,1.365427560715793028e-02,-5.194207261414575047e-03,-7.062792977119001225e-01,9.342575572369804862e-03,1.460886824606067759e-02,7.063410862287002878e-01
9.920000000000000000e+09,1.324089296809720720e-02,-7.813417403509215209e-03,-7.066296284347670653e-01,8.989654610408554999e-03,1.537435325839974117e-02,7.066868087575085555e-01
1.000000000000000000e+10,1.227105722613792277e-02,-1.045081835033797799e-02,-7.070110993025844337e-01,8.674248831494646428e-03,1.611826447353786190e-02,7.070643090482220394e-01
1.008000000000000000e+10,1.071744304281450726e-02,-1.297678598171721556e-02,-7.074197088407360168e-01,8.398570418902344403e-03,1.683034639546273845e-02,7.074695614946221456e-01
1.016000000000000000e+10,8.665014502944629049e-03,-1.525659238519153083e-02,-7.078513733230233917e-01,8.164342272122402516e-03,1.754554323878645267e-02,7.078984554298918264e-01
1.024000000000000000e+10,5.917169122379755536e-03,-1.712036168569826267e-02,-7.083019945147450702e-01,7.972822399767804866e-03,1.811407393912174354e-02,7.083468651237077029e-01
1.032000000000000000e+10,2.796825696424765258e-03,-1.845175054518378641e-02,-7.087675175283670859e-01,7.824838220259139679e-03,1.866251141079013423e-02,7.088107095667343094e-01
1.040000000000000000e+10,-6.526373778884680954e-04,-1.912254850323626132e-02,-7.092439776803338702e-01,7.720827937874799075e-03,1.913368225945127551e-02,7.092860008909439573e-01
1.048000000000000000e+10,-4.273035926413313798e-03,-1.904396938544920814e-02,-7.097275360316389614e-01,7.660886158992722197e-03,1.951746925147688355e-02,7.097688811002370590e-01
1.056000000000000000e+10,-7.880285551152934817e-03,-1.816993247173116083e-02,-7.102145037918184967e-01,7.644811212770632330e-03,1.980518483617308215e-02,7.102556473092894729e-01
1.064000000000000000e+10,-1.127725824794410109e-02,-1.650514412899341254e-02,-7.107013564580851872e-01,7.672152058071531749e-03,1.998990586045039375e-02,7.107427663990428801e-01
1.072000000000000000e+10,-1.426931189468288660e-02,-1.410881754528064275e-02,-7.111847386690529627e-01,7.742253056596848891e-03,2.006668867735176068e-02,7.112268801150315456e-01
1.080000000000000000e+10,-1.668083620401834485e-02,-1.109312205780350197e-02,-7.116614609339806385e-01,7.854295576736178633e-03,2.003266466186202910e-02,7.117048018228444572e-01
1.088000000000000000e+10,-1.837085169956309896e-02,-7.616156745755419885e-03,-7.121284892834341962e-01,8.007335406835257297e-03,1.988703184850007175e-02,7.121735060148079999e-01
1.096000000000000000e+10,-1.924571932443643052e-02,-3.870037588369713843e-03,-7.125829287298375281e-01,8.200335672382718516e-03,1.963096796519163759e-02,7.126301115040905021e-01
1.104000000000000000e+10,-1.926738035373014996e-02,-6.540812361420186329e-05,-7.130220010754617643e-01,8.432194712444815443e-03,1.926749137583668933e-02,7.130718588791205015e-01
1.112000000000000191e+10,-1.845617725959614042e-02,3.585817789336732085e-03,-7.134430175071606595e-01,8.701768553500834058e-03,1.880129166456277062e-02,7.134960826841879600e-01
1.120000000000000000e+10,-1.688807095880619225e-02,6.887489364646035700e-03,-7.138433460594800772e-01,9.007887287505473434e-03,1.823854299163684203e-02,7.139001784190692756e-01
1.128000000000000000e+10,-1.468681089547616871e-02,9.674181006256554749e-03,-7.142203740764426767e-01,9.349364552976600906e-03,1.758670499045493496e-02,7.142815644852092971e-01
1.135999999999999809e+10,-1.201220171715369073e-02,1.182264586108658366e-02,-7.145714656853847657e-01,9.724998746038708564e-03,1.685431533021314321e-02,7.146376390677792179e-01
1.143999999999999809e+10,-9.045940590973442635e-03,1.325888204273413182e-02,-7.148939145139426854e-01,1.013356423056239498e-02,1.605076304100707188e-02,7.149657321390189280e-01
1.152000000000000000e+10,-5.976621961418125337e-03,1.396053624906941695e-02,-7.151848922071329939e-01,1.057379101382596200e-02,1.518606540323353890e-02,7.152630530774901629e-01
1.160000000000000000e+10,-2.985344528291703804e-03,1.395488553713982241e-02,-7.154413935925555412e-01,1.104432847025411946e-02,1.427063811843308667e-02,7.155266346244679720e-01
1.168000000000000191e+10,-2.331173855298135020e-04,1.331304316304045970e-02,-7.156601803547197882e-01,1.154369204034486757e-02,1.331508400185348398e-02,7.157532749287790486e-01
1.176000000000000000e+10,2.149095148868886574e-03,1.214127555030409047e-02,-7.158377259759102218e-01,1.207018748318846278e-02,1.233001143338089897e-02,7.159394802329605012e-01
1.184000000000000000e+10,4.067193605439953577e-03,1.057042270872144904e-02,-7.159701662080125706e-01,1.262180810408529766e-02,1.132589511099170269e-02,7.160814122289067551e-01
1.191999999999999809e+10,5.467445437550594312e-03,8.744411609948994635e-03,-7.160532617730201999e-01,1.319610173048235170e-02,1.031298666811916211e-02,7.161748465260857621e-01
1.200000000000000000e+10,6.336742340933454454e-03,6.808773449738766796e-03,-7.160823829486397951e-01,1.379000059478285509e-02,9.301274073224933062e-03,7.162151515332572105e-01
1.208000000000000000e+10,6.679184449717972399e-03,4.773654180291352599e-03,-7.161523846726205456e-01,1.427443950936961060e-02,8.209706398304842875e-03,7.162946305086949073e-01
1.216000000000000000e+10,6.614266174260058362e-03,3.136107936214169081e-03,-7.159584071103478609e-01,1.501996999642892308e-02,7.320088115012433373e-03,7.161159404807857509e-01
1.224000000000000191e+10,6.162571048772175902e-03,1.609819103645029805e-03,-7.157945782659025369e-01,1.564474862732561158e-02,6.369364134481987801e-03,7.159655274065039876e-01
1.232000000000000000e+10,5.443895059506840238e-03,3.832950865637002949e-04,-7.155557293533030272e-01,1.626595934690122994e-02,5.457371944654941867e-03,7.157405837618909805e-01
1.239999999999999809e+10,4.564111978157716319e-03,-5.138223755645049927e-04,-7.152370758641219961e-01,1.687365229837871003e-02,4.592943672939337439e-03,7.154360871751902495e-01
1.247999999999999809e+10,3.626103430290785953e-03,-1.083795791398108315e-03,-7.148349478088311670e-01,1.745569803062892167e-02,3.784605581116591826e-03,7.150480431429701023e-01
1.256000000000000000e+10,2.720651417745508036e-03,-1.357290071763921557e-03,-7.143475600876286746e-01,1.799766869875586706e-02,3.040424390737180363e-03,7.145742457447920026e-01
1.264000000000000000e+10,1.918858981737184017e-03,-1.387248581612942483e-03,-7.137759734690273250e-01,1.848302622467967032e-02,2.367800333427753923e-03,7.140152397253715089e-01
1.272000000000000000e+10,1.266927348703804053e-03,-1.240594600875200753e-03,-7.131251589820960524e-01,1.889364703040450483e-02,1.773183541152564607e-03,7.133754006631777278e-01
1.280000000000000191e+10,7.840822659436463013e-04,-9.885878466173829426e-04,-7.124050279698294075e-01,1.921086379912003567e-02,1.261780856665259886e-03,7.126640029948206889e-01
1.288000000000000000e+10,4.641597400690024040e-04,-6.970321185644998965e-04,-7.116311821963262618e-01,1.941706854510787811e-02,8.374353936940084724e-04,7.118960331572485867e-01
