# Frequency, Real(S21), Imag(S21), Real(S11), Imag(S11), Amp(S21), Amp(S11)
4.000000000000000000e+09,3.909104315452352252e-05,1.406800123567674798e-04,-7.188197483035446700e-01,6.808766948503095461e-03,1.460101898211527941e-04,7.188519944039457599e-01
4.080000000000000000e+09,2.674984456113107693e-05,1.441298897085178802e-04,-7.188152745005436106e-01,6.964873671448709030e-03,1.465911978647906392e-04,7.188490163591733095e-01
4.160000000000000477e+09,2.071504305534638130e-06,1.464674377044935865e-04,-7.187532184095024590e-01,7.119460629783459088e-03,1.464820857231612333e-04,7.187884777134905256e-01
4.240000000000000000e+09,1.127929331256345652e-06,1.459953595879521073e-04,-7.187032295283757311e-01,7.277951572865344956e-03,1.459997165949021602e-04,7.187400786888220594e-01
4.320000000000000000e+09,3.519487565861966594e-06,1.446468962250615142e-04,-7.187263024575818449e-01,7.440681151165573319e-03,1.446897072367968058e-04,7.187648165988237414e-01
4.400000000000000000e+09,3.750746392924154537e-06,1.429571566954810063e-04,-7.187201320929965664e-01,7.604881405324065077e-03,1.430063521280098215e-04,7.187603651405407579e-01
4.480000000000000000e+09,2.986937312165357069e-05,1.418946312376190538e-04,-7.187283439476453983e-01,7.772543637289289729e-03,1.450043648472019661e-04,7.187703700266994122e-01
4.560000000000000000e+09,3.806788528598633353e-06,1.410333843952588854e-04,-7.187065538938615106e-01,7.939928051552944815e-03,1.410847516667989329e-04,7.187504108294157090e-01
4.640000000000000000e+09,3.689375852284007455e-06,1.416341520155197124e-04,-7.186990582706687114e-01,8.111071447885835270e-03,1.416821954634200431e-04,7.187448266521149209e-01
4.720000000000000000e+09,3.478188946572874992e-06,1.435355696756570709e-04,-7.187044813839008617e-01,8.286263284161233048e-03,1.435777056525958833e-04,7.187522478020617056e-01
4.800000000000000000e+09,3.411962866859742976e-06,1.465373377666815910e-04,-7.186823786228498934e-01,8.461517695877012260e-03,1.465770543105275950e-04,7.187321883877992867e-01
4.880000000000000000e+09,3.386985522557474448e-06,1.505682577311191739e-04,-7.186848569375464679e-01,8.642703601851355055e-03,1.506063474994156506e-04,7.187368224300819675e-01
4.960000000000000000e+09,3.883328409165200837e-06,1.551173435124665991e-04,-7.186430012230754505e-01,8.825021312283349087e-03,1.551659450327229437e-04,7.186971853347356998e-01
5.040000000000000000e+09,3.523932046737315751e-06,1.600170518580864654e-04,-7.186519830280465593e-01,9.011189857537052830e-03,1.600558495726524743e-04,7.187084765416310583e-01
5.120000000000000000e+09,3.764168968436718731e-06,1.648760655939602747e-04,-7.186399934936625877e-01,9.202017728105161068e-03,1.649190285375427150e-04,7.186989059257289369e-01
5.200000000000000000e+09,4.084440603255174845e-06,1.694644784446347702e-04,-7.186268261830304205e-01,9.397274200225855592e-03,1.695136929854151875e-04,7.186882662686858714e-01
5.280000000000000000e+09,4.456907257289541286e-06,1.736268737323943179e-04,-7.186122743970179139e-01,9.597418229086464997e-03,1.736840675029948787e-04,7.186763606455405240e-01
5.360000000000000000e+09,4.851636017151589202e-06,1.772929423123866042e-04,-7.185960731568780124e-01,9.802979403173763331e-03,1.773593125996663473e-04,7.186629354305565931e-01
5.440000000000000000e+09,5.241311664576322138e-06,1.804632593868635878e-04,-7.185778749743075844e-01,1.001457231017135671e-02,1.805393567521930409e-04,7.186476564083036367e-01
5.520000000000000000e+09,5.604106801402819067e-06,1.831872953936966922e-04,-7.185572118501016847e-01,1.023291259181638435e-02,1.832729963925373829e-04,7.186300711784218143e-01
5.600000000000000000e+09,5.924604365053015420e-06,1.855391437899597839e-04,-7.185334340431623890e-01,1.045883038817153193e-02,1.856337114190032597e-04,7.186095483438471598e-01
5.680000000000000000e+09,6.193075562311442282e-06,1.875953536861743511e-04,-7.185056109124445811e-01,1.069326661119477002e-02,1.876975516877120768e-04,7.185851785720905882e-01
5.760000000000000000e+09,6.403823145531711372e-06,1.894176661058721671e-04,-7.184723807890194269e-01,1.093721030653215485e-02,1.895258852607604072e-04,7.185556238217964964e-01
5.840000000000000954e+09,6.553342902676575602e-06,1.910416528974110512e-04,-7.184317847582442074e-01,1.119148884987579765e-02,1.911540202166173272e-04,7.185189480964249142e-01
5.920000000000000000e+09,6.638995634366599594e-06,1.924705188117698093e-04,-7.183812720882214453e-01,1.145635664895225565e-02,1.925849861092628881e-04,7.184726161759814600e-01
6.000000000000000000e+09,6.658013042615826957e-06,1.936719473749678858e-04,-7.183181034354009231e-01,1.173114156457276402e-02,1.937863574601885559e-04,7.184138900421116469e-01
6.080000000000000000e+09,6.605403020003994446e-06,1.945755817806949081e-04,-7.182398937819345353e-01,1.201434908212500180e-02,1.946876687783604103e-04,7.183403716928011828e-01
6.160000000000000000e+09,6.468541043081553924e-06,1.950699774425902441e-04,-7.181448293749471690e-01,1.230405047033436734e-02,1.951771967282005347e-04,7.182502249327518129e-01
6.239999999999999046e+09,6.216716043043950829e-06,1.949995054696289430e-04,-7.180316022436626922e-01,1.259816817646643335e-02,1.950985768573407252e-04,7.181421138340265964e-01
6.320000000000000000e+09,5.785068232537393971e-06,1.941621189102935062e-04,-7.178992893210780490e-01,1.289459932808901914e-02,1.942482829632994940e-04,7.180150836156166116e-01
6.400000000000000954e+09,5.052984566476997148e-06,1.923099941625053483e-04,-7.177472615692430669e-01,1.319125640795691320e-02,1.923763668120694503e-04,7.178684703591374783e-01
6.480000000000000000e+09,3.817661032304205939e-06,1.891546775209943031e-04,-7.175751263080456521e-01,1.348607761199961674e-02,1.891931990422195987e-04,7.177018435153726950e-01
6.560000000000000000e+09,1.764209552673640124e-06,1.843796192628243194e-04,-7.173826915436208873e-01,1.377702785639857430e-02,1.843880593608214177e-04,7.175149703127635670e-01
6.640000000000000000e+09,-1.565537074585762354e-06,1.776620779410177154e-04,-7.171699436083833756e-01,1.406209758122934673e-02,1.776689754702608754e-04,7.173077934914939835e-01
6.720000000000000000e+09,-6.802558071805002264e-06,1.687069950535218866e-04,-7.169370329369552097e-01,1.433930157533130391e-02,1.688440848129105719e-04,7.170804172239770846e-01
6.799999999999999046e+09,-1.477485112285094044e-05,1.572942967669124380e-04,-7.166842651073856985e-01,1.460667842624883452e-02,1.579866830498695288e-04,7.168330983619278785e-01
6.880000000000000000e+09,-2.652205869720599177e-05,1.433395768604874693e-04,-7.164120955503323618e-01,1.486229077365836850e-02,1.457726102259324877e-04,7.165662414165624439e-01
6.960000000000000954e+09,-4.329585762081030386e-05,1.269675074796139066e-04,-7.161211270744088919e-01,1.510422641851421471e-02,1.341464842726311914e-04,7.162803964216970520e-01
7.039999999999999046e+09,-6.654136612895998008e-05,1.085951488494048066e-04,-7.158121096837108954e-01,1.533060045905968415e-02,1.273603539565303186e-04,7.159762591596737780e-01
7.120000000000000000e+09,-9.785509787210526760e-05,8.902088825414081164e-05,-7.154859423614766678e-01,1.553955864069114269e-02,1.322888458076323384e-04,7.156546734282098754e-01
7.200000000000000000e+09,-1.389156650151046504e-04,6.951308389938491337e-05,-7.151436765347360947e-01,1.572928223820683688e-02,1.553371520911584543e-04,7.153166350696371634e-01
7.280000000000000000e+09,-1.913846185457722285e-04,5.189118818654182472e-05,-7.147865209381979446e-01,1.589799477518080706e-02,1.982946485090352460e-04,7.149632974865244295e-01
7.359999999999999046e+09,-2.510700658475771671e-04,2.958217947572725111e-05,-7.143497239581378944e-01,1.614291397610976425e-02,2.528068102469568815e-04,7.145320999022422015e-01
7.440000000000000000e+09,-3.362982238013506727e-04,3.270466271731233302e-05,-7.140331978934849610e-01,1.616554811787949963e-02,3.378847293018678584e-04,7.142161666050048652e-01
7.520000000000000000e+09,-4.306639204389559224e-04,3.798765901965239430e-05,-7.136402900505787184e-01,1.626114058136476567e-02,4.323360667416549703e-04,7.138255306981399206e-01
7.599999999999999046e+09,-5.398866912660698313e-04,5.882163217232525519e-05,-7.132390243129698160e-01,1.632925702734577475e-02,5.430815995940581602e-04,7.134259249830933181e-01
7.680000000000000000e+09,-7.158546210274583342e-04,-3.006179418895161279e-04,-7.128314882126539631e-01,1.636852113336461842e-02,7.764141842034150099e-04,7.130193959995481112e-01
7.760000000000000954e+09,-7.981415668627952435e-04,1.672192165619987205e-04,-7.124199592607844966e-01,1.637769545695287252e-02,8.154705556559393347e-04,7.126081863560216334e-01
7.840000000000000000e+09,-9.417421252344477817e-04,2.655991595213757529e-04,-7.120069048594257488e-01,1.635570840221347091e-02,9.784789951652287255e-04,7.121947358446547582e-01
7.919999999999999046e+09,-1.088955598654546900e-03,4.006839613959066633e-04,-7.115949783837330900e-01,1.630168397970063396e-02,1.160332681932642546e-03,7.117816787200409445e-01
8.000000000000000000e+09,-1.233227476649732639e-03,5.774706421424005177e-04,-7.111870106056026319e-01,1.621497386966050044e-02,1.361735051946678498e-03,7.113718362654845029e-01
8.080000000000000000e+09,-1.366291969673914895e-03,8.001423024760210070e-04,-7.107859955015775055e-01,1.609519097056811773e-02,1.583345019446820998e-03,7.109682036304770802e-01
8.159999999999999046e+09,-1.478192164833873898e-03,1.071623936869181256e-03,-7.103950697314371787e-01,1.594224350517797414e-02,1.825768314504131471e-03,7.105739301625917381e-01
8.240000000000000000e+09,-1.557400880829000901e-03,1.393101733770065213e-03,-7.100174851035788715e-01,1.575636843835862347e-02,2.089552570346127694e-03,7.101922924808296012e-01
8.320000000000000954e+09,-1.591057561803051884e-03,1.763524304164996396e-03,-7.096565736374209621e-01,1.553816274430482557e-02,2.375180442903508313e-03,7.098266598320133181e-01
8.400000000000000000e+09,-1.565333501544561873e-03,2.179109491828058135e-03,-7.093157051047456196e-01,1.528861087850884835e-02,2.683055561935477045e-03,7.094804515494679276e-01
8.480000000000000000e+09,-1.465933771334691424e-03,2.632885319517980389e-03,-7.089982372953861356e-01,1.500910664515046206e-02,3.013477547232241809e-03,7.091570868081699119e-01
8.560000000000000000e+09,-1.278739154286872215e-03,3.114298377266064462e-03,-7.087074597142316579e-01,1.470146765336340783e-02,3.366604848708613408e-03,7.088599273521970501e-01
8.640000000000000000e+09,-9.905853482359307498e-04,3.608926722062961653e-03,-7.084465318999842998e-01,1.436794054538240335e-02,3.742407168836631853e-03,7.085922143776567372e-01
8.720000000000000000e+09,-5.901692169089155053e-04,4.098340052243507059e-03,-7.082184180273137786e-01,1.401119546038530339e-02,4.140614795946393790e-03,7.083570012580804320e-01
8.800000000000000000e+09,-6.906371281995796630e-05,4.560144047080288802e-03,-7.080258199526444640e-01,1.363430842174989145e-02,4.560667004567454073e-03,7.081570843292849249e-01
8.880000000000000000e+09,5.771883496774132902e-04,4.968262539093260682e-03,-7.078711112799911387e-01,1.324073099671617404e-02,5.001677623394049435e-03,7.079949344042633097e-01
8.959999999999998093e+09,1.347942257463900220e-03,5.293490037004877982e-03,-7.077562752723117745e-01,1.283424700536547891e-02,5.462415683681239205e-03,7.078726319639226938e-01
9.040000000000000000e+09,2.236336930432020718e-03,5.504358569241064002e-03,-7.076828495612820236e-01,1.241891698256159665e-02,5.941310135415558968e-03,7.077918091234144393e-01
9.120000000000000000e+09,3.228269299177281230e-03,5.568346850991236739e-03,-7.076518805389715450e-01,1.199901166756968222e-02,6.436474914186692681e-03,7.077536014117775665e-01
9.200000000000000000e+09,4.301546198728283671e-03,5.453449781309377409e-03,-7.076638899344687150e-01,1.157893673696995356e-02,6.945747923518175507e-03,7.077586120232960409e-01
9.280000000000000000e+09,5.425319808596470658e-03,5.130103425440563428e-03,-7.077188556010356457e-01,1.116315152305607898e-02,7.466729952346358098e-03,7.078068907019529066e-01
9.360000000000000000e+09,6.559927919251316679e-03,4.573436010491879235e-03,-7.078162077792776730e-01,1.075608502144590611e-02,7.996810067010268891e-03,7.078979286309757812e-01
9.440000000000000000e+09,7.657270554110519496e-03,3.765775220111142272e-03,-7.079548412226202014e-01,1.036205278022897525e-02,8.533162095451553297e-03,7.080306697794706006e-01
9.520000000000000000e+09,8.661855005570750013e-03,2.699297049026275902e-03,-7.081331426451185074e-01,9.985178250141033690e-03,9.072702833026826535e-03,7.082035381845664945e-01
9.600000000000000000e+09,9.512627321934599700e-03,1.378646306813736608e-03,-7.083490320771145266e-01,9.629321960775191758e-03,9.612010414336211866e-03,7.084144797263881577e-01
9.680000000000000000e+09,1.014567339905987284e-02,-1.766998127337135504e-04,-7.086000158189805775e-01,9.298021334322781328e-03,1.014721200843912881e-02,7.086610160149865445e-01
9.760000000000000000e+09,1.049781210817079223e-02,-1.930609024558877299e-03,-7.088832481074445191e-01,8.994443384288506801e-03,1.067386107573850204e-02,7.089403074019376971e-01
9.840000000000000000e+09,1.051101234140406314e-02,-3.829339684355360322e-03,-7.091955982807789383e-01,8.721351425084299808e-03,1.118683256598253239e-02,7.092492217771633189e-01
9.920000000000000000e+09,1.013744679539529958e-02,-5.801796229493678958e-03,-7.095337198898135078e-01,8.481086338411542372e-03,1.168026827680073050e-02,7.095844054699594894e-01
1.000000000000000000e+10,9.344854107989269965e-03,-7.761308491150085628e-03,-7.098941185748853799e-01,8.275561823489634844e-03,1.214760090694464410e-02,7.099423529489614637e-01
1.008000000000000000e+10,8.121733904981706664e-03,-9.609161608567604040e-03,-7.102732156369048200e-01,8.106272344124795803e-03,1.258167510480615384e-02,7.103194721408855328e-01
1.016000000000000000e+10,6.481771562196791611e-03,-1.123994821680049036e-02,-7.106674049820201899e-01,7.974311920087214303e-03,1.297496815028304981e-02,7.107121429625903319e-01
1.024000000000000000e+10,4.466813904257360864e-03,-1.254859264428240598e-02,-7.110731016226944368e-01,7.880401402671537159e-03,1.331989503740196173e-02,7.111167671891768238e-01
1.032000000000000000e+10,2.147729530261120734e-03,-1.343862596151366474e-02,-7.114867806894816793e-01,7.824921748214726594e-03,1.360916639139314599e-02,7.115298085788452909e-01
1.040000000000000000e+10,-3.773830671047991633e-04,-1.383100966914996982e-02,-7.119050065747082323e-01,7.807950789697249566e-03,1.383615721388917197e-02,7.119478228646182183e-01
1.048000000000000000e+10,-3.011996456503206188e-03,-1.366657146929345888e-02,-7.123665400731256092e-01,7.808414753871141360e-03,1.399454530805820281e-02,7.124093337097181511e-01
1.056000000000000000e+10,-5.548332144478272665e-03,-1.294296067329608543e-02,-7.127419103095411490e-01,7.888557706779352960e-03,1.408205313780415760e-02,7.127855638650288927e-01
1.064000000000000000e+10,-7.918027605918517842e-03,-1.165915178598191451e-02,-7.131542939212346388e-01,7.985111900599990015e-03,1.409365039784416483e-02,7.131989967395915286e-01
1.072000000000000000e+10,-9.962648967047972245e-03,-9.876561151254561674e-03,-7.135586331507312030e-01,8.118193590198675633e-03,1.402857208040408053e-02,7.136048122112881309e-01
1.080000000000000000e+10,-1.156553391047650259e-02,-7.686459228698157287e-03,-7.139520631669458162e-01,8.286897585189790388e-03,1.388680057136347686e-02,7.140001548822842992e-01
1.088000000000000000e+10,-1.263798397058986216e-02,-5.209681352143778407e-03,-7.143318077447827763e-01,8.490205380726414605e-03,1.366965320085922718e-02,7.143822612182754161e-01
1.096000000000000000e+10,-1.312709897916320909e-02,-2.587251694413099119e-03,-7.146951578673632621e-01,8.727000940140285448e-03,1.337963373710174611e-02,7.147484377208980222e-01
1.104000000000000000e+10,-1.302023605704852836e-02,3.105510459820628316e-05,-7.150394460431346300e-01,8.996079776476104475e-03,1.302027309240432959e-02,7.150960347037434994e-01
1.112000000000000191e+10,-1.234561123832961411e-02,2.498919924442430211e-03,-7.153620168245242716e-01,9.296150236090493929e-03,1.259598021738466550e-02,7.154224161461975040e-01
1.120000000000000000e+10,-1.116907553098361698e-02,4.685102683755431631e-03,-7.156601941688387480e-01,9.625825576627469043e-03,1.211191295271516269e-02,7.157249262361984332e-01
1.128000000000000000e+10,-9.587569012049356951e-03,6.483281505621193812e-03,-7.159312466096352523e-01,9.983604958794124046e-03,1.157386792053282862e-02,7.160008535190440782e-01
1.135999999999999809e+10,-7.720110748947475732e-03,7.819209286422995273e-03,-7.161723518016778200e-01,1.036784118912464914e-02,1.098818200799831987e-02,7.162473941426028556e-01
1.143999999999999809e+10,-5.697378124225887727e-03,8.654674578046436459e-03,-7.163805628184358731e-01,1.077669260384243530e-02,1.036163643167868284e-02,7.164616164788848440e-01
1.152000000000000000e+10,-3.650964944832259772e-03,8.988147336815964158e-03,-7.165527798566122542e-01,1.120805648633520744e-02,9.701357512054998092e-03,7.166404306557365711e-01
1.160000000000000000e+10,-1.703311644187037151e-03,8.852332997226401365e-03,-7.166857324576015875e-01,1.165948130732298929e-02,9.014714085926769233e-03,7.167805679652906603e-01
1.168000000000000191e+10,4.088344423662580544e-05,8.309116333869466867e-03,-7.167759794703845166e-01,1.212805593982245814e-02,8.309216912909965849e-03,7.168785772267216583e-01
1.176000000000000000e+10,1.501189205333582164e-03,7.442540187965366455e-03,-7.168199363668905644e-01,1.261027512171652119e-02,7.592428694409294847e-03,7.169308475799310854e-01
1.184000000000000000e+10,2.625552523598468149e-03,6.350542556614125270e-03,-7.168139422503903013e-01,1.310188325601496090e-02,6.871893248409884254e-03,7.169336699788900757e-01
1.191999999999999809e+10,3.391856439766067696e-03,5.136187019417305828e-03,-7.167543815994653622e-01,1.359770281515325363e-02,6.155087912159611790e-03,7.168833524806398350e-01
1.200000000000000000e+10,3.562060007858477463e-03,3.903630207766670135e-03,-7.166378777266024791e-01,1.409146037162005774e-02,5.284562451005115659e-03,7.167764065926652828e-01
1.208000000000000000e+10,3.903495616552119137e-03,2.727693636874281395e-03,-7.164615746093028203e-01,1.457563267672427193e-02,4.762099390508985931e-03,7.166098219809496905e-01
1.216000000000000000e+10,3.734534333562493022e-03,1.692951359375399279e-03,-7.162235195198847215e-01,1.504134725895796797e-02,4.100345228607960718e-03,7.163814431158970208e-01
1.224000000000000191e+10,3.366962050109055180e-03,8.439293141983522217e-04,-7.159231477854378634e-01,1.547838541354900829e-02,3.471116554401173192e-03,7.160904509557576292e-01
1.232000000000000000e+10,2.873785678625022724e-03,2.056910753909838539e-04,-7.155618505216935210e-01,1.587534697078817059e-02,2.881137439478682807e-03,7.157379328800963503e-01
1.239999999999999809e+10,2.326321527149332984e-03,-2.202994910305709937e-04,-7.151435749496209970e-01,1.622003989022921880e-02,2.336729276879701521e-03,7.153274931706210538e-01
1.247999999999999809e+10,1.787024616119542008e-03,-4.532540361896230698e-04,-7.146753669741071624e-01,1.650014518592677476e-02,1.843609557346506363e-03,7.148658160457327382e-01
1.256000000000000000e+10,1.187147893831436976e-03,-5.691325481592756459e-04,-7.140115519104878183e-01,1.658332680687340729e-02,1.316522684651763543e-03,7.142041045734802696e-01
1.264000000000000000e+10,9.069043154940725337e-04,-4.878141041373505868e-04,-7.136346135734629170e-01,1.682263729765772972e-02,1.029775722017711162e-03,7.138328675648062394e-01
1.272000000000000000e+10,6.079827823034745712e-04,-3.780509668464557618e-04,-7.130929860638716145e-01,1.684936314396819762e-02,7.159368667075429989e-04,7.132920214132821846e-01
1.280000000000000191e+10,4.028693232017298460e-04,-2.386490355343253854e-04,-7.125617608708222361e-01,1.678260293931051542e-02,4.682489228375048655e-04,7.127593695047055311e-01
1.288000000000000000e+10,2.759618645694544630e-04,-9.984055998860780472e-05,-7.120602892640682802e-01,1.662578005788553984e-02,2.934673544288848423e-04,7.122543591367915816e-01
