# Frequency, Real(S21), Imag(S21), Real(S11), Imag(S11), Amp(S21), Amp(S11)
4.000000000000000000e+09,-4.314991415154442977e-08,1.494660547395173437e-04,-7.187289352090877603e-01,7.532435115159359998e-03,1.494660609680722335e-04,7.187684049021305643e-01
4.080000000000000000e+09,2.418963079146000159e-05,1.514915886325089364e-04,-7.187356616616943361e-01,7.707946046917505713e-03,1.534106895370347396e-04,7.187769916855545338e-01
4.160000000000000477e+09,2.574839569685556965e-05,1.521664488089324483e-04,-7.187223586177892143e-01,7.885832149714319672e-03,1.543295435880094634e-04,7.187656190482482055e-01
4.240000000000000000e+09,1.771186003839304433e-06,1.520390376375429294e-04,-7.187396355056216990e-01,8.070515174500532407e-03,1.520493540453572343e-04,7.187849447935981129e-01
4.320000000000000000e+09,2.703006246125988228e-05,1.489809040661955498e-04,-7.187260993523758579e-01,8.252151275096751906e-03,1.514131237807362935e-04,7.187734718887087704e-01
4.400000000000000000e+09,3.023123443964124588e-06,1.474844606540937270e-04,-7.187186960805712621e-01,8.437692756069382558e-03,1.475154412588267593e-04,7.187682232505847590e-01
4.480000000000000000e+09,4.432565190932527226e-06,1.454181869386421877e-04,-7.186896944579932445e-01,8.625048325737624116e-03,1.454857268830649086e-04,7.187414475169391359e-01
4.560000000000000000e+09,3.359109705972709452e-06,1.443780645228807101e-04,-7.186756600045693943e-01,8.816215190378057578e-03,1.444171358717166384e-04,7.187297335809104126e-01
4.640000000000000000e+09,-1.404545479136229679e-05,1.469620268661631774e-04,-7.186510129994625462e-01,9.011579168038087381e-03,1.476316772949053373e-04,7.187075114705949730e-01
4.720000000000000000e+09,-1.494460684391335094e-05,1.490152384473682505e-04,-7.186407469320105212e-01,9.209150930691554354e-03,1.497627542590118091e-04,7.186997506691248372e-01
4.800000000000000000e+09,1.199971412736933068e-06,1.501254387574326517e-04,-7.186651557468940466e-01,9.408388392933335342e-03,1.501302344416441858e-04,7.187267379587736205e-01
4.880000000000000000e+09,1.144181493047843050e-06,1.546727540618264747e-04,-7.186377178891827366e-01,9.614230465931430242e-03,1.546769860074836359e-04,7.187020265731999258e-01
4.960000000000000000e+09,-1.283444219525142326e-05,1.616845452800797617e-04,-7.186262832307500625e-01,9.824375033520472630e-03,1.621931413127244721e-04,7.186934348488522861e-01
5.040000000000000000e+09,1.146953710863213177e-06,1.653935978926919059e-04,-7.186089057255742318e-01,1.003623355408727463e-02,1.653975747304183561e-04,7.186789863159067648e-01
5.120000000000000000e+09,1.084918740656445310e-05,1.698519108126031517e-04,-7.185977831103895763e-01,1.025497681267218894e-02,1.701980507352397797e-04,7.186709528293145910e-01
5.200000000000000000e+09,1.595179963713091461e-06,1.761250810687928583e-04,-7.185784476471860360e-01,1.047820384508343396e-02,1.761323047615215070e-04,7.186548393901336373e-01
5.280000000000000000e+09,2.003697502747195311e-06,1.808830292497522608e-04,-7.185609231890365267e-01,1.070775029297045371e-02,1.808941266991530880e-04,7.186407003855382891e-01
5.360000000000000000e+09,2.464893972693749260e-06,1.851088648462865898e-04,-7.185414940141128248e-01,1.094379184014329133e-02,1.851252752785999777e-04,7.186248292397595661e-01
5.440000000000000000e+09,2.929632271215540386e-06,1.888094845229383871e-04,-7.185197731484589401e-01,1.118703408740794394e-02,1.888322117411705471e-04,7.186068564500242006e-01
5.520000000000000000e+09,3.359368392400038502e-06,1.920441656434750035e-04,-7.184952426103330403e-01,1.143829590349726075e-02,1.920735455852635607e-04,7.185862844967592089e-01
5.600000000000000000e+09,3.728341653875199499e-06,1.948974484315572149e-04,-7.184671878030518544e-01,1.169852503966225567e-02,1.949331063124463937e-04,7.185624227843599998e-01
5.680000000000000000e+09,4.022577133454458787e-06,1.974552115261998754e-04,-7.184345915402378102e-01,1.196879605411714509e-02,1.974961814457457381e-04,7.185342819939584125e-01
5.760000000000000000e+09,4.236847309501451356e-06,1.997863982795450061e-04,-7.183959735764477994e-01,1.225024690429140847e-02,1.998313183978853191e-04,7.185004129435614839e-01
5.840000000000000954e+09,4.370949079094440569e-06,2.019311990129836660e-04,-7.183492110851438239e-01,1.254386162637891045e-02,2.019784996742803149e-04,7.184587236098886054e-01
5.920000000000000000e+09,4.426466490557143634e-06,2.038946136071715938e-04,-7.182915346965684789e-01,1.285004036331701197e-02,2.039426563120374386e-04,7.184064673665532252e-01
6.000000000000000000e+09,4.404259527429022774e-06,2.056431543905097993e-04,-7.182199376315242523e-01,1.316822253768378838e-02,2.056903119975853371e-04,7.183406440514364943e-01
6.080000000000000000e+09,4.301308843674462484e-06,2.071020170065428993e-04,-7.181317364537744830e-01,1.349697946763199485e-02,2.071466792056948726e-04,7.182585602391823310e-01
6.160000000000000000e+09,4.104605034610821608e-06,2.081517091216221601e-04,-7.180248020663476671e-01,1.383440322111388447e-02,2.081921751477287330e-04,7.181580655363428711e-01
6.239999999999999046e+09,3.780098230995180875e-06,2.086243681569282561e-04,-7.178975013316454268e-01,1.417839456892775775e-02,2.086586114482541911e-04,7.180374985269027954e-01
6.320000000000000000e+09,3.255752743427562344e-06,2.083010643315577506e-04,-7.177485808222880959e-01,1.452678740501761601e-02,2.083265065410210936e-04,7.178955723674016465e-01
6.400000000000000954e+09,2.398404627035673360e-06,2.069117538660099256e-04,-7.175770802923473468e-01,1.487738957969406486e-02,2.069256538775781154e-04,7.177312887714983880e-01
6.480000000000000000e+09,9.848724256702697834e-07,2.041401146129034850e-04,-7.173822793905324513e-01,1.522799341902021826e-02,2.041424903538315797e-04,7.175438847674237008e-01
6.560000000000000000e+09,-1.331500057015575639e-06,1.996360651564344174e-04,-7.171636662576741372e-01,1.557637727776712763e-02,1.996405054179786612e-04,7.173328012361124273e-01
6.640000000000000000e+09,-5.056687686254594197e-06,1.930387529317278473e-04,-7.169209192257415264e-01,1.592030521754176503e-02,1.931049720328117036e-04,7.170976645769402413e-01
6.720000000000000000e+09,-1.089110085437907576e-05,1.840127897576146108e-04,-7.166538963398435547e-01,1.625752708990740522e-02,1.843348118837034421e-04,7.168382762702882882e-01
6.799999999999999046e+09,-1.975993833814367485e-05,1.722997763440295611e-04,-7.163626298348451105e-01,1.658577946766385050e-02,1.734291442962510098e-04,7.165546074825318579e-01
6.880000000000000000e+09,-3.283403639815245440e-05,1.577860519327498317e-04,-7.160473239650207988e-01,1.690278755948832964e-02,1.611661010594958360e-04,7.162467971200630057e-01
6.960000000000000954e+09,-5.153568205193642757e-05,1.405861667362756640e-04,-7.157083553984648905e-01,1.720626808332126334e-02,1.497344208996655168e-04,7.159151525484920287e-01
7.039999999999999046e+09,-7.752374387356094384e-05,1.211396989777206539e-04,-7.153462757147315276e-01,1.749393321906726403e-02,1.438219647084069399e-04,7.155601525227700543e-01
7.120000000000000000e+09,-1.126524475061369966e-04,1.003172241358141247e-04,-7.149618157639987537e-01,1.776349578188734721e-02,1.508446863082625209e-04,7.151824520938325769e-01
7.200000000000000000e+09,-1.588986883005072295e-04,7.952893677342729047e-05,-7.145558917138280508e-01,1.801267590039704741e-02,1.776897434517072868e-04,7.147828893279670748e-01
7.280000000000000000e+09,-2.182537788394600328e-04,6.082815863124916254e-05,-7.141296125865674860e-01,1.823920959502019906e-02,2.265717918457025161e-04,7.143624936540915460e-01
7.359999999999999046e+09,-2.925772867051285248e-04,4.699988200663996699e-05,-7.136842889869209339e-01,1.844085960414565059e-02,2.963282936278158544e-04,7.139224955481558998e-01
7.440000000000000000e+09,-3.834126708524048443e-04,4.162371942139541292e-05,-7.132214427414479418e-01,1.861542892252052162e-02,3.856654122275493383e-04,7.134643372868485489e-01
7.520000000000000000e+09,-4.917672094838406978e-04,4.909991637556932430e-05,-7.127428169084718546e-01,1.876077742419855407e-02,4.942122925541326704e-04,7.129896842340593954e-01
7.599999999999999046e+09,-6.178619324010741409e-04,7.462699603600405490e-05,-7.122503855885546908e-01,1.887484197634873087e-02,6.223524371670342966e-04,7.125004360915696555e-01
7.680000000000000000e+09,-7.608604107407327972e-04,1.241201006398353571e-04,-7.117463628300672029e-01,1.895566027142689403e-02,7.709178711220797224e-04,7.119987373992705537e-01
7.760000000000000954e+09,-9.185891917294808535e-04,2.040602210348436616e-04,-7.112332097719736845e-01,1.900139860352443449e-02,9.409817622945782856e-04,7.114869864104573782e-01
7.840000000000000000e+09,-1.087265697022216657e-03,3.212663327832617323e-04,-7.107136390510313539e-01,1.901038362263479664e-02,1.133736632777300815e-03,7.109678413392825913e-01
7.919999999999999046e+09,-1.261252758092885808e-03,4.825852403119197795e-04,-7.101906154386885550e-01,1.898113776054486876e-02,1.350424760571215625e-03,7.104442228971025175e-01
8.000000000000000000e+09,-1.432861357874175724e-03,6.944971482421226534e-04,-7.096673516755214184e-01,1.891241822237154854e-02,1.592299582303992062e-03,7.099193120328296525e-01
8.080000000000000000e+09,-1.592225047596898925e-03,9.626395647349997005e-04,-7.091472982051943985e-01,1.880325858948227527e-02,1.860606227493645992e-03,7.093965414951710624e-01
8.159999999999999046e+09,-1.727270243981428310e-03,1.291257140665672985e-03,-7.086341258961974532e-01,1.865301233712923432e-02,2.156573091518984835e-03,7.088795802207289443e-01
8.240000000000000000e+09,-1.823806328730273119e-03,1.682591273861935074e-03,-7.081317006606187014e-01,1.846139692197526841e-02,2.481407447315520272e-03,7.083723093520883918e-01
8.320000000000000954e+09,-1.865757992309362290e-03,2.136229466622545630e-03,-7.076440492135314120e-01,1.822853692712391935e-02,2.836287929659594368e-03,7.078787890209922162e-01
8.400000000000000000e+09,-1.835559414855484663e-03,2.648441898980446151e-03,-7.071753154099047478e-01,1.795500446499129904e-02,3.222347414190431490e-03,7.074032152248364014e-01
8.480000000000000000e+09,-1.714725846504782129e-03,3.211539205666415556e-03,-7.067297070998080910e-01,1.764185464250486723e-02,3.640641261948781258e-03,7.069498666331353043e-01
8.560000000000000000e+09,-1.484612486850750857e-03,3.813292784630662770e-03,-7.063114337731676295e-01,1.729065398059326589e-02,4.092099228688063361e-03,7.065230415165413280e-01
8.640000000000000000e+09,-1.127363942353532163e-03,4.436465100964280019e-03,-7.059246359168094287e-01,1.690349939379776067e-02,4.577463495276930944e-03,7.061269856662015787e-01
8.720000000000000000e+09,-6.270483064159833569e-04,5.058503420259190947e-03,-7.055733076530991132e-01,1.648302546607460090e-02,5.097219480398414680e-03,7.057658128593720104e-01
8.800000000000000000e+09,2.903967738599366917e-05,5.651455124078766032e-03,-7.052612146894334799e-01,1.603239820553482853e-02,5.651529732943003786e-03,7.054434199405619221e-01
8.880000000000000000e+09,8.489359748348329626e-04,6.182165433461636259e-03,-7.049918104711034861e-01,1.555529361018854508e-02,6.240181226219048728e-03,7.051633994973246500e-01
8.959999999999998093e+09,1.834469243827344413e-03,6.612820116082956771e-03,-7.047681536562737659e-01,1.505586026842068229e-02,6.862555449263771368e-03,7.049289533963655208e-01
9.040000000000000000e+09,2.979691000181579168e-03,6.901892750972317934e-03,-7.045928305173426720e-01,1.453866589297319635e-02,7.517624758026123302e-03,7.047428109760243142e-01
9.120000000000000000e+09,4.269358950184481451e-03,7.005550089885918298e-03,-7.044678859732851350e-01,1.400862860254748453e-02,8.203972081097115482e-03,7.046071558272691826e-01
9.200000000000000000e+09,5.677583878785264979e-03,6.879555604157415807e-03,-7.043947667330874296e-01,1.347093476926776272e-02,8.919823093051568522e-03,7.045235648894353497e-01
9.280000000000000000e+09,7.166776760110966926e-03,6.481690184221727304e-03,-7.043742796818746044e-01,1.293094611195449127e-02,9.663073878094017091e-03,7.044929632329267610e-01
9.360000000000000000e+09,8.687059272065322107e-03,5.774676517914742631e-03,-7.044065678943176589e-01,1.239409955030362082e-02,1.043129367254761949e-02,7.045155971277816676e-01
9.440000000000000000e+09,1.017632359153519683e-02,4.729548233804474998e-03,-7.044911057798886045e-01,1.186580390349209133e-02,1.122168384581916610e-02,7.045910270683599652e-01
9.520000000000000000e+09,1.156113997031379959e-02,3.329344897430136854e-03,-7.046267137651928136e-01,1.135133782864230709e-02,1.203098062749797040e-02,7.047181412607702589e-01
9.600000000000000000e+09,1.275467474774872809e-02,1.573666250521707369e-03,-7.048115917286100762e-01,1.085575336692552392e-02,1.285138721651830560e-02,7.048951888161675283e-01
9.680000000000000000e+09,1.368001385835179023e-02,-5.212832087232652234e-04,-7.050433695203994766e-01,1.038378907291937631e-02,1.368994212363200229e-02,7.051198309366922823e-01
9.760000000000000000e+09,1.423430917521047862e-02,-2.912262859789125410e-03,-7.053191716387499088e-01,9.939796334898689384e-03,1.452917178162569344e-02,7.053892070568925643e-01
9.840000000000000000e+09,1.433488688450363334e-02,-5.534076863135973905e-03,-7.056356926572011634e-01,9.527681166407311192e-03,1.536603360397897737e-02,7.057000123708492278e-01
9.920000000000000000e+09,1.390601780849881099e-02,-8.295232682510818301e-03,-7.059892794433670904e-01,9.150863191718951878e-03,1.619222704099969670e-02,7.060485825962107276e-01
1.000000000000000000e+10,1.289067958102605230e-02,-1.107996144191766147e-02,-7.063760161286359862e-01,8.812252242225752930e-03,1.699809299936507964e-02,7.064309817323584095e-01
1.008000000000000000e+10,1.125849908513273240e-02,-1.375195644819092629e-02,-7.067918077955140932e-01,8.514241969700804546e-03,1.777273495562443212e-02,7.068430885869717573e-01
1.016000000000000000e+10,9.013097799101477126e-03,-1.616084329002846071e-02,-7.072324595093046895e-01,8.258719025713281633e-03,1.850429106399447549e-02,7.072806785311797073e-01
1.024000000000000000e+10,6.197851684396192377e-03,-1.815134480834061301e-02,-7.076937477606549676e-01,8.047085623957986669e-03,1.918032022290155902e-02,7.077394974187612986e-01
1.032000000000000000e+10,2.898999956907283640e-03,-1.957480107079988957e-02,-7.081714822081397465e-01,7.880292833019903603e-03,1.978830557959768838e-02,7.082153254681853305e-01
1.040000000000000000e+10,-7.548734828149495681e-04,-2.030215827716614144e-02,-7.086615564422796831e-01,7.758881701171140705e-03,2.031618725760724053e-02,7.087040297786143528e-01
1.048000000000000000e+10,-4.597675528970979718e-03,-2.023719088011938574e-02,-7.091599872999918563e-01,7.683029413102662394e-03,2.075289172592787931e-02,7.092016049955662815e-01
1.056000000000000000e+10,-8.435152742025334854e-03,-1.932836242000916804e-02,-7.096629426787427475e-01,7.652597761196549067e-03,2.108879787044582246e-02,7.097042020898193249e-01
1.064000000000000000e+10,-1.205830641706118894e-02,-1.757764102921827859e-02,-7.101667588732921699e-01,7.667181824053646844e-03,2.131610231256635818e-02,7.102081463104459313e-01
1.072000000000000000e+10,-1.525973766736366671e-02,-1.504477118543910003e-02,-7.106679479090562968e-01,7.726156859339658109e-03,2.142906282829410564e-02,7.107099448333928926e-01
1.080000000000000000e+10,-1.785119713978618877e-02,-1.184599748957338924e-02,-7.111631966393633375e-01,7.828722397353273313e-03,2.142411948824244142e-02,7.112062859316504726e-01
1.088000000000000000e+10,-1.968026869956747416e-02,-8.146968431418787071e-03,-7.116493579962771543e-01,7.973942365040615279e-03,2.129990776293901045e-02,7.116940301093963583e-01
1.096000000000000000e+10,-2.064410771529428396e-02,-4.150365714197535791e-03,-7.121234358354622263e-01,8.160780797548254292e-03,2.105717737310153909e-02,7.121701946931852101e-01
1.104000000000000000e+10,-2.066116530022784475e-02,3.209107627778702608e-05,-7.125825637650912148e-01,8.388132670373461136e-03,2.066119022226250643e-02,7.126319323126953931e-01
1.112000000000000191e+10,-1.986152884268249652e-02,3.838794393894711960e-03,-7.130239784560252758e-01,8.654849415877524307e-03,2.022910453696125099e-02,7.130765038000270728e-01
1.120000000000000000e+10,-1.821038167196618526e-02,7.394888536687850046e-03,-7.134449876549050495e-01,8.959758558798524772e-03,1.965457649273368024e-02,7.135012457475737868e-01
1.128000000000000000e+10,-1.587402435897574543e-02,1.040974908259036102e-02,-7.138429329884952157e-01,9.301676727745537485e-03,1.898282184797208186e-02,7.139035328162794958e-01
1.135999999999999809e+10,-1.302064055234504643e-02,1.274877062225171324e-02,-7.142151475476773426e-01,9.679414881260462941e-03,1.822273944203122928e-02,7.142807347667960993e-01
1.143999999999999809e+10,-9.842799555532837780e-03,1.432933262084210187e-02,-7.145589084184114093e-01,1.009177425019987945e-02,1.738420192154724667e-02,7.146301683441783625e-01
1.152000000000000000e+10,-6.541549957851875742e-03,1.512369341584688699e-02,-7.148713844485429236e-01,1.053753110637978101e-02,1.647780259584397111e-02,7.149490442438498627e-01
1.160000000000000000e+10,-3.311063789326773154e-03,1.515716811947157711e-02,-7.151495799547263887e-01,1.101540778830764448e-02,1.551460243831328557e-02,7.152344097693876801e-01
1.168000000000000191e+10,-3.251101735264440643e-04,1.450224815142342298e-02,-7.153902754399156239e-01,1.152402687968026758e-02,1.450589183988335376e-02,7.154830881226487138e-01
1.176000000000000000e+10,2.273727908959626443e-03,1.326959641839887266e-02,-7.155899677742302289e-01,1.206184502190540790e-02,1.346298732492778177e-02,7.156916166090366849e-01
1.184000000000000000e+10,4.381540172553948301e-03,1.159696072885208276e-02,-7.157448127824916906e-01,1.262706161908496057e-02,1.239707192970346261e-02,7.158561864719590329e-01
1.191999999999999809e+10,5.937075511420747756e-03,9.637062980379879767e-03,-7.158505758177772238e-01,1.321749772617595783e-02,1.131909221254603394e-02,7.159725896602360251e-01
1.200000000000000000e+10,6.922289873476409998e-03,7.545430712029344011e-03,-7.159025980707606207e-01,1.383043965203026998e-02,1.023970808775668748e-02,7.160361799416518069e-01
1.208000000000000000e+10,7.359732996058495139e-03,5.469017315310333895e-03,-7.158957903363701858e-01,1.446244236151745383e-02,9.169286786246594323e-03,7.160418597124027507e-01
1.216000000000000000e+10,7.307201458685099599e-03,3.536312876280835009e-03,-7.158246705907224117e-01,1.510908948524518000e-02,8.117924729680566290e-03,7.159841084908166176e-01
1.224000000000000191e+10,6.850192046245139402e-03,1.849502992136247987e-03,-7.156834677127377198e-01,1.576471030396083342e-02,7.095476896471519281e-03,7.158570751541798449e-01
1.232000000000000000e+10,6.092765450508033642e-03,4.790967396417007869e-04,-7.154663203565778673e-01,1.642206165459118503e-02,6.111572998896410910e-03,7.156547629084630824e-01
1.239999999999999809e+10,5.147491248308267743e-03,-5.386864650759460964e-04,-7.151676056713009988e-01,1.707199489568040143e-02,5.175601342749094023e-03,7.153713421792485816e-01
1.247999999999999809e+10,4.125201396679562676e-03,-1.201613124931453667e-03,-7.147824354886559428e-01,1.770314693573873943e-02,4.296645280352399260e-03,7.150016304138914203e-01
1.256000000000000000e+10,3.125335226497179437e-03,-1.538206753640988019e-03,-7.143073521602048004e-01,1.830172069103813345e-02,3.483360488799705588e-03,7.145417736776314976e-01
1.264000000000000000e+10,2.227709296720514071e-03,-1.601772276073536432e-03,-7.137412372608147315e-01,1.885145198926607008e-02,2.743786277225834531e-03,7.139901476972229100e-01
1.272000000000000000e+10,1.486565947504754799e-03,-1.462098600504247239e-03,-7.130864042660527424e-01,1.933389083633253736e-02,2.085092476097208294e-03,7.133484557241009938e-01
1.280000000000000191e+10,9.276999862299313082e-04,-1.195580973634452699e-03,-7.123497773397624577e-01,1.972914113972630903e-02,1.513288184374582445e-03,7.126229327534445712e-01
1.288000000000000000e+10,5.492616244701989652e-04,-8.748775996846203541e-04,-7.115439615455242395e-01,2.001718258348555296e-02,1.033004911191406092e-03,7.118254679417413966e-01
