# Frequency, Real(S21), Imag(S21), Real(S11), Imag(S11), Amp(S21), Amp(S11)
4.000000000000000000e+09,6.582348143594907982e-06,1.451987322771448202e-04,-7.187785477924374389e-01,7.134812875533306370e-03,1.453478557185260568e-04,7.188139580735575240e-01
4.080000000000000000e+09,5.956456152643251040e-06,1.481319345570730273e-04,-7.187768877416562674e-01,7.303839824338523995e-03,1.482516421680358024e-04,7.188139957094332733e-01
4.160000000000000477e+09,2.145060039893053350e-05,1.486485474021636947e-04,-7.187662553403949550e-01,7.468615003405258343e-03,1.501882781785845978e-04,7.188050570398923922e-01
4.240000000000000000e+09,2.830003187280884837e-06,1.487850315339188877e-04,-7.187205290309111039e-01,7.636805897466705968e-03,1.488119434944294164e-04,7.187611005436982392e-01
4.320000000000000000e+09,4.527735098377793552e-06,1.472003916911086114e-04,-7.187500800430383086e-01,7.809990095954112005e-03,1.472700095034181714e-04,7.187925107478324582e-01
4.400000000000000000e+09,3.681474025186456872e-06,1.454655425249841427e-04,-7.187106551936518484e-01,7.982714587961665595e-03,1.455121208459490909e-04,7.187549858060681141e-01
4.480000000000000000e+09,3.543288393490429701e-06,1.439832310709323064e-04,-7.186999356454172316e-01,8.159242341211663668e-03,1.440268229263734273e-04,7.187462491952980592e-01
4.560000000000000000e+09,2.347482164049084273e-05,1.424112049490048454e-04,-7.186921645827288874e-01,8.338314019695576215e-03,1.443330126688981726e-04,7.187405337903931546e-01
4.640000000000000000e+09,5.047684573900724478e-06,1.440716133384595395e-04,-7.187070705734448506e-01,8.519636609689169512e-03,1.441600114092121731e-04,7.187575651777334818e-01
4.720000000000000000e+09,2.837965339368420713e-06,1.460499204042770287e-04,-7.186749660528087835e-01,8.704876329346491332e-03,1.460774907279116389e-04,7.187276825772853650e-01
4.800000000000000000e+09,3.012423910643380677e-06,1.493026890841745152e-04,-7.186693161044533928e-01,8.892807547496571485e-03,1.493330762610316708e-04,7.187243337581660230e-01
4.880000000000000000e+09,2.065487509726223462e-05,1.521281452361759683e-04,-7.186796255257059673e-01,9.085048104075083703e-03,1.535239279014270005e-04,7.187370466622839960e-01
4.960000000000000000e+09,3.409083191268602418e-05,1.557492165698525486e-04,-7.186754452106004498e-01,9.280207111117726518e-03,1.594365180334224427e-04,7.187353600545057786e-01
5.040000000000000000e+09,2.333506484246973201e-06,1.634863672212737476e-04,-7.186411544073142421e-01,9.480196121138496565e-03,1.635030199100958258e-04,7.187036822824637294e-01
5.120000000000000000e+09,-3.275702886317713252e-05,1.729849933368279901e-04,-7.186032531071225860e-01,9.683182344186120824e-03,1.760591686328361592e-04,7.186684906105527126e-01
5.200000000000000000e+09,3.991061122460173517e-06,1.734612193633481225e-04,-7.185923299949422693e-01,9.891421000015216194e-03,1.735071272077974005e-04,7.186604044588511542e-01
5.280000000000000000e+09,3.209141185721664990e-06,1.778109916240314841e-04,-7.185883010975514518e-01,1.010425242887592369e-02,1.778399486321093374e-04,7.186593368150251404e-01
5.360000000000000000e+09,3.624162287052305191e-06,1.817304158695916218e-04,-7.185705858858930650e-01,1.032400683627871484e-02,1.817665497400927296e-04,7.186447467403843659e-01
5.440000000000000000e+09,4.037405612109730694e-06,1.851559630954717256e-04,-7.185507353600312230e-01,1.055035079079945544e-02,1.851999765493731994e-04,7.186281856344424179e-01
5.520000000000000000e+09,4.420510988142587739e-06,1.881385188907670173e-04,-7.185282582504249893e-01,1.078404860364113108e-02,1.881904439864250708e-04,7.186091800197623725e-01
5.600000000000000000e+09,4.754060044714145597e-06,1.907532765878857002e-04,-7.185024747061817818e-01,1.102598593878041482e-02,1.908125090656353237e-04,7.185870709418793467e-01
5.680000000000000000e+09,5.026705435130653140e-06,1.930775214561793651e-04,-7.184724140301539386e-01,1.127716690186766901e-02,1.931429446270118810e-04,7.185609119731252159e-01
5.760000000000000000e+09,5.232953685776688704e-06,1.951733444998269499e-04,-7.184366598341362931e-01,1.153865118905429005e-02,1.952434844176000007e-04,7.185293137130127628e-01
5.840000000000000954e+09,5.370561981154057428e-06,1.970762941680561742e-04,-7.183931776630724242e-01,1.181134110348641512e-02,1.971494576685607701e-04,7.184902681954082881e-01
5.920000000000000000e+09,5.438441394662982336e-06,1.987890332513806498e-04,-7.183393157456661182e-01,1.209556205711595327e-02,1.988634113803283449e-04,7.184411424517872513e-01
6.000000000000000000e+09,5.435051982345213727e-06,2.002779896179901552e-04,-7.182722101133728332e-01,1.239069834687782021e-02,2.003517230159864706e-04,7.183790762728773371e-01
6.080000000000000000e+09,5.355908858445678655e-06,2.014704504621342624e-04,-7.181893350376193919e-01,1.269529129682137915e-02,2.015416288738266441e-04,7.183015323545461905e-01
6.160000000000000000e+09,5.187839589627207618e-06,2.022511872016255377e-04,-7.180887264916117063e-01,1.300742682481202325e-02,2.023177115431930805e-04,7.182065248011518799e-01
6.239999999999999046e+09,4.898259862204152362e-06,2.024588323101088870e-04,-7.179689204203777431e-01,1.332502152032710371e-02,2.025180775388964476e-04,7.180925615045179455e-01
6.320000000000000000e+09,4.418648901186816261e-06,2.018833577152345272e-04,-7.178288344319139203e-01,1.364594646770312010e-02,2.019317077144877366e-04,7.179585276301686525e-01
6.400000000000000954e+09,3.622151788565420585e-06,2.002661945858887939e-04,-7.176676792232742352e-01,1.396806805362180333e-02,2.002989482685629959e-04,7.178035975995599172e-01
6.480000000000000000e+09,2.295900213648068445e-06,1.973052774809617874e-04,-7.174849030712812104e-01,1.428925851374261355e-02,1.973186349021053740e-04,7.176271796999319497e-01
6.560000000000000000e+09,1.093407022081807969e-07,1.926674447545772054e-04,-7.172801581961181228e-01,1.460739728096777101e-02,1.926674757805458377e-04,7.174288824665286946e-01
6.640000000000000000e+09,-3.419254560911550540e-06,1.860110025546273590e-04,-7.170532802671881756e-01,1.492037027484726525e-02,1.860424262718853624e-04,7.172084942267995533e-01
6.720000000000000000e+09,-8.955072417446251079e-06,1.770207797900846185e-04,-7.168042758808381709e-01,1.522606931381984517e-02,1.772471432759674577e-04,7.169659706762950835e-01
6.799999999999999046e+09,-1.737397889468948048e-05,1.654573976532393146e-04,-7.165333151243556964e-01,1.552239223672355166e-02,1.663670808207419190e-04,7.167014276139331841e-01
6.880000000000000000e+09,-2.978018135833007630e-05,1.512216358912871032e-04,-7.162407276898200559e-01,1.580724385149761060e-02,1.541260599748531896e-04,7.164151373050570148e-01
6.960000000000000954e+09,-4.750926098273167749e-05,1.344325962460799916e-04,-7.159270016839057726e-01,1.607853774378336861e-02,1.425806887786241226e-04,7.161075276214358132e-01
7.039999999999999046e+09,-7.211139175190934224e-05,1.155177018750628832e-04,-7.155927846764406075e-01,1.633419909392017436e-02,1.361777965267952262e-04,7.157791835063537222e-01
7.120000000000000000e+09,-1.053096873527681722e-04,9.530987261338078281e-05,-7.152388867076747703e-01,1.657216869161494757e-02,1.420355662076110072e-04,7.154308504907916921e-01
7.200000000000000000e+09,-1.489292238876741979e-04,7.514584847749828929e-05,-7.148662850321656492e-01,1.679040840470196957e-02,1.668137052858311245e-04,7.150634400457670514e-01
7.280000000000000000e+09,-2.047934909779928971e-04,5.695811547274182087e-05,-7.144761303376740980e-01,1.698690855036067565e-02,2.125666974508458806e-04,7.146780365202189955e-01
7.359999999999999046e+09,-2.739768323660903265e-04,1.819021723370030201e-04,-7.140697541749343458e-01,1.715969741495450285e-02,3.288642652741059053e-04,7.142759054054840240e-01
7.440000000000000000e+09,-3.439049116754153558e-04,1.261405786370842197e-04,-7.134633458142038975e-01,1.754476496943187247e-02,3.663086592661626882e-04,7.136790347195515194e-01
7.520000000000000000e+09,-4.609365291633000985e-04,4.393506186395129080e-05,-7.132146175130142929e-01,1.742652068481414032e-02,4.630256726987166016e-04,7.134274835310268070e-01
7.599999999999999046e+09,-5.784700142769225086e-04,6.697025991337442370e-05,-7.127694992423114773e-01,1.751692668961879126e-02,5.823337300297895319e-04,7.129847135603855079e-01
7.680000000000000000e+09,-7.114139604140598452e-04,1.121629243183603101e-04,-7.123154593604784646e-01,1.757640511555383367e-02,7.202016000146512029e-04,7.125322755221096260e-01
7.760000000000000954e+09,-8.576674451037163624e-04,1.853931676141084162e-04,-7.118548531993901252e-01,1.760342114720993972e-02,8.774759671858422226e-04,7.120724769709971813e-01
7.840000000000000000e+09,-1.013659147118063913e-03,2.928016752429709441e-04,-7.113902569863215231e-01,1.759660078023775331e-02,1.055100794977053809e-03,7.116078541542972813e-01
7.919999999999999046e+09,-1.174138270948312099e-03,4.404998141051978721e-04,-7.109244666435451387e-01,1.755476347249279936e-02,1.254049746035701017e-03,7.111411723370995031e-01
8.000000000000000000e+09,-1.332013035519033842e-03,6.342065759702315841e-04,-7.104604918212410469e-01,1.747695775410288560e-02,1.475288686256529197e-03,7.106754213360825245e-01
8.080000000000000000e+09,-1.478257260216702318e-03,8.788157698902163790e-04,-7.100015441049498666e-01,1.736249904604615299e-02,1.719756286451985848e-03,7.102138051351417625e-01
8.159999999999999046e+09,-1.601906108483251625e-03,1.177901951930557245e-03,-7.095510184598191605e-01,1.721100878828678987e-02,1.988355146536395675e-03,7.097597245694328150e-01
8.240000000000000000e+09,-1.690161199576728545e-03,1.533178536238476858e-03,-7.091124670520042583e-01,1.702245364056991644e-02,2.281946823336820137e-03,7.093167521330122627e-01
8.320000000000000954e+09,-1.728623726345185265e-03,1.943927376666421819e-03,-7.086895648263679126e-01,1.679718319786446465e-02,2.601344581757040336e-03,7.088885981994416108e-01
8.400000000000000000e+09,-1.701671288271737296e-03,2.406424831548670956e-03,-7.082860664857469901e-01,1.653596450863877368e-02,2.947298024160848774e-03,7.084790682159092245e-01
8.480000000000000000e+09,-1.592990173733739709e-03,2.913395417508095851e-03,-7.079057549101797076e-01,1.624001136780016744e-02,3.320465412012211116e-03,7.080920108320511996e-01
8.560000000000000000e+09,-1.386269780313027821e-03,3.453529633007369933e-03,-7.075523815321691501e-01,1.591100633666090933e-02,3.721372170298094337e-03,7.077312574236703790e-01
8.640000000000000000e+09,-1.066059389255172209e-03,4.011107865811633193e-03,-7.072295997310192872e-01,1.555111334559327631e-02,4.150357687307813445e-03,7.074005540441604678e-01
8.720000000000000000e+09,-6.187797592700054489e-04,4.565776766888558422e-03,-7.069408927809288645e-01,1.516297901471806882e-02,4.607516237143563335e-03,7.071034873471474524e-01
8.800000000000000000e+09,-3.387258913692896929e-05,5.092527898148211524e-03,-7.066894986541933932e-01,1.474972090022108606e-02,5.092640547467755865e-03,7.068434068269644488e-01
8.880000000000000000e+09,6.949404083682590326e-04,5.561930624521640651e-03,-7.064783342688870649e-01,1.431490166694619932e-02,5.605177467589651276e-03,7.066233460628623675e-01
8.959999999999998093e+09,1.568330897743756011e-03,5.940671110326794374e-03,-7.063099223904099055e-01,1.386248847853589934e-02,6.144203369509274731e-03,7.064459463072630951e-01
9.040000000000000000e+09,2.580027966848679605e-03,6.192446563771960427e-03,-7.061863243898532927e-01,1.339679800946493894e-02,6.708422970780278556e-03,7.063133857942645033e-01
9.120000000000000000e+09,3.715549943031850808e-03,6.279256746886875684e-03,-7.061090823956375218e-01,1.292242808501806520e-02,7.296189188370072812e-03,7.062273184954132033e-01
9.200000000000000000e+09,4.951102205605596544e-03,6.163122260040814447e-03,-7.060791736665549267e-01,1.244417807358912630e-02,7.905535341933726118e-03,7.061888253530865800e-01
9.280000000000000000e+09,6.252761383919703229e-03,5.808238924311899878e-03,-7.060969801662884127e-01,1.196696065589603931e-02,8.534205547450171570e-03,7.061983811559551238e-01
9.360000000000000000e+09,7.576087632714035257e-03,5.183547777086964375e-03,-7.061622748794917914e-01,1.149570863179907344e-02,9.179666190875665488e-03,7.062558387581132635e-01
9.440000000000000000e+09,8.866323622360793716e-03,4.265659406187784566e-03,-7.062742260185618237e-01,1.103528059671340586e-02,9.839082515460033027e-03,7.063604319014243904e-01
9.520000000000000000e+09,1.005934656000077518e-02,3.042018276538804075e-03,-7.064314190131162352e-01,1.059036961928506645e-02,1.050924965965675112e-02,7.065107965895199849e-01
9.600000000000000000e+09,1.108353196084324935e-02,1.514127396201388198e-03,-7.066318950673773358e-01,1.016541882978483358e-02,1.118647676880265250e-02,7.067050097929813424e-01
9.680000000000000000e+09,1.186265726472042134e-02,-2.994188925190689309e-04,-7.068732043712366853e-01,9.764547495193573803e-03,1.186643539793739294e-02,7.069406435096556862e-01
9.760000000000000000e+09,1.231991197731906879e-02,-2.360421365814025473e-03,-7.071524708062273401e-01,9.391490405687659415e-03,1.254399538237642962e-02,7.072148309102349595e-01
9.840000000000000000e+09,1.238298329908826996e-02,-4.609473649206862964e-03,-7.074664648229006536e-01,9.049552502617963512e-03,1.321308149934115155e-02,7.075243411003682148e-01
9.920000000000000000e+09,1.199004881950959181e-02,-6.965701526355520291e-03,-7.078116806396120841e-01,8.741579699465441486e-03,1.386658820505227985e-02,7.078656584871978463e-01
1.000000000000000000e+10,1.109633648969967148e-02,-9.328265522938163773e-03,-7.081844139407196259e-01,8.469945902657028541e-03,1.449638648626192135e-02,7.082350627667020060e-01
1.008000000000000000e+10,9.680721637641890448e-03,-1.157997133615898400e-02,-7.085808366005036385e-01,8.236555169131666576e-03,1.509344584817435067e-02,7.086287059091833651e-01
1.016000000000000000e+10,7.751649581604895534e-03,-1.359316958829930033e-02,-7.089970653567265746e-01,8.042857292743860881e-03,1.564807753982131594e-02,7.090426829450269253e-01
1.024000000000000000e+10,5.351540490492833098e-03,-1.523787133371851642e-02,-7.094292221170016566e-01,7.889874440136298780e-03,1.615028508740154814e-02,7.094730941425581028e-01
1.032000000000000000e+10,2.300970032296695104e-03,-1.640941968048987773e-02,-7.098734843413391227e-01,7.778236159205211518e-03,1.656995827816038977e-02,7.099160969640438967e-01
1.040000000000000000e+10,-5.133379796284239481e-04,-1.695071647947776067e-02,-7.103261245867876772e-01,7.708219990136501963e-03,1.695848769934889949e-02,7.103679468598657065e-01
1.048000000000000000e+10,-3.721614437547193181e-03,-1.684056176740799174e-02,-7.107835392745696090e-01,7.679795007353221008e-03,1.724688188234741598e-02,7.108250269616557260e-01
1.056000000000000000e+10,-6.901269829708123194e-03,-1.602563653336162852e-02,-7.112422669917835005e-01,7.692665979592662635e-03,1.744845413100697823e-02,7.112838670077404890e-01
1.064000000000000000e+10,-9.877774350951638166e-03,-1.451587279662775072e-02,-7.116989973323685215e-01,7.746316229243442424e-03,1.755793237189947828e-02,7.117411525400383354e-01
1.072000000000000000e+10,-1.248072481293572775e-02,-1.236936668386013835e-02,-7.121505712730147319e-01,7.840047747813610676e-03,1.757184463896772214e-02,7.121937254098558157e-01
1.080000000000000000e+10,-1.455840026151598507e-02,-9.690343101918807295e-03,-7.125939742614078032e-01,7.973017534177218729e-03,1.748856105022406071e-02,7.126385768131474618e-01
1.088000000000000000e+10,-1.599124182766631722e-02,-6.622340284094227307e-03,-7.130263228818882748e-01,8.144269570578264311e-03,1.730824098599398342e-02,7.130728337619551827e-01
1.096000000000000000e+10,-1.670258754830392101e-02,-3.337224425612417885e-03,-7.134448459170934509e-01,8.352761799086921846e-03,1.703271844643894015e-02,7.134937398431310251e-01
1.104000000000000000e+10,-1.666533137538605061e-02,-2.124742802801700978e-05,-7.138468602609459035e-01,8.597387785810029631e-03,1.666534492006164700e-02,7.138986307460954972e-01
1.112000000000000191e+10,-1.590376310492994452e-02,3.140228230904446721e-03,-7.142297419668109937e-01,8.876992367374303070e-03,1.621082089963059650e-02,7.142849048548260971e-01
1.120000000000000000e+10,-1.449050469122371496e-02,5.977594562508379422e-03,-7.145908925621882180e-01,9.190380445287787275e-03,1.567502353937965526e-02,7.146499890334806482e-01
1.128000000000000000e+10,-1.253909994789239625e-02,8.349868230412990644e-03,-7.149277008280371382e-01,9.536317697237910521e-03,1.506483743584693426e-02,7.149912997837708506e-01
1.135999999999999809e+10,-1.019330275451687910e-02,1.015433926071101188e-02,-7.152375003676549881e-01,9.913521524667753479e-03,1.438798202900109374e-02,7.153062000578432889e-01
1.143999999999999809e+10,-7.614385321026562528e-03,1.133230631296376981e-02,-7.155175235932692557e-01,1.032064006804026164e-02,1.365283963825486731e-02,7.155919522887737028e-01
1.152000000000000000e+10,-4.967852449738796583e-03,1.187067807283944364e-02,-7.157648534433475040e-01,1.075621667400824405e-02,1.286827711355979960e-02,7.158456688574116322e-01
1.160000000000000000e+10,-2.410823323437485000e-03,1.179970752997982000e-02,-7.159763748076016787e-01,1.121863664310826167e-02,1.204346988578842287e-02,7.160642618443999741e-01
1.168000000000000191e+10,-8.110682835237590163e-05,1.118744407919251491e-02,-7.161487289289693026e-01,1.170605253243735960e-02,1.118773807982047057e-02,7.162443951700219191e-01
1.176000000000000000e+10,1.911312002520819571e-03,1.013169890890204886e-02,-7.162782757468970640e-01,1.221628436238392408e-02,1.031040427682770877e-02,7.163824438877397505e-01
1.184000000000000000e+10,3.489946227636941262e-03,8.750407561182137195e-03,-7.163610712511400136e-01,1.274669054041049215e-02,9.420687722167147768e-03,7.164744674612025799e-01
1.191999999999999809e+10,4.614494180256336134e-03,7.171263857200037284e-03,-7.163928701587993775e-01,1.329400648361472002e-02,8.527636357702124761e-03,7.165162070900761293e-01
1.200000000000000000e+10,5.280606960639679104e-03,5.521441347524596102e-03,-7.163691678261552287e-01,1.385414963929548771e-02,7.640099765507676367e-03,7.165031207707096561e-01
1.208000000000000000e+10,5.516976621423729139e-03,3.918115664042174338e-03,-7.162852999250853836e-01,1.442199314632405284e-02,6.766731958497294343e-03,7.164304744879870235e-01
1.216000000000000000e+10,5.380113152875084723e-03,2.460396560636810524e-03,-7.161366228178678295e-01,1.499111744727148372e-02,5.916009531207072972e-03,7.162935125654140700e-01
1.224000000000000191e+10,4.947278788980616349e-03,1.223168978402522800e-03,-7.159188010597421492e-01,1.555355934654143943e-02,5.096244672857042426e-03,7.160877340935013491e-01
1.232000000000000000e+10,4.296554861544331708e-03,2.517963353387093692e-04,-7.157202897643453188e-01,1.610355578838080018e-02,4.303926703924015017e-03,7.159014301490030929e-01
1.239999999999999809e+10,3.555745535898554178e-03,-4.319424975427841457e-04,-7.152626017189278596e-01,1.661760239072552700e-02,3.581885067565121396e-03,7.154556129676710174e-01
1.247999999999999809e+10,2.835389316077063186e-03,-8.119431432176580851e-04,-7.146071081376417222e-01,1.696101357661150902e-02,2.949353190369394338e-03,7.148083624177805628e-01
1.256000000000000000e+10,2.115170184527358655e-03,-9.919209246137760359e-04,-7.140463726140121592e-01,1.721481085026617744e-02,2.336204620789914845e-03,7.142538568015149858e-01
1.264000000000000000e+10,1.420950071166733565e-03,-9.955002784820640889e-04,-7.137279203031391406e-01,1.786157513407894692e-02,1.734969714204433276e-03,7.139513849601487605e-01
1.272000000000000000e+10,9.277289624357997356e-04,-8.490018975194943245e-04,-7.130923406006294263e-01,1.812085436068127872e-02,1.257571170842393046e-03,7.133225438650071526e-01
1.280000000000000191e+10,5.757904166685200685e-04,-6.342528657393216741e-04,-7.124169490766335544e-01,1.827790675269319598e-02,8.566278664775328405e-04,7.126513812565852257e-01
1.288000000000000000e+10,3.522588815396663383e-04,-4.030493126901791385e-04,-7.117221104200983639e-01,1.832229716990168428e-02,5.352897048174964575e-04,7.119579124038307727e-01
