# Frequency, Real(S21), Imag(S21), Real(S11), Imag(S11), Amp(S21), Amp(S11)
4.000000000000000000e+09,2.163180185499414339e-06,1.407840274698523740e-04,-7.187533197515167949e-01,6.618499637126774859e-03,1.408006453790148040e-04,7.187837916865355004e-01
4.080000000000000000e+09,2.615950861665473521e-06,1.434358831702376509e-04,-7.187487517696744543e-01,6.769880541646098454e-03,1.434597357439944254e-04,7.187806337492776976e-01
4.160000000000000477e+09,2.380416755221680815e-06,1.444003490138853513e-04,-7.187626505754348694e-01,6.924063596984101308e-03,1.444199680766494298e-04,7.187960006280778025e-01
4.240000000000000000e+09,3.499551693511053431e-06,1.439267876950752400e-04,-7.187388010767803426e-01,7.077747427284608421e-03,1.439693268661030353e-04,7.187736491288005958e-01
4.320000000000000000e+09,1.773536269978307599e-06,1.425086461647426012e-04,-7.187026552032323989e-01,7.233820157677285471e-03,1.425196816675112241e-04,7.187390588734203778e-01
4.400000000000000000e+09,2.993342548668045450e-05,1.409973899806045503e-04,-7.187449810951972440e-01,7.394124235589810863e-03,1.441397722445451088e-04,7.187830137967554656e-01
4.480000000000000000e+09,4.192461530558006763e-06,1.393678817495684564e-04,-7.187214452058288128e-01,7.553513553933427320e-03,1.394309262575806844e-04,7.187611365159948251e-01
4.560000000000000000e+09,4.213154108043049314e-06,1.387445527581262703e-04,-7.187148800914120450e-01,7.716249530134396996e-03,1.388085068992192712e-04,7.187563004048201920e-01
4.640000000000000000e+09,4.168445841935277192e-06,1.392505492521811954e-04,-7.187078551806729276e-01,7.881289779709883120e-03,1.393129262048977681e-04,7.187510666614658206e-01
4.720000000000000000e+09,4.101117095119352312e-06,1.410012169611592984e-04,-7.187003182291787917e-01,8.048806128871779930e-03,1.410608462542168294e-04,7.187453865610707870e-01
4.800000000000000000e+09,2.657485232915038864e-06,1.439288203204026244e-04,-7.186627362120346918e-01,8.218222671032679796e-03,1.439533519810702621e-04,7.187097241610407306e-01
4.880000000000000000e+09,4.066333420993007252e-06,1.477663473565739999e-04,-7.186834517761827579e-01,8.392084818684286338e-03,1.478222868128969546e-04,7.187324473992618978e-01
4.960000000000000000e+09,4.159079146615602445e-06,1.522333197840685195e-04,-7.186739631137850637e-01,8.568329865963590294e-03,1.522901230934766760e-04,7.187250388948238644e-01
5.040000000000000000e+09,4.341465955611634148e-06,1.569765065939494029e-04,-7.186636373693016111e-01,8.748023860551332187e-03,1.570365306197382173e-04,7.187168786096093109e-01
5.120000000000000000e+09,4.908479438196375109e-06,1.616863140631089578e-04,-7.186427151660895740e-01,8.932144336685881800e-03,1.617608028099190164e-04,7.186982226663293227e-01
5.200000000000000000e+09,4.939391922335915279e-06,1.661201791524748801e-04,-7.186399328418174859e-01,9.119141892778983433e-03,1.661935964897949482e-04,7.186977889375705253e-01
5.280000000000000000e+09,5.313855302048342628e-06,1.701229710952881485e-04,-7.186261961183270097e-01,9.311386426078011036e-03,1.702059410022439682e-04,7.186865183546106151e-01
5.360000000000000000e+09,5.705250202400116999e-06,1.736236997370934915e-04,-7.186108802646142824e-01,9.508741199266344118e-03,1.737174113043030252e-04,7.186737878856291895e-01
5.440000000000000000e+09,6.090252380532126004e-06,1.766228936335334683e-04,-7.185936484836219496e-01,9.711795345417845865e-03,1.767278634781200913e-04,7.186592729589137418e-01
5.520000000000000000e+09,6.450028817798064176e-06,1.791703229647883026e-04,-7.185740462241638760e-01,9.921235623277275748e-03,1.792863840425618484e-04,7.186425334081328886e-01
5.600000000000000000e+09,6.770956075429400877e-06,1.813406086134854232e-04,-7.185514410631284044e-01,1.013785923649956899e-02,1.814669726933380389e-04,7.186229537412491819e-01
5.680000000000000000e+09,7.043989005279734805e-06,1.832109154545973843e-04,-7.185249252727855529e-01,1.036256957813877326e-02,1.833462770901501981e-04,7.185996458992474079e-01
5.760000000000000000e+09,7.263292630594197989e-06,1.848436105591303455e-04,-7.184931683278563685e-01,1.059631357763462199e-02,1.849862583663259132e-04,7.185713011213549217e-01
5.840000000000000954e+09,7.424783345948413984e-06,1.862749126854912015e-04,-7.184542542036492785e-01,1.083987339491707114e-02,1.864228272066531088e-04,7.185360243150928916e-01
5.920000000000000000e+09,7.525166228048425998e-06,1.875088134552903448e-04,-7.184056898275137382e-01,1.109345933762754047e-02,1.876597539435950421e-04,7.184913360762407164e-01
6.000000000000000000e+09,7.561240588683813065e-06,1.885141214103167278e-04,-7.183448080886731812e-01,1.135636224826917784e-02,1.886656999307070588e-04,7.184345692347122725e-01
6.080000000000000000e+09,7.528026839609026238e-06,1.892221852987068377e-04,-7.182693072641388454e-01,1.162706184676141376e-02,1.893718738284965678e-04,7.183634082585876879e-01
6.160000000000000000e+09,7.413494514687594714e-06,1.895241611339860337e-04,-7.181774642043953216e-01,1.190361620908108112e-02,1.896691001572486002e-04,7.182761071968832844e-01
6.239999999999999046e+09,7.188314672236177487e-06,1.892681638213728130e-04,-7.180680661927220099e-01,1.218394730773556325e-02,1.894046190147988425e-04,7.181714253976922979e-01
6.320000000000000000e+09,6.790108388119549325e-06,1.882574448583758007e-04,-7.179402881040940487e-01,1.246596444347972121e-02,1.883798585744421395e-04,7.180485064064234813e-01
6.400000000000000954e+09,6.102375173925102969e-06,1.862511781860100714e-04,-7.177935998987960975e-01,1.274760477763778148e-02,1.863511211622838923e-04,7.179067860685256486e-01
6.480000000000000000e+09,4.928877288155936360e-06,1.829698685340106108e-04,-7.176277075257921911e-01,1.302684345991377002e-02,1.830362440137876920e-04,7.177459336417399971e-01
6.560000000000000000e+09,2.964895235969720541e-06,1.781077353617777038e-04,-7.174425160066109086e-01,1.330169434042466695e-02,1.781324114232480716e-04,7.175658149927588436e-01
6.640000000000000000e+09,-2.324804149953901269e-07,1.713544435707399797e-04,-7.172381059770501777e-01,1.357020842069951889e-02,1.713546012763627919e-04,7.173664692624875938e-01
6.720000000000000000e+09,-5.272133231621142649e-06,1.624282017397542396e-04,-7.170147185042911042e-01,1.383047231479171864e-02,1.625137412935357588e-04,7.171480938524747994e-01
6.799999999999999046e+09,-1.295122330329567307e-05,1.511215249382831549e-04,-7.167727452649714781e-01,1.408060733163450130e-02,1.516754742360279301e-04,7.169110348275519184e-01
6.880000000000000000e+09,-2.426791420259751127e-05,1.373597987256268546e-04,-7.165127224861579380e-01,1.431876938095072958e-02,1.394870817161551790e-04,7.166557811398096556e-01
6.960000000000000954e+09,-4.042011901854547615e-05,1.212715448091550768e-04,-7.162353277308538546e-01,1.454314978621658316e-02,1.278302530775570671e-04,7.163829617567882835e-01
7.039999999999999046e+09,-6.278580213354566404e-05,1.032674666245619194e-04,-7.159413789977081555e-01,1.475197715948526993e-02,1.208562228956695420e-04,7.160933451661550819e-01
7.120000000000000000e+09,-9.288078184903046934e-05,8.412452843383650682e-05,-7.156318357424471532e-01,1.494352055439613497e-02,1.253147075211148427e-04,7.157878408681335181e-01
7.200000000000000000e+09,-1.322904889263747238e-04,6.506788893001846734e-05,-7.153078015215185159e-01,1.511609416272370263e-02,1.474266042143971102e-04,7.154675025605876648e-01
7.280000000000000000e+09,-1.825737025379465476e-04,4.784590721001108016e-05,-7.149705279139351166e-01,1.526806388101186081e-02,1.887389405903391849e-04,7.151335326777829016e-01
7.359999999999999046e+09,-2.474668775000370483e-04,3.856003789249375915e-05,-7.144742580777720953e-01,1.617358439342234805e-02,2.504530534489226245e-04,7.146572956934771348e-01
7.440000000000000000e+09,-3.210841416255161285e-04,2.883860341398820698e-05,-7.142620383316026222e-01,1.550396869761407233e-02,3.223766291936557048e-04,7.144302852252222280e-01
7.520000000000000000e+09,-4.110357988752766107e-04,3.355707205577441012e-05,-7.138941106938564429e-01,1.558498546149419961e-02,4.124033281170185698e-04,7.140642079359581507e-01
7.599999999999999046e+09,-5.149393560225341100e-04,5.307765960908155441e-05,-7.135195299706516003e-01,1.563959248429740850e-02,5.176676330721089250e-04,7.136909110410573076e-01
7.680000000000000000e+09,-6.318637874737538258e-04,9.202020113740713454e-05,-7.131403604764255943e-01,1.566659824149735022e-02,6.385292188600659056e-04,7.133124252674326593e-01
7.760000000000000954e+09,-7.597989030674896088e-04,1.553470593841956016e-04,-7.127588381640590498e-01,1.566495631430446164e-02,7.755172995890402977e-04,7.129309589555697935e-01
7.840000000000000000e+09,-8.954695186189989570e-04,2.481621205606529459e-04,-7.123773684987984023e-01,1.563379087333290757e-02,9.292201552145226825e-04,7.125488969652145066e-01
7.919999999999999046e+09,-1.034179990567514820e-03,3.754505060898501948e-04,-7.119985205233507752e-01,1.557242451073359742e-02,1.100223311611488132e-03,7.121687957447888628e-01
8.000000000000000000e+09,-1.169705515525465466e-03,5.417605933434473629e-04,-7.116250162954080860e-01,1.548040783881771652e-02,1.289075456887818797e-03,7.117933737007502426e-01
8.080000000000000000e+09,-1.294246940956711401e-03,7.508335926122802241e-04,-7.112597149268337082e-01,1.535755005911895558e-02,1.496270773613809797e-03,7.114254960441178666e-01
8.159999999999999046e+09,-1.398465777040453243e-03,1.005189747045737202e-03,-7.109055906079427833e-01,1.520394952781397441e-02,1.722240679208115631e-03,7.110681534416178895e-01
8.240000000000000000e+09,-1.471614786796887186e-03,1.305684705697613074e-03,-7.105657040967791049e-01,1.502002307808173766e-02,1.967349138158225059e-03,7.107244338925020610e-01
8.320000000000000954e+09,-1.501777479629162054e-03,1.651054249347736792e-03,-7.102431674398208550e-01,1.480653271699858449e-02,2.231886137913521948e-03,7.103974875420442370e-01
8.400000000000000000e+09,-1.476226816447922911e-03,2.037470047192549340e-03,-7.099411019729459094e-01,1.456460814115465192e-02,2.516054412529025470e-03,7.100904844319956277e-01
8.480000000000000000e+09,-1.381909359151508188e-03,2.458133798370124284e-03,-7.096625899996191755e-01,1.429576341050329061e-02,2.819945965368852048e-03,7.098065655489927961e-01
8.560000000000000000e+09,-1.206056164425354463e-03,2.902941023613931151e-03,-7.094106209665386187e-01,1.400190617017740141e-02,3.143507286189916629e-03,7.095487879748145765e-01
8.640000000000000000e+09,-9.369156702040664763e-04,3.358249378535653560e-03,-7.091880334072987457e-01,1.368533785041493693e-02,3.486495355153802246e-03,7.093200654148956730e-01
8.720000000000000000e+09,-5.645967541603750996e-04,3.806788849724635892e-03,-7.089974543355317405e-01,1.334874355622732781e-02,3.848429659120229749e-03,7.091231058206990401e-01
8.800000000000000000e+09,-8.200175783301411883e-05,4.227752703590771134e-03,-7.088412382073592255e-01,1.299517070467401218e-02,4.228547884440565091e-03,7.089603482882422814e-01
8.880000000000000000e+09,5.141804209285101871e-04,4.597107704584618530e-03,-7.087214078658200522e-01,1.262799594357825149e-02,4.625773530212809979e-03,7.088339017349982729e-01
8.959999999999998093e+09,1.222462412491003708e-03,4.888160062624433318e-03,-7.086396000951207252e-01,1.225088050447414000e-02,5.038702526225360100e-03,7.087454880957673176e-01
9.040000000000000000e+09,2.035581631932132773e-03,5.072408148808838987e-03,-7.085970184283251205e-01,1.186771483422576282e-02,5.465612226307478734e-03,7.086963928092894216e-01
9.120000000000000000e+09,2.939626845282708716e-03,5.120704262027079949e-03,-7.085943956997821092e-01,1.148255396723935930e-02,5.904491352237640524e-03,7.086874252184456324e-01
9.200000000000000000e+09,3.913350868012962190e-03,5.004733698120177043e-03,-7.086319684666406715e-01,1.109954586598938149e-02,6.353083850011541009e-03,7.087188911347976905e-01
9.280000000000000000e+09,4.927766275122327788e-03,4.698799501748913282e-03,-7.087094648695076993e-01,1.072285539848896393e-02,6.808935101751874622e-03,7.087905792429247676e-01
9.360000000000000000e+09,5.946132167033553462e-03,4.181874033418302335e-03,-7.088261067902906776e-01,1.035658707966592533e-02,7.269426262038112402e-03,7.089017622798092777e-01
9.440000000000000000e+09,6.924445603220452314e-03,3.439843700146265771e-03,-7.089806263563513955e-01,1.000470984400339547e-02,7.731783209156540063e-03,7.090512130782281597e-01
9.520000000000000000e+09,7.812547024026433168e-03,2.467830939468590445e-03,-7.091712959661854443e-01,9.670987043548120651e-03,8.193050747335983361e-03,7.092372346491373492e-01
9.600000000000000000e+09,8.555930590356367743e-03,1.272430234120333105e-03,-7.093959702893652963e-01,9.358914582280521838e-03,8.650030460507026134e-03,7.094577027173279982e-01
9.680000000000000000e+09,9.098313024769363877e-03,-1.263539547657222678e-04,-7.096521378863027696e-01,9.071669529212334632e-03,9.099190360607517861e-03,7.097101182839704592e-01
9.760000000000000000e+09,9.384954468283839696e-03,-1.693722230880522969e-03,-7.099369797163420648e-01,8.812070920296901158e-03,9.536564652281224672e-03,7.099916673896012886e-01
9.840000000000000000e+09,9.366640486252438350e-03,-3.379531000413764797e-03,-7.102474314549133139e-01,8.582553567532328134e-03,9.957669595917558944e-03,7.102992848891523936e-01
9.920000000000000000e+09,9.004128157586726786e-03,-5.118861649706237318e-03,-7.105802465012822644e-01,8.385154984752734783e-03,1.035746438406038618e-02,7.106297190112030870e-01
1.000000000000000000e+10,8.092387810652388463e-03,-6.806604401976296820e-03,-7.109320567711746586e-01,8.221514646293696590e-03,1.057433704602791895e-02,7.109795936930763949e-01
1.008000000000000000e+10,7.166667691067087065e-03,-8.437635988677982118e-03,-7.112994287411062988e-01,8.092884222764886240e-03,1.107044835910536880e-02,7.113454660728970591e-01
1.016000000000000000e+10,5.702468981782341656e-03,-9.838314843894009273e-03,-7.116789127443921004e-01,8.000146849208503511e-03,1.137148149784252688e-02,7.117238770721753260e-01
1.024000000000000000e+10,3.921171405521518480e-03,-1.094623806487008896e-02,-7.120670841276678376e-01,7.943843259506488258e-03,1.162736913339773928e-02,7.121113936343180795e-01
1.032000000000000000e+10,1.888470945764243562e-03,-1.168070537695772154e-02,-7.124605755327408918e-01,7.924202410837860241e-03,1.183237933030735489e-02,7.125046418601722609e-01
1.040000000000000000e+10,-3.073784051438811955e-04,-1.197752980811010379e-02,-7.128561001214648307e-01,7.941174374417946796e-03,1.198147327285400444e-02,7.129003308533591321e-01
1.048000000000000000e+10,-2.560136396160947545e-03,-1.179595310589406573e-02,-7.132504660740996982e-01,7.994463413189429116e-03,1.207057612723600772e-02,7.132952676137598313e-01
1.056000000000000000e+10,-4.752449142918885663e-03,-1.112412419504633931e-02,-7.136405830101306691e-01,8.083559519692773768e-03,1.209677279123840682e-02,7.136863636455075266e-01
1.064000000000000000e+10,-6.764511954938517979e-03,-9.982314452829718979e-03,-7.140234612123447233e-01,8.207766951375998835e-03,1.205840884294769738e-02,7.140706341812306235e-01
1.072000000000000000e+10,-8.483693454460596375e-03,-8.423255047093331990e-03,-7.143962045625426027e-01,8.366228669030794166e-03,1.195509432073377058e-02,7.144451909527481659e-01
1.080000000000000000e+10,-9.814074416307275867e-03,-6.529322841253428628e-03,-7.147559981159660181e-01,8.557945696003823113e-03,1.178762543577504228e-02,7.148072294523094561e-01
1.088000000000000000e+10,-1.068479142615004311e-02,-4.406716658099025553e-03,-7.151000910868993143e-01,8.781790553828387053e-03,1.155785099078098128e-02,7.151540114673362591e-01
1.096000000000000000e+10,-1.105618930142866427e-02,-2.177180904324765159e-03,-7.154257760760637241e-01,9.036513871321077279e-03,1.126851536623978134e-02,7.154828437195295265e-01
1.104000000000000000e+10,-1.092306028592531474e-02,3.183144133778000235e-05,-7.157303653017367262e-01,9.320743039394554716e-03,1.092310666663181759e-02,7.157910533568884182e-01
1.112000000000000191e+10,-1.031462978209793553e-02,2.097470506794520129e-03,-7.160111648896546610e-01,9.632971613737767794e-03,1.052572895663832740e-02,7.160759613258577128e-01
1.120000000000000000e+10,-9.291365016729644793e-03,3.911164621643135365e-03,-7.162654485706249075e-01,9.971537812736500431e-03,1.008100553376002975e-02,7.163348549264019205e-01
1.128000000000000000e+10,-7.939059636302000719e-03,5.386681665107730110e-03,-7.164904328500144581e-01,1.033459028866535144e-02,9.594008925885333036e-03,7.165649615506158865e-01
1.135999999999999809e+10,-6.360927931820844171e-03,6.465852185929163790e-03,-7.166832565607592631e-01,1.072003920596369120e-02,9.070206648368247040e-03,7.167634264351889772e-01
1.143999999999999809e+10,-4.690930157253002560e-03,7.105920249364802189e-03,-7.168519426295263397e-01,1.107809031272213342e-02,8.514630252134171642e-03,7.169375368445305430e-01
1.152000000000000000e+10,-2.972916208782222340e-03,7.357813115038476515e-03,-7.169605316704105169e-01,1.154816441830022571e-02,7.935719540172287909e-03,7.170535294345532495e-01
1.160000000000000000e+10,-1.375420532935178871e-03,7.207391338220082641e-03,-7.170388427855384217e-01,1.198479117391794413e-02,7.337456749083402091e-03,7.171389943955819302e-01
1.168000000000000191e+10,3.884804860708294949e-05,6.726985301206201036e-03,-7.170727907532996603e-01,1.243149743496046143e-02,6.727097473169602916e-03,7.171805416819400092e-01
1.176000000000000000e+10,1.206659602970022119e-03,5.990889130515742421e-03,-7.170593506510651860e-01,1.288367710502205839e-02,6.111201188929344524e-03,7.171750842659508907e-01
1.184000000000000000e+10,2.089734109860720990e-03,5.083588817084087018e-03,-7.169957339010863961e-01,1.333586349669010733e-02,5.496350053544421174e-03,7.171197443158010554e-01
1.191999999999999809e+10,2.675571050570657323e-03,4.092016751647186736e-03,-7.168796032817845720e-01,1.378161722986659746e-02,4.889098234072717514e-03,7.170120630609497780e-01
1.200000000000000000e+10,2.976015507059698306e-03,3.098117813126972063e-03,-7.167093613319680534e-01,1.421345502617645321e-02,4.295928570434388166e-03,7.168502848745048617e-01
1.208000000000000000e+10,3.023768267956339871e-03,2.172347980627467069e-03,-7.164845124728188575e-01,1.462285318514736435e-02,3.723206989577119638e-03,7.166337170749693675e-01
1.216000000000000000e+10,2.832638190116620967e-03,1.302587234569241434e-03,-7.162112218989576951e-01,1.503987684748167922e-02,3.117783286209917151e-03,7.163691173337843887e-01
1.224000000000000191e+10,2.564020109130194652e-03,7.214293364045903760e-04,-7.158770802527818500e-01,1.533590878556425480e-02,2.663580186037052978e-03,7.160413285066211664e-01
1.232000000000000000e+10,2.174372361278821032e-03,2.446205656685997154e-04,-7.155028835286172395e-01,1.561922252445312187e-02,2.188089209022626297e-03,7.156733447949800153e-01
1.239999999999999809e+10,1.730948043786322173e-03,-8.934180940387568062e-05,-7.150040038203888670e-01,1.571632385789749342e-02,1.733252171265120154e-03,7.151767112502985801e-01
1.247999999999999809e+10,1.332080152752948120e-03,-2.502290281848519463e-04,-7.145811798281647143e-01,1.585788021508989856e-02,1.355378950664592802e-03,7.147571160397971912e-01
1.256000000000000000e+10,9.940112524513223732e-04,-2.855394857815053179e-04,-7.142043102226652840e-01,1.607170358211000225e-02,1.034210407963588943e-03,7.143851177037944256e-01
1.264000000000000000e+10,7.060850857682965040e-04,-2.581266494101319134e-04,-7.137520998232257385e-01,1.607802735743541628e-02,7.517882118523299285e-04,7.139331642148097901e-01
1.272000000000000000e+10,5.088862425885971657e-04,-1.987768022272145174e-04,-7.132283887239477815e-01,1.583554582983709089e-02,5.463308750195413439e-04,7.134041624447446939e-01
1.280000000000000191e+10,3.444141780829529246e-04,-8.707254285233415221e-05,-7.129268118299526558e-01,1.582253750018351376e-02,3.552502692234413804e-04,7.131023711354249617e-01
1.288000000000000000e+10,2.499430223774554410e-04,5.563670225917287208e-06,-7.125766940753646139e-01,1.560237525484659167e-02,2.500049376743586371e-04,7.127474861779372617e-01
