# Frequency, Real(S21), Imag(S21), Real(S11), Imag(S11), Amp(S21), Amp(S11)
4.000000000000000000e+09,2.093013215920573924e-06,1.410743562657421795e-04,-7.187525595565504855e-01,6.643015324071341321e-03,1.410898816361951782e-04,7.187832576804279450e-01
4.080000000000000000e+09,1.947557611622834622e-06,1.437448830958365400e-04,-7.187661801741219714e-01,6.796165573312669753e-03,1.437580759362280238e-04,7.187983094224681402e-01
4.160000000000000477e+09,2.324578138573669418e-06,1.447103210956214342e-04,-7.187617031414612612e-01,6.949980601316167565e-03,1.447289905137191151e-04,7.187953033605414266e-01
4.240000000000000000e+09,1.392596150084952984e-06,1.442269993362979151e-04,-7.187080093667521652e-01,7.103862411440016456e-03,1.442337223453298858e-04,7.187431165507466302e-01
4.320000000000000000e+09,3.136757472694497639e-06,1.428416179138067071e-04,-7.187493788421835950e-01,7.262894359625514905e-03,1.428760548716139856e-04,7.187860733351084663e-01
4.400000000000000000e+09,3.043056664876846705e-05,1.413562076343469242e-04,-7.187265955214058311e-01,7.421047047203544952e-03,1.445945947237646252e-04,7.187649066621625282e-01
4.480000000000000000e+09,4.137486450604105129e-06,1.397111356879200380e-04,-7.187203890632776204e-01,7.582399774004607886e-03,1.397723872205713382e-04,7.187603845800086821e-01
4.560000000000000000e+09,3.831607828341571011e-06,1.391124998442012863e-04,-7.187294101714559735e-01,7.747158079689562757e-03,1.391652572715370954e-04,7.187711621258331407e-01
4.640000000000000000e+09,4.096834961659355409e-06,1.396215632578068073e-04,-7.187066762000969833e-01,7.911783645378841004e-03,1.396816558580861900e-04,7.187502227721688230e-01
4.720000000000000000e+09,4.018875748920512506e-06,1.413889896254172265e-04,-7.186990720564547797e-01,8.080138280035649781e-03,1.414460948544766367e-04,7.187444920202405996e-01
4.800000000000000000e+09,3.993970116612684150e-06,1.443615848248122710e-04,-7.187029819388989216e-01,8.252390197173397474e-03,1.444168237097875744e-04,7.187503587420542850e-01
4.880000000000000000e+09,4.046288088859177391e-06,1.482306183200700941e-04,-7.186922545948178920e-01,8.426315674963821140e-03,1.482858343027018287e-04,7.187416501152807946e-01
4.960000000000000000e+09,3.321161559369036650e-06,1.526719694451430880e-04,-7.186279223054157228e-01,8.602631630362303494e-03,1.527080887456919633e-04,7.186794111340371050e-01
5.040000000000000000e+09,3.806558185189278347e-06,1.574464209410883519e-04,-7.186746691609230409e-01,8.783291867567703803e-03,1.574924295081373785e-04,7.187283397150783237e-01
5.120000000000000000e+09,4.828768756270837085e-06,1.621707480479900342e-04,-7.186390295895797031e-01,8.968101282905486388e-03,1.622426224213174991e-04,7.186949851571758918e-01
5.200000000000000000e+09,4.818466481851515836e-06,1.666281135611639627e-04,-7.186381744720584663e-01,9.156100211555256302e-03,1.666977679760256481e-04,7.186965006034304881e-01
5.280000000000000000e+09,5.192381357170527708e-06,1.706535635741129083e-04,-7.186243281106051706e-01,9.349402385378948951e-03,1.707325381545711355e-04,7.186851440494526067e-01
5.360000000000000000e+09,5.583887733759040084e-06,1.741778153134940688e-04,-7.186088931478101793e-01,9.547856297222823141e-03,1.742672979924945076e-04,7.186723195386012231e-01
5.440000000000000000e+09,5.969160351103501728e-06,1.772013755878613353e-04,-7.185915313512767355e-01,9.752054524021556633e-03,1.773018848899455136e-04,7.186577012021874156e-01
5.520000000000000000e+09,6.328992473128717668e-06,1.797739487598930383e-04,-7.185717863672583805e-01,9.962687732213697245e-03,1.798853212423114144e-04,7.186408472316908602e-01
5.600000000000000000e+09,6.649537358474497504e-06,1.819700637370781366e-04,-7.185490234552013300e-01,1.018055758124085039e-02,1.820915166710355743e-04,7.186211400043059916e-01
5.680000000000000000e+09,6.921668387511772157e-06,1.838667880333340397e-04,-7.185223318274863713e-01,1.040657254069216921e-02,1.839970250709550847e-04,7.185976886178059297e-01
5.760000000000000000e+09,7.139569586839625439e-06,1.855263979952588593e-04,-7.184903768070166619e-01,1.064168524643053018e-02,1.856637223772606305e-04,7.185691804058763621e-01
5.840000000000000954e+09,7.299229803215692851e-06,1.869850180189900810e-04,-7.184512366567473718e-01,1.088668401334368097e-02,1.871274317658482662e-04,7.185337148265319440e-01
5.920000000000000000e+09,7.397434264937947842e-06,1.882465238871645116e-04,-7.184024106091444484e-01,1.114178521030485466e-02,1.883918145496371512e-04,7.184888050253130931e-01
6.000000000000000000e+09,7.431028375676852803e-06,1.892795624414055577e-04,-7.183412218558136164e-01,1.140628485813544556e-02,1.894253756515479640e-04,7.184317743192933925e-01
6.080000000000000000e+09,7.395021877739616444e-06,1.900152331543201263e-04,-7.182653574022623832e-01,1.167866637672862126e-02,1.901590786138355137e-04,7.183602960162390749e-01
6.160000000000000000e+09,7.277291702108351976e-06,1.903443236027714839e-04,-7.181730817575689985e-01,1.195698983778595986e-02,1.904833864207431673e-04,7.182726118731973530e-01
6.239999999999999046e+09,7.048308867245880967e-06,1.901144069159610124e-04,-7.180631691749389534e-01,1.223917745429069052e-02,1.902450166887314435e-04,7.181674682066255810e-01
6.320000000000000000e+09,6.645344228567228806e-06,1.891279919914109510e-04,-7.179347810984166856e-01,1.252313702064875717e-02,1.892447039011114769e-04,7.180439950808511496e-01
6.400000000000000954e+09,5.951319349411519818e-06,1.871432625056200180e-04,-7.177873738934961168e-01,1.280680246231511235e-02,1.872378671723379619e-04,7.179016146452313896e-01
6.480000000000000000e+09,4.769075815168915991e-06,1.838794684264883998e-04,-7.176206399509771350e-01,1.308814400290595620e-02,1.839413031185186949e-04,7.177399824428695174e-01
6.560000000000000000e+09,2.792470197287338289e-06,1.790293092779826829e-04,-7.174344709387499019e-01,1.336516892047932316e-02,1.790510862026653983e-04,7.175589507709014825e-01
6.640000000000000000e+09,-4.235400673535558115e-07,1.722807100323430580e-04,-7.172289344985204318e-01,1.363592005031979623e-02,1.722812306533620099e-04,7.173585454969514386e-01
6.720000000000000000e+09,-5.490925383136766686e-06,1.633500360129223666e-04,-7.170042591874928872e-01,1.389847429621578201e-02,1.634422972396870448e-04,7.171389511669046257e-01
6.799999999999999046e+09,-1.321114893949588802e-05,1.520280150865797875e-04,-7.167608247722884185e-01,1.415094176017775429e-02,1.526009561813649847e-04,7.169005015209231058e-01
6.880000000000000000e+09,-2.458815540086218415e-05,1.382386859860183694e-04,-7.164991562740743447e-01,1.439146569539563082e-02,1.404083747116173270e-04,7.166436738200666623e-01
6.960000000000000954e+09,-4.082733748306382744e-05,1.221102505277175845e-04,-7.162199208518618132e-01,1.461822335079825293e-02,1.287547465917196477e-04,7.163690860715452580e-01
7.039999999999999046e+09,-6.331602139045467608e-05,1.040536404378490084e-04,-7.159239269998097788e-01,1.482942788493768309e-02,1.218034426980029296e-04,7.160774966316310053e-01
7.120000000000000000e+09,-9.358120260391590063e-05,8.484932612053438627e-05,-7.156121256768277483e-01,1.502333151987290255e-02,1.263204244130930454e-04,7.157698058074704051e-01
7.200000000000000000e+09,-1.332212630751317378e-04,6.572840811645990259e-05,-7.152856130612956775e-01,1.519823027488722764e-02,1.485534535743190802e-04,7.154470591566940429e-01
7.280000000000000000e+09,-1.838092211036255628e-04,4.844903552219076252e-05,-7.149456346119670291e-01,1.535247053781868022e-02,1.900871873792444970e-04,7.151104521696790561e-01
7.359999999999999046e+09,-2.479850387414245022e-04,3.746457191099964324e-05,-7.145203678868063957e-01,1.585514487951071236e-02,2.507990701499115504e-04,7.146962583813122327e-01
7.440000000000000000e+09,-3.232114202361337121e-04,2.941222782576789025e-05,-7.142310387390332638e-01,1.559266803859055660e-02,3.245469169730834488e-04,7.144012233995684635e-01
7.520000000000000000e+09,-4.137772549518776901e-04,3.420613903712995795e-05,-7.138597051985934305e-01,1.567566145514430812e-02,4.151887241524493052e-04,7.140317955583483922e-01
7.599999999999999046e+09,-5.184205405696886348e-04,5.390550407623543022e-05,-7.134814836566775176e-01,1.573209967715866534e-02,5.212155602572521610e-04,7.136549071373262665e-01
7.680000000000000000e+09,-6.362136780926205219e-04,9.317164933554742800e-05,-7.130984414098667790e-01,1.576076557277607260e-02,6.429998448149477084e-04,7.132725908603394505e-01
7.760000000000000954e+09,-7.651417671101510068e-04,1.570155176582981038e-04,-7.127128199595925695e-01,1.576058619913053502e-02,7.810862926475843973e-04,7.128870596469645271e-01
7.840000000000000000e+09,-9.019141090847472824e-04,2.505957554505421243e-04,-7.123270331736610839e-01,1.573065850819331188e-02,9.360808153231008587e-04,7.125007058291883411e-01
7.919999999999999046e+09,-1.041805965250400690e-03,3.789568896560334757e-04,-7.119436616420647956e-01,1.567027743797185652e-02,1.108588288522431619e-03,7.121160965371403639e-01
8.000000000000000000e+09,-1.178547129403237316e-03,5.467089585414024178e-04,-7.115654424006404577e-01,1.557896586835080983e-02,1.299178210090530918e-03,7.117359643831036031e-01
8.080000000000000000e+09,-1.304274258236460659e-03,7.576538577783256418e-04,-7.111952532205186861e-01,1.545650562358597858e-02,1.508366901289155421e-03,7.113631925883497908e-01
8.159999999999999046e+09,-1.409563864251982225e-03,1.014367347848117891e-03,-7.108360908371422759e-01,1.530296852810279946e-02,1.736609168404165031e-03,7.110007938690379170e-01
8.240000000000000000e+09,-1.483561588917742908e-03,1.317750366192955427e-03,-7.104910425737841484e-01,1.511874632491063894e-02,1.984293581029230192e-03,7.106518824769407772e-01
8.320000000000000954e+09,-1.514221365307128787e-03,1.666567781224211064e-03,-7.101632511073241449e-01,1.490457802155730795e-02,2.251735888723891722e-03,7.103196390846342467e-01
8.400000000000000000e+09,-1.488665025944880919e-03,2.056997461002257714e-03,-7.098558723940584514e-01,1.466157309545890533e-02,2.539165633439695140e-03,7.100072684824876301e-01
8.480000000000000000e+09,-1.393668909697409666e-03,2.482217134224951136e-03,-7.095720271359255982e-01,1.439122892325256538e-02,2.846702466240034861e-03,7.097179504308089859e-01
8.560000000000000000e+09,-1.216279018271687563e-03,2.932060607112823344e-03,-7.093147466005264024e-01,1.409544071978275671e-02,3.174321038280589116e-03,7.094547844606122755e-01
8.640000000000000000e+09,-9.445502635151153828e-04,3.392778524859627054e-03,-7.090869140349844724e-01,1.377650245288135171e-02,3.521806541968928225e-03,7.092207298687001060e-01
8.720000000000000000e+09,-5.683982140462814740e-04,3.846941556388450492e-03,-7.088912033698139270e-01,1.343709736381587354e-02,3.888706194610155702e-03,7.090185426352878517e-01
8.800000000000000000e+09,-8.054334327674712033e-05,4.273525318492683855e-03,-7.087300173492945277e-01,1.308027711314704682e-02,4.274284253292496075e-03,7.088507114627791150e-01
8.880000000000000000e+09,5.224820119278018480e-04,4.648216433299478915e-03,-7.086054274877076065e-01,1.270942906756633746e-02,4.677489012663038973e-03,7.087193954254817907e-01
8.959999999999998093e+09,1.239305239508238770e-03,4.943976818212626224e-03,-7.085191185516850343e-01,1.232823182480850648e-02,5.096938714139734837e-03,7.086263660443230528e-01
9.040000000000000000e+09,2.062717757502733219e-03,5.131898388233111646e-03,-7.084723402351597032e-01,1.194059978840304216e-02,5.530929905022003920e-03,7.085729565835763299e-01
9.120000000000000000e+09,2.978780654768600333e-03,5.182371440889912972e-03,-7.084658685765881092e-01,1.155061825027199271e-02,5.977466682514846578e-03,7.085600212543344822e-01
9.200000000000000000e+09,3.966115303755292712e-03,5.066576252108050300e-03,-7.084999793002094703e-01,1.116247119812790317e-02,6.434303810134177348e-03,7.085879066366050916e-01
9.280000000000000000e+09,4.995477089713992215e-03,4.758287356887658248e-03,-7.085744347155249478e-01,1.078036453481411895e-02,6.898991949884730052e-03,7.086564370637785659e-01
9.360000000000000000e+09,6.029722212176466013e-03,4.235952762449275884e-03,-7.086884850833917726e-01,1.040844785834591640e-02,7.368910758159302049e-03,7.087649149588407527e-01
9.440000000000000000e+09,7.024283632680898212e-03,3.484975041370271757e-03,-7.088408845507025990e-01,1.005073812090630063e-02,7.841276145585137150e-03,7.089121362675331328e-01
9.520000000000000000e+09,7.928268697722933717e-03,2.500078544307847254e-03,-7.090299208653055851e-01,9.711048422829450175e-03,8.313112369684518346e-03,7.090964202023106733e-01
9.600000000000000000e+09,8.686273131121852523e-03,1.287598386850838080e-03,-7.092534573306470413e-01,9.392924905863870438e-03,8.781187306638568030e-03,7.093156517191504529e-01
9.680000000000000000e+09,9.240969085848284997e-03,-1.325232012185728961e-04,-7.095089846549540447e-01,9.099594169150019424e-03,9.241919283593906520e-03,7.095673343102449904e-01
9.760000000000000000e+09,9.536464387532849266e-03,-1.725292141804184512e-03,-7.097936799538466790e-01,8.833922971202053803e-03,9.691273703144161200e-03,7.098486502751729654e-01
9.840000000000000000e+09,9.515229334468834621e-03,-3.436722350261905545e-03,-7.101018174586509746e-01,8.523260147140070478e-03,1.011684979627185815e-02,7.101529674102722289e-01
9.920000000000000000e+09,9.158209948831950997e-03,-5.211046336591031516e-03,-7.104380939159347097e-01,8.395077598809346647e-03,1.053697363520395870e-02,7.104876934998919369e-01
1.000000000000000000e+10,8.418361505267963826e-03,-6.959261432814138268e-03,-7.107911673544762277e-01,8.225659462665683291e-03,1.092245989343205471e-02,7.108387616490358107e-01
1.008000000000000000e+10,7.296242499177933022e-03,-8.595954793850999962e-03,-7.111602371894016894e-01,8.091421691584209722e-03,1.127499859976666477e-02,7.112062668904690632e-01
1.016000000000000000e+10,5.808049595219324374e-03,-1.002763954216170927e-02,-7.115418330547996772e-01,7.993276532592071687e-03,1.158822656354510823e-02,7.115867288368374899e-01
1.024000000000000000e+10,3.994958796873596465e-03,-1.116248452829853022e-02,-7.119325092499020347e-01,7.931789834378517520e-03,1.185583217801356067e-02,7.119766927483220931e-01
1.032000000000000000e+10,1.923407890756758309e-03,-1.191766154593250013e-02,-7.123288779139763660e-01,7.907212111013467784e-03,1.207187452873925357e-02,7.123727635961057958e-01
1.040000000000000000e+10,-3.169755670791437815e-04,-1.222699540947974096e-02,-7.127276330179863617e-01,7.919512020766407770e-03,1.223110339477039184e-02,7.127716307051429334e-01
1.048000000000000000e+10,-2.617972650441689753e-03,-1.204808482212709961e-02,-7.131255654930951371e-01,7.968410182890468818e-03,1.232923877129606452e-02,7.131700833045996335e-01
1.056000000000000000e+10,-4.859745580651568878e-03,-1.136798043221681070e-02,-7.135195701305773186e-01,8.053411540755402165e-03,1.236317540989881683e-02,7.135650176380345933e-01
1.064000000000000000e+10,-6.919671664222106638e-03,-1.020656513513788430e-02,-7.139066451537472435e-01,8.173834836933792716e-03,1.233109191428117396e-02,7.139534365563483531e-01
1.072000000000000000e+10,-8.682195320036877398e-03,-8.616994531073701724e-03,-7.142838853584762004e-01,8.328838052306006615e-03,1.223246133547228193e-02,7.143324425126597044e-01
1.080000000000000000e+10,-1.004862605968540913e-02,-6.682904028242429156e-03,-7.146484697518283857e-01,8.517438874381208502e-03,1.206797795565137804e-02,7.146992249076591364e-01
1.088000000000000000e+10,-1.094573987848863027e-02,-4.512515787533576475e-03,-7.149976444670865794e-01,8.738529339447789410e-03,1.183942651568377531e-02,7.150510425756322341e-01
1.096000000000000000e+10,-1.134540151109902570e-02,-2.241978085721622882e-03,-7.153538113799590148e-01,9.002882037883304378e-03,1.156480009273416071e-02,7.154104607432170138e-01
1.104000000000000000e+10,-1.120172581964553986e-02,3.353787737606442072e-05,-7.156389555430393568e-01,9.273159145845531401e-03,1.120177602560113936e-02,7.156990332334370875e-01
1.112000000000000191e+10,-1.058361383500813074e-02,2.152712467145374235e-03,-7.159257152356756082e-01,9.583885835821676080e-03,1.080032651241519780e-02,7.159898606847918678e-01
1.120000000000000000e+10,-9.539078402261062448e-03,4.015708387757827361e-03,-7.161862577684189324e-01,9.921448397555057697e-03,1.034987587461762976e-02,7.162549762163175071e-01
1.128000000000000000e+10,-8.155476089003334261e-03,5.533622732314039463e-03,-7.164178010306774258e-01,1.028405322031779312e-02,9.855595912063756098e-03,7.164916101283179684e-01
1.135999999999999809e+10,-6.538202127044445179e-03,6.646170258943350992e-03,-7.166174806261574881e-01,1.066968177391639308e-02,9.323071712957679488e-03,7.166969064033539283e-01
1.143999999999999809e+10,-4.801490151332775576e-03,7.324789970553556746e-03,-7.167823340959873502e-01,1.107602721898450285e-02,8.758245017471686863e-03,7.168679047432987561e-01
1.152000000000000000e+10,-3.059009615065575415e-03,7.572853301284043770e-03,-7.169092979292759349e-01,1.150041285360252179e-02,8.167352505422567632e-03,7.170015348332601235e-01
1.160000000000000000e+10,-1.415122718925050779e-03,7.423173617721197035e-03,-7.169952244614470338e-01,1.193969183052672606e-02,7.556856414439130400e-03,7.170946298373239713e-01
1.168000000000000191e+10,4.248920785837064472e-05,6.933240699489251480e-03,-7.170369277443912059e-01,1.239012937199651665e-02,6.933370892274452572e-03,7.171439681507264519e-01
1.176000000000000000e+10,1.248309749721586643e-03,6.178752363845092105e-03,-7.170312694313367707e-01,1.284727177125666309e-02,6.303590881788829862e-03,7.171463544732544770e-01
1.184000000000000000e+10,2.162260694958853535e-03,5.246095524814771600e-03,-7.169752970925681312e-01,1.330581096709084442e-02,5.674230306257009929e-03,7.170987527854641996e-01
1.191999999999999809e+10,2.770633434300270002e-03,4.224454823405551090e-03,-7.168664475320186691e-01,1.375945998980651966e-02,5.051972702049857544e-03,7.169984841939259779e-01
1.200000000000000000e+10,3.084721742914650709e-03,3.198213903938338775e-03,-7.167028251706939468e-01,1.420086272272182842e-02,4.443431152449074488e-03,7.168435004306894509e-01
1.208000000000000000e+10,3.137359994109206567e-03,2.240274022671128427e-03,-7.164835588403039024e-01,1.462157092907130640e-02,3.855107706574746173e-03,7.166327374777829995e-01
1.216000000000000000e+10,2.977724852062168821e-03,1.406849387667942399e-03,-7.162092275783080719e-01,1.501213005785354167e-02,3.293337288248856121e-03,7.163665414556925626e-01
1.224000000000000191e+10,2.664910613784430768e-03,7.342013980252799169e-04,-7.158823260454717508e-01,1.536231992562544883e-02,2.764199752608915029e-03,7.160471392427821824e-01
1.232000000000000000e+10,2.260934927175836575e-03,2.376288626699106944e-04,-7.155077135893432860e-01,1.566159157269030738e-02,2.273388268927549385e-03,7.156790996364498225e-01
1.239999999999999809e+10,1.823952086459679905e-03,-8.717968670424029211e-05,-7.150929620250290331e-01,1.589972158925996235e-02,1.826034367550202764e-03,7.152697012206973293e-01
1.247999999999999809e+10,1.377020388849029215e-03,-2.747310342390350650e-04,-7.145301249128591659e-01,1.595758888175140625e-02,1.404158927073421255e-03,7.147082929775652183e-01
1.256000000000000000e+10,1.030219293575871916e-03,-3.151288946365041156e-04,-7.141889072553053719e-01,1.616452426031598361e-02,1.077338393027368847e-03,7.143718129175377074e-01
1.264000000000000000e+10,7.309979645926697849e-04,-2.831430150277594419e-04,-7.137248893607269773e-01,1.616857584002705239e-02,7.839183574822292415e-04,7.139080056545636932e-01
1.272000000000000000e+10,5.230163753756776526e-04,-2.216251217997399782e-04,-7.131746150038349441e-01,1.595563557237256180e-02,5.680350548371652366e-04,7.133530779301274771e-01
1.280000000000000191e+10,3.514501417015643866e-04,-1.038801453348553580e-04,-7.128605802109654332e-01,1.595087638986080608e-02,3.664809499780859701e-04,7.130390152553497396e-01
1.288000000000000000e+10,2.534726155809038798e-04,-5.732094744927932351e-06,-7.124894116724408422e-01,1.573596846885372269e-02,2.535374208269649317e-04,7.126631619839723930e-01
