# Frequency, Real(S21), Imag(S21), Real(S11), Imag(S11), Amp(S21), Amp(S11)
4.000000000000000000e+09,7.576386301723848275e-06,1.442728328198903385e-04,-7.187441607508044950e-01,7.024955470866669702e-03,1.444716301537051699e-04,7.187784906441941901e-01
4.080000000000000000e+09,1.775126676664796720e-06,1.474269627267577509e-04,-7.187357459427379247e-01,7.187608178859504308e-03,1.474376492404671514e-04,7.187716843387730314e-01
4.160000000000000477e+09,2.059875010808197320e-05,1.476963248864699438e-04,-7.187301837244286506e-01,7.352174108540998620e-03,1.491258290538057289e-04,7.187677868829913663e-01
4.240000000000000000e+09,4.523238299459563093e-06,1.479881385280533608e-04,-7.187662755474025778e-01,7.520444584603078880e-03,1.480572484875766206e-04,7.188056176401480535e-01
4.320000000000000000e+09,1.100885971796344921e-05,1.459722661299089268e-04,-7.187180526405974046e-01,7.687399057601658828e-03,1.463868077095431335e-04,7.187591636255938887e-01
4.400000000000000000e+09,3.541271553685848845e-06,1.447588704046300838e-04,-7.187114219879754407e-01,7.858261906400869357e-03,1.448021794208962721e-04,7.187543811178942477e-01
4.480000000000000000e+09,1.305364795285588882e-05,1.427159376118591568e-04,-7.187152276597016387e-01,8.032439049722171417e-03,1.433116763327719025e-04,7.187601119615808498e-01
4.560000000000000000e+09,3.624938469163397219e-06,1.428435049525918123e-04,-7.187320176574912844e-01,8.209844871939406957e-03,1.428894925669705761e-04,7.187789053379555204e-01
4.640000000000000000e+09,5.548553126245868380e-06,1.432773289733535265e-04,-7.187167327826767815e-01,8.386090097788860900e-03,1.433847252657456076e-04,7.187656561696126323e-01
4.720000000000000000e+09,3.392672027598611227e-05,1.425695287993272394e-04,-7.187346251361753646e-01,8.569222527437940148e-03,1.465506495746341105e-04,7.187857072482474186e-01
4.800000000000000000e+09,2.798428244324981271e-06,1.485917065650980973e-04,-7.186709242211797299e-01,8.750875803339266609e-03,1.486180556344579974e-04,7.187241996400637323e-01
4.880000000000000000e+09,2.642209062981328253e-06,1.527193664115205360e-04,-7.186609425775556392e-01,8.938446971955199549e-03,1.527422212286725972e-04,7.187165270262895200e-01
4.960000000000000000e+09,2.600978870033970221e-06,1.574833136066060529e-04,-7.186501441831696368e-01,9.129631398151585517e-03,1.575047908972898136e-04,7.187081326268380810e-01
5.040000000000000000e+09,2.689471809303817118e-06,1.625351305125298485e-04,-7.186384151631686201e-01,9.324754765654178282e-03,1.625573803594845997e-04,7.186989096970095581e-01
5.120000000000000000e+09,2.900823294334851860e-06,1.675610198371375924e-04,-7.186256168313737147e-01,9.524186641002079998e-03,1.675861275423672157e-04,7.186887276821900539e-01
5.200000000000000000e+09,-3.607094376694436067e-05,1.767580921947776952e-04,-7.185974741341079053e-01,9.729414207816233437e-03,1.804010425152127142e-04,7.186633365719634625e-01
5.280000000000000000e+09,3.587949511089504824e-06,1.766510176584329297e-04,-7.185960834407564279e-01,9.937720899768475585e-03,1.766874512280204677e-04,7.186647962945424961e-01
5.360000000000000000e+09,3.994308897283240624e-06,1.804899164077580678e-04,-7.185788583643029082e-01,1.015286072501849109e-02,1.805341087674193772e-04,7.186505800937244004e-01
5.440000000000000000e+09,4.397682107696821655e-06,1.838361669055466681e-04,-7.185595427560481641e-01,1.037441112579976996e-02,1.838887594999878564e-04,7.186344306335371579e-01
5.520000000000000000e+09,4.772051412722560555e-06,1.867398106339974030e-04,-7.185376529176221716e-01,1.060312073994391924e-02,1.868007744906505273e-04,7.186158812813637775e-01
5.600000000000000000e+09,5.099440723195641168e-06,1.892752401365881110e-04,-7.185125188123994144e-01,1.083985734543671531e-02,1.893439220689496424e-04,7.185942820517068341e-01
5.680000000000000000e+09,5.369097851538701005e-06,1.915190812418048896e-04,-7.184831828287148170e-01,1.108560470289039236e-02,1.915943258331113963e-04,7.185686986219961270e-01
5.760000000000000000e+09,5.575466433362560509e-06,1.935329747434953946e-04,-7.184482464842022464e-01,1.134139980201539707e-02,1.936132695323747224e-04,7.185377583855243611e-01
5.840000000000000954e+09,5.715848674255007462e-06,1.953522123592986936e-04,-7.184057000656844938e-01,1.160812097735630134e-02,1.954358150384404805e-04,7.184994769375209200e-01
5.920000000000000000e+09,5.788583284546972238e-06,1.969794600338306491e-04,-7.183529248399589395e-01,1.188607119595530386e-02,1.970644954619213505e-04,7.184512532625988435e-01
6.000000000000000000e+09,5.791653165688041690e-06,1.983814398406045273e-04,-7.182870973558110883e-01,1.217461733205817478e-02,1.984659641339618131e-04,7.183902668710222539e-01
6.080000000000000000e+09,5.720333128717037949e-06,1.994861393038804636e-04,-7.182057372764428793e-01,1.247229013209451634e-02,1.995681387032276254e-04,7.183140253941433517e-01
6.160000000000000000e+09,5.561559952622036251e-06,2.001795037019788446e-04,-7.181069287090389164e-01,1.277717177384962190e-02,2.002567468313544105e-04,7.182205908900601843e-01
6.239999999999999046e+09,5.283290922799168584e-06,2.003019594384910086e-04,-7.179892573538063649e-01,1.308718161526025922e-02,2.003716250317739739e-04,7.181085210454623002e-01
6.320000000000000000e+09,4.818122373953418836e-06,1.996459963601803455e-04,-7.178516914552959260e-01,1.340019988860943236e-02,1.997041265619204059e-04,7.179767519093386285e-01
6.400000000000000954e+09,4.041133460317373062e-06,1.979564016960623724e-04,-7.176934925347918659e-01,1.371410847446466984e-02,1.979976457741275809e-04,7.178245091929063015e-01
6.480000000000000000e+09,2.742587932054049661e-06,1.949353639956442571e-04,-7.175141592171291327e-01,1.402680142127067479e-02,1.949546560733530381e-04,7.176512522354960844e-01
6.560000000000000000e+09,5.968149249530046866e-07,1.902548718923334492e-04,-7.173133929354422733e-01,1.433618619656441481e-02,1.902558079713280675e-04,7.174566397485068192e-01
6.640000000000000000e+09,-2.870560612741062290e-06,1.835791067673704831e-04,-7.170910768359212151e-01,1.464018283262091130e-02,1.836015483587680132e-04,7.172405087772675270e-01
6.720000000000000000e+09,-8.314045418858685308e-06,1.745991493601613644e-04,-7.168472626886780441e-01,1.493672315137694120e-02,1.747969859823640714e-04,7.170028617256359871e-01
6.799999999999999046e+09,-1.659457065044026946e-05,1.630813692998862776e-04,-7.165821629508194457e-01,1.522375066870404470e-02,1.639234967532060159e-04,7.167438586020096203e-01
6.880000000000000000e+09,-2.879610234466227253e-05,1.489315407787191554e-04,-7.162961464103065889e-01,1.549922128679268041e-02,1.516898788613385129e-04,7.164638129192236748e-01
6.960000000000000954e+09,-4.622795936857300361e-05,1.322704586068679277e-04,-7.159897365729005481e-01,1.576110486786073614e-02,1.401160178118604645e-04,7.161631904142988780e-01
7.039999999999999046e+09,-7.040745911482412605e-05,1.135216993709312300e-04,-7.156636123103377045e-01,1.600738778411426103e-02,1.335828826125178307e-04,7.158426101097589145e-01
7.120000000000000000e+09,-1.030180050987952419e-04,9.350744119193067009e-05,-7.153186104760804742e-01,1.623607667590501111e-02,1.391271035161652963e-04,7.155028474291743601e-01
7.200000000000000000e+09,-1.458387373182144266e-04,7.354281794452987827e-05,-7.149557302470788134e-01,1.644520368933132665e-02,1.633324320941600949e-04,7.151448391322678955e-01
7.280000000000000000e+09,-2.006423381617028576e-04,5.552462844938158373e-05,-7.145761389405136388e-01,1.663283357850690522e-02,2.081834100677500967e-04,7.147696898274175092e-01
7.359999999999999046e+09,-2.690596066834715131e-04,4.200426855190841262e-05,-7.141811789706129510e-01,1.679707301190951074e-02,2.723186194979058451e-04,7.143786797333905314e-01
7.440000000000000000e+09,-3.486621417947122193e-04,1.196863618357366446e-04,-7.137112000059094852e-01,1.704767512983910993e-02,3.686327635063802203e-04,7.139147709924538177e-01
7.520000000000000000e+09,-4.703619270170178142e-04,-2.652195023673408923e-04,-7.133514447553034321e-01,1.704809114538321374e-02,5.399830801267223790e-04,7.135551283160818103e-01
7.599999999999999046e+09,-5.664444870469508789e-04,6.451237429432206665e-05,-7.129203009134965630e-01,1.713141499516459762e-02,5.701063088082554626e-04,7.131261044403905958e-01
7.680000000000000000e+09,-6.963315228021707071e-04,1.084604949349977183e-04,-7.124810633223314094e-01,1.718447833761389473e-02,7.047277975286164340e-04,7.126882711878005372e-01
7.760000000000000954e+09,-8.390903488535040450e-04,1.797330711380323767e-04,-7.120360607614814041e-01,1.720583893195098274e-02,8.581238782365889451e-04,7.122439137810026022e-01
7.840000000000000000e+09,-9.912088305420714649e-04,2.842686158851528370e-04,-7.115878333201391959e-01,1.719421652092840980e-02,1.031166131969936959e-03,7.117955363803701863e-01
7.919999999999999046e+09,-1.147546441619263450e-03,4.279588245803985750e-04,-7.111391304373037014e-01,1.714852459108582097e-02,1.224749603473816078e-03,7.113458615432970422e-01
8.000000000000000000e+09,-1.301183196776675493e-03,6.162944745994834977e-04,-7.106929041861642649e-01,1.706790488928913371e-02,1.439755740046144835e-03,7.108978248931939747e-01
8.080000000000000000e+09,-1.443335827057073886e-03,8.539450237803312711e-04,-7.102522968216880006e-01,1.695176397753566516e-02,1.677033217710883041e-03,7.104545639535529977e-01
8.159999999999999046e+09,-1.563361229503076790e-03,1.144280556923777618e-03,-7.098206216557703119e-01,1.679981086556199890e-02,1.937389048917940743e-03,7.100194001384066977e-01
8.240000000000000000e+09,-1.648866531712097662e-03,1.488849628106000142e-03,-7.094013365047864283e-01,1.661209448864989918e-02,2.221583681636065798e-03,7.095958130640830364e-01
8.320000000000000954e+09,-1.685943056544489220e-03,1.886831430861364220e-03,-7.089980091246064209e-01,1.638903952314490695e-02,2.530323465171383738e-03,7.091874065147707462e-01
8.400000000000000000e+09,-1.659539457498655085e-03,2.334488496224692861e-03,-7.086142743740994066e-01,1.613147881783445065e-02,2.864246454130712181e-03,7.087978657244825564e-01
8.480000000000000000e+09,-1.553983647218802524e-03,2.824647492782798950e-03,-7.082537831484290169e-01,1.584068048556598260e-02,3.223894947777858951e-03,7.084309059480026205e-01
8.560000000000000000e+09,-1.353660150878404408e-03,3.346246241350512261e-03,-7.079201437522394391e-01,1.551836767081123634e-02,3.609675845810614379e-03,7.080902129427844027e-01
8.640000000000000000e+09,-1.043841576814294242e-03,3.883985790157314100e-03,-7.076168566942155902e-01,1.516672896426874730e-02,4.021809400708850971e-03,7.077793763209533351e-01
8.720000000000000000e+09,-6.116661546207401157e-04,4.418132554647477214e-03,-7.073472446402250258e-01,1.478841762553956794e-02,4.460272497857542887e-03,7.075018175213302341e-01
8.800000000000000000e+09,-4.724379442144885279e-05,4.924518085946749842e-03,-7.071143795881710270e-01,1.438653806130746164e-02,4.924744699466966115e-03,7.072607145160498821e-01
8.880000000000000000e+09,6.551376797316373762e-04,5.374785747581302398e-03,-7.069210100412450792e-01,1.396461856197191501e-02,5.414566207168147217e-03,7.070589261223674260e-01
8.959999999999998093e+09,1.495747871569182673e-03,5.736933121000542535e-03,-7.067694912030719756e-01,1.352656981112570697e-02,5.928715150025068090e-03,7.068989190728081073e-01
9.040000000000000000e+09,2.468147896819263346e-03,5.976195982315864186e-03,-7.066617213073571602e-01,1.307662962564705260e-02,6.465807951031458944e-03,7.067827011206790910e-01
9.120000000000000000e+09,3.557998334368075478e-03,6.056312079728690123e-03,-7.065990874675324163e-01,1.261929502656220642e-02,7.024120454151796915e-03,7.067117637459539026e-01
9.200000000000000000e+09,4.742036207896926057e-03,5.941190554816139918e-03,-7.065824238526434709e-01,1.215924376860287939e-02,7.601621708927771767e-03,7.066870374547002953e-01
9.280000000000000000e+09,5.987336758594093145e-03,5.596992552628488396e-03,-7.066119846819650663e-01,1.170124812007149358e-02,8.196006777388046768e-03,7.067088623356531096e-01
9.360000000000000000e+09,7.250995316508690447e-03,4.994599664287634189e-03,-7.066874337414849050e-01,1.125008429124033441e-02,8.804712311400817587e-03,7.067769757177193579e-01
9.440000000000000000e+09,8.480379457514708105e-03,4.112405711116567941e-03,-7.068078511766567873e-01,1.081044142354687862e-02,9.424898751512486919e-03,7.068905177810316243e-01
9.520000000000000000e+09,9.614107527750931706e-03,2.939321311143153724e-03,-7.069717573631835172e-01,1.038683403552498156e-02,1.005339113559685499e-02,7.070480549654808433e-01
9.600000000000000000e+09,1.058389952806808310e-02,1.477808537387503580e-03,-7.071771526044902112e-01,9.983521728639225754e-03,1.068657322500600124e-02,7.072476199125032892e-01
9.680000000000000000e+09,1.131741525320100090e-02,-2.532927560912100542e-04,-7.074215704867026222e-01,9.604439511971242516e-03,1.132024934503100821e-02,7.074867657053464098e-01
9.760000000000000000e+09,1.174213289472810125e-02,-2.216464953586237338e-03,-7.077021419831092119e-01,9.253141332493709098e-03,1.194949378877330388e-02,7.077626313899314514e-01
9.840000000000000000e+09,1.179022596726399773e-02,-4.354109878027306348e-03,-7.080156668149953925e-01,8.932758559704375573e-03,1.256852024659550933e-02,7.080720151446239230e-01
9.920000000000000000e+09,1.140426450940912675e-02,-6.588446996245315816e-03,-7.083586884192195621e-01,8.645974262315201525e-03,1.317060677504656649e-02,7.084114512978608724e-01
1.000000000000000000e+10,1.059029943027514457e-02,-8.829640189869151362e-03,-7.087275687822297554e-01,8.395013010320749244e-03,1.378829169641542646e-02,7.087772873021634945e-01
1.008000000000000000e+10,9.189548173485044547e-03,-1.094669093623638206e-02,-7.091185598805486157e-01,8.181645132492594563e-03,1.429257982612943366e-02,7.091657572698623069e-01
1.016000000000000000e+10,7.352806614661640955e-03,-1.283855836820873425e-02,-7.095278687931817485e-01,8.007203637198725271e-03,1.479501085117934135e-02,7.095730490261605850e-01
1.024000000000000000e+10,5.075453498445795658e-03,-1.437655367622510047e-02,-7.099517143577086520e-01,7.872611392950311024e-03,1.524616423302159983e-02,7.099953624704840038e-01
1.032000000000000000e+10,2.433574464400341513e-03,-1.544645151882264623e-02,-7.103863739378690756e-01,7.778415927512152481e-03,1.563698018151586308e-02,7.104289577649093301e-01
1.040000000000000000e+10,-4.642958775592930139e-04,-1.595225007825194427e-02,-7.108282196424299260e-01,7.724829184099711935e-03,1.595900539573214677e-02,7.108701926694844797e-01
1.048000000000000000e+10,-3.481970455868354814e-03,-1.582628657220944146e-02,-7.112737440280560985e-01,7.711769603681808798e-03,1.620479758964106856e-02,7.113155490597045105e-01
1.056000000000000000e+10,-6.463847625952888476e-03,-1.503790654278513300e-02,-7.117195757302562376e-01,7.738904398911467669e-03,1.636826072987221034e-02,7.117616490925535722e-01
1.064000000000000000e+10,-9.246085216616919955e-03,-1.359941249163955715e-02,-7.121624860686328606e-01,7.805690133589659845e-03,1.644488102573879798e-02,7.122052620992892491e-01
1.072000000000000000e+10,-1.166969290503273513e-02,-1.156823100636142007e-02,-7.125993875519295306e-01,7.911410359414616789e-03,1.643185020362324111e-02,7.126433031701483456e-01
1.080000000000000000e+10,-1.359412077203696681e-02,-9.044673073418042081e-03,-7.130273254254114734e-01,8.055209181558229195e-03,1.632808104370321589e-02,7.130728246106945445e-01
1.088000000000000000e+10,-1.490972694649628574e-02,-6.165257260290268014e-03,-7.134434631253709913e-01,8.236120349076246627e-03,1.613413631728204123e-02,7.134910011729139745e-01
1.096000000000000000e+10,-1.554758301439281704e-02,-3.092203891918296130e-03,-7.138450623520165017e-01,8.453091124473073592e-03,1.585209962429679972e-02,7.138951097982902949e-01
1.104000000000000000e+10,-1.548541685369089413e-02,-2.631299721379994072e-07,-7.142294581750026072e-01,8.705000444682765501e-03,1.548541685592646176e-02,7.142825043060342383e-01
1.112000000000000191e+10,-1.474903104724115468e-02,2.937601551810605210e-03,-7.145940294902544121e-01,8.990670754003830811e-03,1.503873065486856751e-02,7.146505853518386742e-01
1.120000000000000000e+10,-1.340915751397794495e-02,5.564052755541821702e-03,-7.149361650439127747e-01,9.308872279912778006e-03,1.451771980378198726e-02,7.149967658603922915e-01
1.128000000000000000e+10,-1.157429345206819823e-02,7.749276051845015514e-03,-7.152532253287310349e-01,9.658318476290912030e-03,1.392894641537138767e-02,7.153184322096991510e-01
1.135999999999999809e+10,-9.380508412408870150e-03,9.399823854806883122e-03,-7.155425009488873833e-01,1.003765067910101887e-02,1.327970732270369360e-02,7.156129017110746116e-01
1.143999999999999809e+10,-6.979461667348420620e-03,1.046376065571653219e-02,-7.158011685019013415e-01,1.044540958907825591e-02,1.257788425078348697e-02,7.158773773560461740e-01
1.152000000000000000e+10,-4.525921686716071618e-03,1.093194052115167847e-02,-7.160262457797242908e-01,1.087999079807986345e-02,1.183179152420650408e-02,7.161089015262779300e-01
1.160000000000000000e+10,-2.165962931905459059e-03,1.083566500511919974e-02,-7.162145491421951782e-01,1.133958113018681928e-02,1.105002405090384221e-02,7.163043113811098372e-01
1.168000000000000191e+10,-2.679123239069953338e-05,1.024127915152260766e-02,-7.163626573269326059e-01,1.182207218565333590e-02,1.024131419445496044e-02,7.164602000134181470e-01
1.176000000000000000e+10,1.873418407526705916e-03,9.175149384898450416e-03,-7.165120831002655954e-01,1.231988721715802579e-02,9.364457419672659114e-03,7.166179908777935426e-01
1.184000000000000000e+10,3.219239933423993522e-03,7.950981260109606791e-03,-7.165232960834057030e-01,1.284514168798551494e-02,8.577972298134674614e-03,7.166384245177007672e-01
1.191999999999999809e+10,4.223234048688812720e-03,6.486922815934182199e-03,-7.165277054901642018e-01,1.337886632223565624e-02,7.740534442135888968e-03,7.166525984039043840e-01
1.200000000000000000e+10,4.802586951198557601e-03,4.968864497513186818e-03,-7.164757911657730904e-01,1.392141078435340552e-02,6.910459884730510947e-03,7.166110276885552244e-01
1.208000000000000000e+10,4.987555944024134325e-03,3.504985486514761162e-03,-7.163632305403997425e-01,1.446691904593039139e-02,6.095952555216418815e-03,7.165092949969033009e-01
1.216000000000000000e+10,4.807844338320393755e-03,2.222533988063827431e-03,-7.161859478845690186e-01,1.500816242118337661e-02,5.296699397702154394e-03,7.163431837370822786e-01
1.224000000000000191e+10,4.416246419742132084e-03,1.077122399760140591e-03,-7.159404749720521544e-01,1.553633616809532020e-02,4.545704027315267473e-03,7.161090290205366360e-01
1.232000000000000000e+10,3.819285943930997990e-03,2.194949405505547402e-04,-7.156244461202757590e-01,1.604092612142795846e-02,3.825587948333718062e-03,7.158042045111110419e-01
1.239999999999999809e+10,3.129740023181329031e-03,-3.753855934721425213e-04,-7.152372310970046554e-01,1.650971121509088244e-02,3.152171784102113152e-03,7.154277512870993450e-01
1.247999999999999809e+10,2.427575136730588182e-03,-7.213747940606432974e-04,-7.147806803742687842e-01,1.692898447173351792e-02,2.532489415176017878e-03,7.149811267100320000e-01
1.256000000000000000e+10,1.878348137067162695e-03,-8.992023732424768434e-04,-7.140715106756163610e-01,1.718363272943167902e-02,2.082488086897157399e-03,7.142782368183542285e-01
1.264000000000000000e+10,1.187926577828699775e-03,-8.388100298228724164e-04,-7.134731157143273661e-01,1.743347558599774028e-02,1.454225505361274491e-03,7.136860744880185736e-01
1.272000000000000000e+10,8.042921910694092805e-04,-6.827439297858212304e-04,-7.130664621487075028e-01,1.774413053105251825e-02,1.055000095864743392e-03,7.132872027518628588e-01
1.280000000000000191e+10,5.058500715991178735e-04,-4.900271687383057472e-04,-7.124250597031747123e-01,1.782500092046555851e-02,7.042804278400135792e-04,7.126480171521468732e-01
1.288000000000000000e+10,3.193137287579453712e-04,-2.887179919580708807e-04,-7.117811655173146290e-01,1.779682850766100069e-02,4.304873241497401038e-04,7.120036198574540842e-01
