# Frequency, Real(S21), Imag(S21), Real(S11), Imag(S11), Amp(S21), Amp(S11)
4.000000000000000000e+09,1.542272593740223405e-06,1.413699062042382711e-04,-7.187695001842900888e-01,6.669169538591405814e-03,1.413783186522902917e-04,7.188004397727568717e-01
4.080000000000000000e+09,1.995248126292625591e-06,1.440376782258480858e-04,-7.187742903404500394e-01,6.822807309465580942e-03,1.440514969161321235e-04,7.188066716120543598e-01
4.160000000000000477e+09,2.961996614634897331e-06,1.450119877740260776e-04,-7.187422048736471503e-01,6.975385221171407323e-03,1.450422353044774119e-04,7.187760520952375387e-01
4.240000000000000000e+09,1.343129341272097822e-06,1.445357266727836031e-04,-7.187072419357033448e-01,7.131123738077443409e-03,1.445419671972710961e-04,7.187426191179937529e-01
4.320000000000000000e+09,3.090057446352243174e-06,1.431587572004454389e-04,-7.187483224296109530e-01,7.290934642116213282e-03,1.431921024993970930e-04,7.187853008536940758e-01
4.400000000000000000e+09,3.033389014223416928e-05,1.416923839213834926e-04,-7.187255746563465664e-01,7.449842417051748093e-03,1.449029901433571729e-04,7.187641837328391237e-01
4.480000000000000000e+09,4.083834920469133659e-06,1.400454827276975418e-04,-7.187193107830910366e-01,7.611984808757574390e-03,1.401050139719898667e-04,7.187596190697207454e-01
4.560000000000000000e+09,3.772906693463831372e-06,1.394597045266669669e-04,-7.187281832251540825e-01,7.777573963606564632e-03,1.395107308115861036e-04,7.187702637274930861e-01
4.640000000000000000e+09,2.374828476441328380e-06,1.399824065975552149e-04,-7.186756796860810370e-01,7.942210260827118479e-03,1.400025498594071574e-04,7.187195637215378907e-01
4.720000000000000000e+09,3.937171554678814020e-06,1.417666716267769098e-04,-7.186977999253241212e-01,8.112223430339677091e-03,1.418213330355675577e-04,7.187435813880252988e-01
4.800000000000000000e+09,3.902335058998439883e-06,1.447583119743402810e-04,-7.187015707117052621e-01,8.285387147504517241e-03,1.448109011938435533e-04,7.187493272230982555e-01
4.880000000000000000e+09,4.345901887449926048e-06,1.485913364520562120e-04,-7.186629647631067597e-01,8.459615174615490660e-03,1.486548759100202318e-04,7.187127534773548598e-01
4.960000000000000000e+09,3.938649796024912591e-06,1.531125058377417092e-04,-7.186709813801187563e-01,8.637151854875653803e-03,1.531631561640338498e-04,7.187228811371091375e-01
5.040000000000000000e+09,4.109730633448374629e-06,1.578965280240133553e-04,-7.186604790100159512e-01,8.818766915393563485e-03,1.579500030006886094e-04,7.187145850341521980e-01
5.120000000000000000e+09,4.438460955098137950e-06,1.626427536252588834e-04,-7.186599086704668071e-01,9.005632849739712148e-03,1.627033043378547667e-04,7.187163319093757829e-01
5.200000000000000000e+09,4.697077697161732663e-06,1.671260395995774950e-04,-7.186363799935697738e-01,9.193933230960224523e-03,1.671920322597124332e-04,7.186951892551651788e-01
5.280000000000000000e+09,5.070519357217438236e-06,1.711741529315211367e-04,-7.186224218406654929e-01,9.388315504206861534e-03,1.712492359059616487e-04,7.186837452177069485e-01
5.360000000000000000e+09,5.462242750508847682e-06,1.747219335269642774e-04,-7.186068654331829730e-01,9.587891762525974082e-03,1.748072943308328134e-04,7.186708250069391291e-01
5.440000000000000000e+09,6.948644581255909502e-06,1.777916820655029871e-04,-7.185764779323581264e-01,9.793998816157400283e-03,1.779274174296853874e-04,7.186432195815136703e-01
5.520000000000000000e+09,6.207896491159703375e-06,1.803676074670152916e-04,-7.185694805713900291e-01,1.000510912453885827e-02,1.804744076101103716e-04,7.186391310089029760e-01
5.600000000000000000e+09,6.528152109593162186e-06,1.825895854024721398e-04,-7.185465568162177075e-01,1.022425106527167366e-02,1.827062491197623169e-04,7.186192939396267576e-01
5.680000000000000000e+09,6.799452591233637466e-06,1.845127766980435660e-04,-7.185196858941851339e-01,1.045159754628161887e-02,1.846380169963989881e-04,7.185956964168014327e-01
5.760000000000000000e+09,7.015999593229601771e-06,1.861993610039343035e-04,-7.184875288825992579e-01,1.068810700889628526e-02,1.863314956966901042e-04,7.185670217810288252e-01
5.840000000000000954e+09,7.173863273649329646e-06,1.876853721464482498e-04,-7.184481582026518431e-01,1.093457401820121730e-02,1.878224247314994879e-04,7.185313639179170542e-01
5.920000000000000000e+09,7.269907508483639905e-06,1.889745691168363503e-04,-7.183990652209001349e-01,1.119122107919729575e-02,1.891143551613041129e-04,7.184862283575841335e-01
6.000000000000000000e+09,7.301031264190147008e-06,1.900354331626897641e-04,-7.183375632356012730e-01,1.145734942808944272e-02,1.901756317587818726e-04,7.184289287126310874e-01
6.080000000000000000e+09,7.262234737887930046e-06,1.907988208511232370e-04,-7.182613277847088584e-01,1.173144617876666074e-02,1.909369793716429503e-04,7.183571269365247591e-01
6.160000000000000000e+09,7.141305354697046568e-06,1.911551477546900293e-04,-7.181686108462875806e-01,1.201157336518962962e-02,1.912884961394343750e-04,7.182690523053277820e-01
6.239999999999999046e+09,6.908515145466471416e-06,1.909514487224035220e-04,-7.180581734619394529e-01,1.229565338917488343e-02,1.910763809336461024e-04,7.181634379218726494e-01
6.320000000000000000e+09,6.500782104593269464e-06,1.899894854596130198e-04,-7.179291634700843971e-01,1.258159246577191144e-02,1.901006700492660303e-04,7.180394001932136616e-01
6.400000000000000954e+09,5.800447791457341692e-06,1.880264517452690052e-04,-7.177810234675673362e-01,1.286732119756787279e-02,1.881158997812183752e-04,7.178963473963004827e-01
6.480000000000000000e+09,4.609427062945231580e-06,1.847803346153442791e-04,-7.176134321195525301e-01,1.315080477397926120e-02,1.848378177711671952e-04,7.177339211884909975e-01
6.560000000000000000e+09,2.620145224012284790e-06,1.799423065834106965e-04,-7.174262675815095136e-01,1.343004377294955941e-02,1.799613815782516283e-04,7.175519601336749487e-01
6.640000000000000000e+09,-6.145894886893526771e-07,1.731985400129534120e-04,-7.172195843481296018e-01,1.370307271564496186e-02,1.731996304351087054e-04,7.173504766669873689e-01
6.720000000000000000e+09,-5.709856440874215631e-06,1.642635349612812153e-04,-7.169935983281721104e-01,1.396795862405233145e-02,1.643627432800738109e-04,7.171296423323355596e-01
6.799999999999999046e+09,-1.347145025263260239e-05,1.529262568455989674e-04,-7.167486772521673988e-01,1.422280020971983076e-02,1.535184679597710882e-04,7.168897784098593462e-01
6.880000000000000000e+09,-2.490914403076749817e-05,1.391093457828627641e-04,-7.164853348249157206e-01,1.446572786128769508e-02,1.413218862755574712e-04,7.166313503480910008e-01
6.960000000000000954e+09,-4.123588300932601184e-05,1.229402282457911760e-04,-7.162042277111982935e-01,1.469490453771375368e-02,1.296714994464321410e-04,7.163549650911665845e-01
7.039999999999999046e+09,-6.384839247570246647e-05,1.048314240724019500e-04,-7.159061548294632926e-01,1.490852769986117203e-02,1.227446320405870656e-04,7.160613707782909065e-01
7.120000000000000000e+09,-9.428499761328506547e-05,8.556573141050094282e-05,-7.155920585888185803e-01,1.510483250953333946e-02,1.273230347060230901e-04,7.157514584550451753e-01
7.200000000000000000e+09,-1.341571235088924951e-04,6.638048019900983981e-05,-7.152630277625271482e-01,1.528209655658064985e-02,1.496813346400658262e-04,7.154262654943430721e-01
7.280000000000000000e+09,-1.850521700907079600e-04,4.904379532088304241e-05,-7.149203016754908102e-01,1.543864645945936323e-02,1.914408512171761692e-04,7.150869804102679694e-01
7.359999999999999046e+09,-2.494909300530077510e-04,3.825840120291870488e-05,-7.144965480748821651e-01,1.591497820548948630e-02,2.524072689946117525e-04,7.146737743489708361e-01
7.440000000000000000e+09,-3.253533244449674337e-04,2.997869633749965495e-05,-7.141995050572705894e-01,1.568321064954523655e-02,3.267315533606882441e-04,7.143716792541039418e-01
7.520000000000000000e+09,-4.165384853643288492e-04,3.484966097973301495e-05,-7.138247140399197610e-01,1.576821511068755149e-02,4.179937902170455743e-04,7.139988508267713918e-01
7.599999999999999046e+09,-5.219278416382375566e-04,5.473053968644973118e-05,-7.134427972953026886e-01,1.582651683973938100e-02,5.247895805477842228e-04,7.136183179037831614e-01
7.680000000000000000e+09,-6.405972779403935934e-04,9.432462834339664162e-05,-7.130558251945552373e-01,1.585687284412969425e-02,6.475044463297235323e-04,7.132321152754431681e-01
7.760000000000000954e+09,-7.705271572678502358e-04,1.586919795938345184e-04,-7.126660448930466352e-01,1.585818341283096525e-02,7.866989541588856457e-04,7.128424605231179489e-01
7.840000000000000000e+09,-9.084111113804268275e-04,2.530466705818457378e-04,-7.122758787838459060e-01,1.582951803061848767e-02,9.429970120694865753e-04,7.124517535513417155e-01
7.919999999999999046e+09,-1.049494989702404440e-03,3.824933411627660321e-04,-7.118879191525514516e-01,1.577014374536071101e-02,1.117023226904573447e-03,7.120625722990213680e-01
8.000000000000000000e+09,-1.187462668534684665e-03,5.517044802804110110e-04,-7.115049181665099587e-01,1.567955548003560629e-02,1.309368329663197772e-03,7.116776637180511900e-01
8.080000000000000000e+09,-1.314385855689623921e-03,7.645434388855562764e-04,-7.111297724385300389e-01,1.555750744810781641e-02,1.520571224106222804e-03,7.112999292046031652e-01
8.159999999999999046e+09,-1.420755031436261038e-03,1.023642253433848081e-03,-7.107655014456917275e-01,1.540404472848557783e-02,1.751110596840353131e-03,7.109324037061067747e-01
8.240000000000000000e+09,-1.495607381330524592e-03,1.329947789500812109e-03,-7.104152192994467319e-01,1.521953376023819048e-02,2.001400150366849148e-03,7.105782279384587063e-01
8.320000000000000954e+09,-1.526765609413911285e-03,1.682254458011891215e-03,-7.100820995530098267e-01,1.500469033727584202e-02,2.271781963039128105e-03,7.102406133401046873e-01
8.400000000000000000e+09,-1.501198455993975464e-03,2.076746515724138716e-03,-7.097693330524132982e-01,1.476060353798753881e-02,2.562513003840379607e-03,7.099227997173165328e-01
8.480000000000000000e+09,-1.405509780294670989e-03,2.506577519842720803e-03,-7.094800792057525118e-01,1.448875386453778169e-02,2.873741221036587874e-03,7.096280059146115038e-01
8.560000000000000000e+09,-1.226558030938357767e-03,2.961518881188117056e-03,-7.092174114365906723e-01,1.419102394190759411e-02,3.205470119482179553e-03,7.093593742563343296e-01
8.640000000000000000e+09,-9.522019243652429452e-04,3.427712972442201710e-03,-7.089842580763573432e-01,1.386970013479800305e-02,3.557513840621484742e-03,7.091199100165727076e-01
8.720000000000000000e+09,-5.721609875231221378e-04,3.887569155037572631e-03,-7.087833403852215053e-01,1.352746370659495961e-02,3.929448069493091285e-03,7.089124176384314913e-01
8.800000000000000000e+09,-7.897116181146843976e-05,4.319842659693877603e-03,-7.086171098333521323e-01,1.316737049695966728e-02,4.320564436379687422e-03,7.087394358961389695e-01
8.880000000000000000e+09,5.309942107958344742e-04,4.699936316700008276e-03,-7.084876870785307146e-01,1.279281857265977991e-02,4.729836808277250969e-03,7.086031745264192994e-01
8.959999999999998093e+09,1.256479260395809098e-03,5.000463212254669700e-03,-7.083968053722898839e-01,1.240750393077689681e-02,5.155906561305886350e-03,7.085054551769225384e-01
9.040000000000000000e+09,2.090330727794950660e-03,5.192103325825389235e-03,-7.083457610846325414e-01,1.201536503094009951e-02,5.597090270632664594e-03,7.084476594946123029e-01
9.120000000000000000e+09,3.018582407150950664e-03,5.244778586413471888e-03,-7.083353739786674153e-01,1.162051759787130142e-02,6.051408279835572557e-03,7.084306871238293946e-01
9.200000000000000000e+09,4.019723368225609078e-03,5.129157057255339866e-03,-7.083659594608848753e-01,1.122718189562942580e-02,6.516627047411205700e-03,7.084549259735989368e-01
9.280000000000000000e+09,5.064249406605921509e-03,4.818476919603711245e-03,-7.084373144970858016e-01,1.083960519167222018e-02,6.990303418097250192e-03,7.085202365582469186e-01
9.360000000000000000e+09,6.114609521139095435e-03,4.290653547899720560e-03,-7.085487181741764173e-01,1.046198257442195953e-02,7.469816427738323709e-03,7.086259514762749401e-01
9.440000000000000000e+09,7.125666038096782791e-03,3.530597373803468983e-03,-7.086989470448937789e-01,1.009837949346384899e-02,7.952372872444667812e-03,7.087708902113116771e-01
9.520000000000000000e+09,8.045784132534926011e-03,2.532626751982725716e-03,-7.088863045154056852e-01,9.752659337428169067e-03,8.434977212311208297e-03,7.089533885197675245e-01
9.600000000000000000e+09,8.818649197294803344e-03,1.302810615796576223e-03,-7.091086627369374007e-01,9.428419069392384583e-03,8.914364204225703331e-03,7.091713408300674981e-01
9.680000000000000000e+09,9.387084934182632692e-03,-1.287168780495289919e-04,-7.094491320695810455e-01,9.136507231209574365e-03,9.387967383638132213e-03,7.095079610255742297e-01
9.760000000000000000e+09,9.690396218466242051e-03,-1.757546340324541139e-03,-7.096480336031367742e-01,8.857123521258334839e-03,9.848489630864877900e-03,7.097033043701216348e-01
9.840000000000000000e+09,9.680583924131833107e-03,-3.501743122487494843e-03,-7.099591367870432546e-01,8.615508709925322542e-03,1.029446016107926631e-02,7.100114103996740811e-01
9.920000000000000000e+09,9.314850322960106094e-03,-5.304922962868075312e-03,-7.102935502768923381e-01,8.406212076984043852e-03,1.071954496147644285e-02,7.103432916318949131e-01
1.000000000000000000e+10,8.566461110716818567e-03,-7.086849619501121508e-03,-7.106478716802062667e-01,8.230948656734522750e-03,1.111789968882822936e-02,7.106955368084119096e-01
1.008000000000000000e+10,7.428085660240008568e-03,-8.757166587409459871e-03,-7.110186283112130967e-01,8.091037149208250498e-03,1.148322355506082963e-02,7.110646628033970851e-01
1.016000000000000000e+10,5.915543737775153139e-03,-1.022047270231114802e-02,-7.114023285888038117e-01,7.987419172217525773e-03,1.180896777759250955e-02,7.114471673895435000e-01
1.024000000000000000e+10,4.070148521998554619e-03,-1.138281939356628955e-02,-7.117955051958140267e-01,7.920685821682144426e-03,1.208861804912686813e-02,7.118395735563245452e-01
1.032000000000000000e+10,1.959078333707743244e-03,-1.215920876162588510e-02,-7.121947491656512863e-01,7.891109142749959740e-03,1.231601987763915503e-02,7.122384645205759313e-01
1.040000000000000000e+10,-3.266549278805965829e-04,-1.248143284763797781e-02,-7.125967346709664030e-01,7.898676197680953512e-03,1.248570660283209420e-02,7.126405091975893669e-01
1.048000000000000000e+10,-2.676829194717753133e-03,-1.230540370132219424e-02,-7.129982348074863641e-01,7.943123599065113338e-03,1.259318763420156674e-02,7.130424784338598165e-01
1.056000000000000000e+10,-4.969084441192080613e-03,-1.161703563673682424e-02,-7.133961290031530789e-01,8.023970708446256581e-03,1.263516193679014785e-02,7.134412526498684626e-01
1.064000000000000000e+10,-7.090537084226333428e-03,-1.045053741926471255e-02,-7.138635532437253017e-01,8.114499079042923960e-03,1.262891319529280999e-02,7.139096705781907692e-01
1.072000000000000000e+10,-8.884824422312059822e-03,-8.815249995921531703e-03,-7.141691420711704374e-01,8.292033628033927684e-03,1.251593933773679536e-02,7.142172787803163780e-01
1.080000000000000000e+10,-1.028824449778914518e-02,-6.840297931616655738e-03,-7.145385190885850113e-01,8.477454737931581011e-03,1.235466108962798501e-02,7.145888065874960171e-01
1.088000000000000000e+10,-1.121254329248744935e-02,-4.621207681574784898e-03,-7.148927770918263036e-01,8.695723570971354219e-03,1.212751778073943403e-02,7.149456611145258433e-01
1.096000000000000000e+10,-1.161455691580486060e-02,-2.285032726895445954e-03,-7.152292082022086994e-01,8.945636640888257260e-03,1.183720012982182254e-02,7.152851492100680275e-01
1.104000000000000000e+10,-1.148716566874000318e-02,3.466735503360082434e-05,-7.155451289121771419e-01,9.225878486934256661e-03,1.148721798028504333e-02,7.156046033556519026e-01
1.112000000000000191e+10,-1.085943741221492322e-02,2.208656317515805129e-03,-7.158378527919206924e-01,9.535014499171157176e-03,1.108176626890838325e-02,7.159013535336045120e-01
1.120000000000000000e+10,-9.793418157515058203e-03,4.122225607332651379e-03,-7.161046617498759703e-01,9.871473269826340491e-03,1.062561918975523517e-02,7.161726974441438021e-01
1.128000000000000000e+10,-8.378037700215060918e-03,5.683736338706949637e-03,-7.163427775203521364e-01,1.023351656852803521e-02,1.012404931211630978e-02,7.164158706833141377e-01
1.135999999999999809e+10,-6.720897929846571250e-03,6.830728344073375147e-03,-7.165493359098155102e-01,1.061919479317029701e-02,9.582761537988062489e-03,7.166280193314052971e-01
1.143999999999999809e+10,-4.938876848429401417e-03,7.533160284669408388e-03,-7.167213673515614447e-01,1.102628577429579093e-02,9.007830393522760909e-03,7.168061784026895644e-01
1.152000000000000000e+10,-3.148511964966987063e-03,7.793685674615103212e-03,-7.168557893466800390e-01,1.145221521697121700e-02,8.405632872558790533e-03,7.169472616261447495e-01
1.160000000000000000e+10,-1.457044684325936633e-03,7.645167681942798693e-03,-7.169494161443817903e-01,1.189395740839132957e-02,7.782773804829811078e-03,7.170480677978308126e-01
1.168000000000000191e+10,4.514810137492305912e-05,7.145866115719726186e-03,-7.169989969888621584e-01,1.234791735082204842e-02,7.146008738789023582e-03,7.171053149614337041e-01
1.176000000000000000e+10,1.290206357486183139e-03,6.372878880336432447e-03,-7.170012914629655398e-01,1.280979709454914926e-02,6.502170227572937750e-03,7.171157109289714171e-01
1.184000000000000000e+10,2.236196530186113519e-03,5.414501108431850687e-03,-7.169531961078844384e-01,1.327445418811730969e-02,5.858105254672892753e-03,7.170760744462912895e-01
1.191999999999999809e+10,2.868145677993170183e-03,4.362188169362284096e-03,-7.168519352349118634e-01,1.373576593210048234e-02,5.220626902500807506e-03,7.169835202539732721e-01
1.200000000000000000e+10,3.192604773421927125e-03,3.348173876414398814e-03,-7.167170427578748448e-01,1.419419824473461961e-02,4.626336946870633973e-03,7.168575832363108802e-01
1.208000000000000000e+10,3.254904631685508025e-03,2.311707424682189673e-03,-7.164821364183562302e-01,1.461837289376393192e-02,3.992291995670974730e-03,7.166312501089197040e-01
1.216000000000000000e+10,3.092570758904060468e-03,1.447466525738685559e-03,-7.162124935966496242e-01,1.502188854197249006e-02,3.414550225426836189e-03,7.163700113204756192e-01
1.224000000000000191e+10,2.848919321274410825e-03,7.200030522707247336e-04,-7.158245123266548937e-01,1.529089221005896886e-02,2.938493779882784141e-03,7.159878098349671260e-01
1.232000000000000000e+10,2.355790796508064767e-03,2.067681566335550537e-04,-7.154839882286738728e-01,1.574316749053259606e-02,2.364847425841620863e-03,7.156571698336041676e-01
1.239999999999999809e+10,1.897333891219448680e-03,-1.082678292664415384e-04,-7.150967154567948736e-01,1.595746412609499662e-02,1.900420431805552356e-03,7.152747396060005203e-01
1.247999999999999809e+10,1.457862655920190431e-03,-2.896324142746692105e-04,-7.146461899761059611e-01,1.614295812032386784e-02,1.486354755408427061e-03,7.148284912790193735e-01
1.256000000000000000e+10,1.068687181661907761e-03,-3.464452291003891800e-04,-7.141773165834655046e-01,1.625735717695220989e-02,1.123439624107540769e-03,7.143623318629969132e-01
1.264000000000000000e+10,7.556635634444130393e-04,-3.122893356338889452e-04,-7.136994341981411916e-01,1.627670493512349548e-02,8.176503227347030637e-04,7.138850141992700848e-01
1.272000000000000000e+10,4.022453547643255775e-04,-2.705240012182979375e-04,-7.132350076627802515e-01,1.621941984566356229e-02,4.847520610215451538e-04,7.134194038122708692e-01
1.280000000000000191e+10,3.587953057314954277e-04,-1.221292363192435886e-04,-7.127988303846539697e-01,1.608261846504139767e-02,3.790113742077919848e-04,7.129802404095241242e-01
1.288000000000000000e+10,2.570003170729101495e-04,-1.811577107439939736e-05,-7.124062988428838672e-01,1.587416092804948275e-02,2.576380098844043053e-04,7.125831345297094499e-01
