# Frequency, Real(S21), Imag(S21), Real(S11), Imag(S11), Amp(S21), Amp(S11)
2.000000000000000000e+09,4.667718175517106770e-05,5.580398023262303844e-05,-7.197395659545061664e-01,-3.189569175593716388e-03,7.275193128988575249e-05,7.197466333036277586e-01
2.160000000000000000e+09,4.951653445879838997e-05,6.468970163299878821e-05,-7.198172494309289515e-01,-3.457392363914027923e-03,8.146560428902355807e-05,7.198255525752516037e-01
2.320000000000000000e+09,3.390314454078839970e-05,6.799367306465758107e-05,-7.198766268378553601e-01,-3.706574095729387765e-03,7.597738338859224357e-05,7.198861691677205243e-01
2.480000000000000000e+09,2.704107800351846728e-05,7.465030209996326204e-05,-7.200360862260625217e-01,-3.948603237462009440e-03,7.939702452364414136e-05,7.200469130100293214e-01
2.640000000000000477e+09,9.984553450073428859e-06,8.556685994083021484e-05,-7.188978623902637644e-01,-4.175609162619811111e-03,8.614742496285672057e-05,7.189099889841353841e-01
2.800000000000000477e+09,1.569849779441160546e-05,8.231348135517827414e-05,-7.187805515525896860e-01,-4.421034770766244133e-03,8.379708852824438437e-05,7.187941477493325904e-01
2.960000000000000000e+09,4.000071284076933941e-06,8.692723731610948871e-05,-7.188078425466182253e-01,-4.687232821796801993e-03,8.701922292050714189e-05,7.188231247379632816e-01
3.120000000000000000e+09,1.633963301272479181e-06,9.256459736781935785e-05,-7.188320628191092743e-01,-4.960810104319689565e-03,9.257901771965619596e-05,7.188491804082877135e-01
3.280000000000000000e+09,3.395949016211256683e-06,9.744494984420488731e-05,-7.188478700450433578e-01,-5.240488528163939411e-03,9.750410616922916334e-05,7.188669716910837115e-01
3.440000000000000000e+09,-8.428119168254732354e-07,1.034246270878499540e-04,-7.188486050967327623e-01,-5.526229975005805817e-03,1.034280610868635133e-04,7.188698465419558481e-01
3.600000000000000000e+09,7.077067375200836907e-06,1.127189596699431360e-04,-7.188743961276238270e-01,-5.817276352860426339e-03,1.129409082295135415e-04,7.188979330280630409e-01
3.760000000000000477e+09,-2.536411102724548396e-06,1.258325414468842735e-04,-7.189102158136522203e-01,-6.117413202090509622e-03,1.258581021160889545e-04,7.189362427541937661e-01
3.920000000000000000e+09,-5.666361710496929124e-07,1.384392133678495054e-04,-7.188941003222778514e-01,-6.426927465632724032e-03,1.384403729930662387e-04,7.189228281775630336e-01
4.080000000000000000e+09,-2.112826400721702953e-07,1.458829287769044896e-04,-7.188915784430808253e-01,-6.747632811345373634e-03,1.458830817774336194e-04,7.189232449329628905e-01
4.240000000000000000e+09,8.097003689741384094e-07,1.467710967099454121e-04,-7.189061049473195464e-01,-7.079210876612714552e-03,1.467733301527483466e-04,7.189409592985797071e-01
4.400000000000000000e+09,2.020365104378588794e-06,1.440259010448495633e-04,-7.189344861307938039e-01,-7.423289255200127106e-03,1.440400709765716353e-04,7.189728093408782605e-01
4.560000000000000000e+09,2.053525674079008345e-06,1.423320528395599356e-04,-7.189549559915845434e-01,-7.784458887723144302e-03,1.423468659058476846e-04,7.189970977306069377e-01
4.720000000000000000e+09,1.555673655477766846e-06,1.449042136865725671e-04,-7.189812528850084705e-01,-8.165076717169070936e-03,1.449125642056141110e-04,7.190276145447361822e-01
4.880000000000000000e+09,9.054381494925789300e-07,1.518611665708185143e-04,-7.190160737065669494e-01,-8.569780244140184564e-03,1.518638657827873334e-04,7.190671424712995474e-01
5.040000000000000000e+09,3.869556769379022218e-07,1.610068533580988619e-04,-7.190641699644343410e-01,-9.004892309279170434e-03,1.610073183522173483e-04,7.191205522109228587e-01
5.200000000000000000e+09,-4.471261790057485120e-08,1.696105361609993303e-04,-7.191346915268972406e-01,-9.478482402614018393e-03,1.696105420545546681e-04,7.191971539057578910e-01
5.360000000000000000e+09,-7.610079901580254024e-07,1.757275334798068592e-04,-7.192454145605123861e-01,-9.997339480172041937e-03,1.757291812877352687e-04,7.193148915204001792e-01
5.520000000000000000e+09,-2.353451842242352225e-06,1.783739374097103019e-04,-7.194222903236764388e-01,-1.055717633680344769e-02,1.783894623642803693e-04,7.194997468983367339e-01
5.680000000000000000e+09,-5.816356585300546213e-06,1.767254731152279295e-04,-7.196871838434425461e-01,-1.113874924370291015e-02,1.768211606446709258e-04,7.197733770592096292e-01
5.840000000000000954e+09,-1.352696242360284097e-05,1.692203787970862367e-04,-7.200513306055312812e-01,-1.171653187558151579e-02,1.697601699829465833e-04,7.201466488334078431e-01
6.000000000000000000e+09,-1.050083316317682112e-05,1.524940524604798695e-04,-7.205175719410000790e-01,-1.226434495557456039e-02,1.528551717572567456e-04,7.206219436243552767e-01
6.160000000000000954e+09,-6.883981094894588994e-05,1.306391232428946974e-04,-7.210825275907934984e-01,-1.275672767597155893e-02,1.476668550933446207e-04,7.211953588991864006e-01
6.320000000000000000e+09,-1.423851368913925624e-04,1.064823901157232284e-04,-7.217375019963184757e-01,-1.316931886547007338e-02,1.777977126184070926e-04,7.218576402222713906e-01
6.480000000000000000e+09,-2.685075477614402330e-04,1.011624389898484514e-04,-7.224687086939743930e-01,-1.347921457024914629e-02,2.869322956155980235e-04,7.225944396875536579e-01
6.640000000000000000e+09,-4.566998112901304255e-04,1.518716894949285285e-04,-7.232571514633160392e-01,-1.366556404876442116e-02,4.812896505250084059e-04,7.233862417710202886e-01
6.800000000000000954e+09,-6.956410995520132153e-04,3.123086643105777577e-04,-7.240783915986147568e-01,-1.371055998964558660e-02,7.625308132720874568e-04,7.242081859764266660e-01
6.960000000000000954e+09,-9.380650914765796457e-04,6.423530905271803912e-04,-7.249024683419316162e-01,-1.360093276363668821e-02,1.136918470584757359e-03,7.250300503980963152e-01
7.120000000000000000e+09,-1.090157000944700499e-03,1.186075472347232051e-03,-7.256943242514002357e-01,-1.332994725226198905e-02,1.610967818676851612e-03,7.258167397797081755e-01
7.280000000000000954e+09,-1.013785736324304167e-03,1.939698636655151891e-03,-7.264151303276913385e-01,-1.289969431670993059e-02,2.188650799057827601e-03,7.265296578134036176e-01
7.440000000000000000e+09,-5.496590487461286379e-04,2.816660851226546192e-03,-7.270248175073922292e-01,-1.232319797759190601e-02,2.869791529136001950e-03,7.271292501887487436e-01
7.600000000000001907e+09,4.342285253020950527e-04,3.622907381324613242e-03,-7.274858373305790327e-01,-1.162562358983858755e-02,3.648837116924020640e-03,7.275787233285662126e-01
7.760000000000000954e+09,1.972314275511344393e-03,4.060004750346594624e-03,-7.277677128839530329e-01,-1.084382661818853420e-02,4.513719328250567590e-03,7.278484955621362662e-01
7.919999999999999046e+09,3.924596551975415709e-03,3.774012286792931617e-03,-7.278514488744970423e-01,-1.002376420507416523e-02,5.444779778525604512e-03,7.279204678242970905e-01
8.080000000000000954e+09,5.922772939582128873e-03,2.460844429917653786e-03,-7.277326009326007261e-01,-9.215908787928318163e-03,6.413656882161928793e-03,7.277909531142272570e-01
8.240000000000000000e+09,7.381796501638083867e-03,1.993051291503708349e-05,-7.274219892858841963e-01,-8.469552355289004797e-03,7.381823407325680160e-03,7.274712941510008690e-01
8.400000000000000954e+09,7.620775174510265385e-03,-3.285588502656775454e-03,-7.269437133988263522e-01,-7.827419304818067011e-03,8.298873783184218880e-03,7.269858533307566040e-01
8.560000000000000000e+09,6.110203584323551165e-03,-6.746449756611633437e-03,-7.263310427121959512e-01,-7.322010664738026232e-03,9.102152062032667704e-03,7.263679477011359964e-01
8.720000000000000000e+09,2.790668361879234099e-03,-9.311544289358321749e-03,-7.256215253459876724e-01,-6.974512558295852677e-03,9.720734898076137734e-03,7.256550433028516878e-01
8.880000000000000000e+09,-1.858882163262304786e-03,-9.912118427371554089e-03,-7.248529065255906456e-01,-6.796121385851287139e-03,1.008491619276697185e-02,7.248847655762176156e-01
9.040000000000000000e+09,-6.072325403600887031e-03,-8.126398136519026941e-03,-7.240609970721489930e-01,-6.790676659286686706e-03,1.014452968256471591e-02,7.240928398835370094e-01
9.200000000000001907e+09,-8.902458748245927270e-03,-4.267806286004758795e-03,-7.232796059525322674e-01,-6.957070302062646691e-03,9.872585388796704595e-03,7.233130644569045753e-01
9.360000000000000000e+09,-9.269842873883056555e-03,3.701932273177874211e-04,-7.225416335837552273e-01,-7.290370321361613545e-03,9.277231803293073051e-03,7.225784121888115807e-01
9.520000000000001907e+09,-7.253893838633951319e-03,4.224769757907609682e-03,-7.218802029621179672e-01,-7.781625179838991269e-03,8.394501493805472600e-03,7.219221433915627983e-01
9.680000000000000000e+09,-3.863754117319424634e-03,6.174850034631820805e-03,-7.213293970878351669e-01,-8.416900006227443637e-03,7.284048931006394806e-03,7.213785021116270180e-01
9.840000000000000000e+09,-4.868734344721383596e-04,6.005080859262915474e-03,-7.209248309480618122e-01,-9.175642782280028428e-03,6.024785628342350756e-03,7.209832205384252291e-01
1.000000000000000000e+10,1.782883006181310535e-03,4.358459335858171427e-03,-7.207039191244472010e-01,-1.002758935395553150e-02,4.709016839644912522e-03,7.207736757052031207e-01
1.016000000000000000e+10,2.563241670670709897e-03,2.283667240377015677e-03,-7.207042392272726694e-01,-1.092724735757037019e-02,3.432978870752622074e-03,7.207870733961420084e-01
1.032000000000000191e+10,2.183508326181535578e-03,6.763303050082661999e-04,-7.209565353180310554e-01,-1.180655446443920099e-02,2.285854608669734764e-03,7.210532022993180190e-01
1.048000000000000000e+10,1.300044155712187918e-03,-7.276405425159183579e-05,-7.214683047988760256e-01,-1.257053666945296203e-02,1.302078881785794038e-03,7.215778081548253065e-01
1.064000000000000191e+10,6.266175796798172711e-04,-1.830200807674982593e-04,-7.221986211585446069e-01,-1.310712751312835198e-02,6.527985455926918002e-04,7.223175514930731955e-01
1.080000000000000000e+10,1.861427012935439420e-04,-2.671934468262600077e-05,-7.230417956455701400e-01,-1.334683485422548214e-02,1.880506012357485148e-04,7.231649716703625330e-01
1.096000000000000000e+10,1.526153081384177374e-04,1.605134477207437660e-04,-7.238324445823218767e-01,-1.319690844144502315e-02,2.214858893414750813e-04,7.239527375612526683e-01
1.112000000000000191e+10,1.208504567650093436e-04,2.623383478495945414e-04,-7.244355308771414093e-01,-1.280568470151919117e-02,2.888360116965442838e-04,7.245487036479469900e-01
1.128000000000000000e+10,1.253288180904777024e-04,3.503642402392098546e-04,-7.247891177505647597e-01,-1.228341845033045950e-02,3.721053795396605125e-04,7.248931973597682044e-01
1.144000000000000191e+10,1.949105916187183324e-04,4.265731477319856853e-04,-7.249221493236275293e-01,-1.174211491904206262e-02,4.689933785152337106e-04,7.250172410658657363e-01
1.160000000000000000e+10,3.333686196373834062e-04,4.319633386707769128e-04,-7.248946244988905274e-01,-1.122656349833345106e-02,5.456436222613976353e-04,7.249815531138497082e-01
1.176000000000000000e+10,4.703873714582990778e-04,3.096150227537555950e-04,-7.247373552755312920e-01,-1.073459292243475818e-02,5.631391848755122956e-04,7.248168497054839898e-01
1.192000000000000000e+10,4.885236976918537651e-04,8.934095006347123535e-05,-7.244407728444082206e-01,-1.027052784673154751e-02,4.966258234976966791e-04,7.245135727518525748e-01
1.208000000000000000e+10,3.403758233490976337e-04,-9.072391692300436667e-05,-7.239922345177068896e-01,-9.874310543815951330e-03,3.522591804657876076e-04,7.240595677502356109e-01
1.224000000000000191e+10,1.294870553404643774e-04,-1.125068972849880471e-04,-7.234118364039958671e-01,-9.601668795721159805e-03,1.715362918960280383e-04,7.234755539014876558e-01
1.240000000000000000e+10,2.515659257791859994e-06,-1.134934891565744707e-05,-7.227489657550547619e-01,-9.490489630948084968e-03,1.162481235593283664e-05,7.228112733580159821e-01
1.256000000000000191e+10,-1.229384214226042591e-05,8.625300953226321902e-05,-7.220588276107080539e-01,-9.552683501262570695e-03,8.712473935680673659e-05,7.221220148234129832e-01
1.272000000000000000e+10,5.422658790866612528e-06,1.216528685938367553e-04,-7.213928482139873033e-01,-9.784897518431326380e-03,1.217736657306146657e-04,7.214592058278384012e-01
1.288000000000000000e+10,6.797727248988294220e-07,1.313145361242839886e-04,-7.208039518792458411e-01,-1.017016364892964382e-02,1.313162955938576603e-04,7.208756961317146494e-01
1.304000000000000191e+10,-1.556115556375094303e-05,1.515378684320445746e-04,-7.203404104842939804e-01,-1.066567433328186217e-02,1.523347469601302325e-04,7.204193664704362510e-01
1.320000000000000191e+10,-2.324079695235647494e-05,1.838577991045586726e-04,-7.200213571492140030e-01,-1.120705539331095027e-02,1.853208702077370268e-04,7.201085701764593505e-01
1.336000000000000191e+10,-1.156378916986838085e-05,2.169174781445979273e-04,-7.198307502654226475e-01,-1.173725437041541440e-02,2.172254900893937177e-04,7.199264352472668493e-01
1.352000000000000000e+10,1.419333568130666940e-05,2.307127029788280312e-04,-7.197376686292566994e-01,-1.222017223443179999e-02,2.311488743073588552e-04,7.198414021528053430e-01
1.368000000000000191e+10,2.952355526441187829e-05,2.234072054097353474e-04,-7.197058350259436521e-01,-1.263308889077035049e-02,2.253495501314312815e-04,7.198167016020904363e-01
1.384000000000000000e+10,2.728437963762581141e-05,2.164154045222146288e-04,-7.196895289270514029e-01,-1.296998390448623334e-02,2.181285508289180369e-04,7.198063896144044627e-01
1.400000000000000191e+10,2.129381243303263348e-05,2.176574709836962506e-04,-7.196464730612723848e-01,-1.325519286967407652e-02,2.186965960479306248e-04,7.197685366335075940e-01
1.416000000000000191e+10,1.604152108825427665e-05,2.203638710281643944e-04,-7.195649926604658075e-01,-1.353350784595286523e-02,2.209469756600944586e-04,7.196922498520271771e-01
1.432000000000000000e+10,6.668084421539189702e-06,2.256758770082972526e-04,-7.194680710778235122e-01,-1.383836292126935409e-02,2.257743670422239903e-04,7.196011434043062538e-01
1.448000000000000191e+10,-1.070513375117266718e-06,2.427330711334594964e-04,-7.193909697938294379e-01,-1.417302501928170005e-02,2.427354317374524016e-04,7.195305706216404973e-01
1.464000000000000000e+10,9.167689783952184687e-06,2.641899518419492951e-04,-7.193570441148122718e-01,-1.451474111712529498e-02,2.643489685817333973e-04,7.195034639439181756e-01
1.480000000000000191e+10,3.215643687879444774e-05,2.673728672715551232e-04,-7.193653513015955125e-01,-1.483162531646705848e-02,2.692996223275341485e-04,7.195182317097990055e-01
1.496000000000000191e+10,4.267635365242283992e-05,2.516806280893472449e-04,-7.193921039591778532e-01,-1.510150219200620016e-02,2.552732060293735547e-04,7.195505921109840441e-01
1.512000000000000191e+10,3.317919475432793487e-05,2.399533190740501924e-04,-7.194038206801032231e-01,-1.532543604324647021e-02,2.422363603986787310e-04,7.195670407953979053e-01
1.528000000000000191e+10,2.089328584468373625e-05,2.441898910884514155e-04,-7.193777888014302180e-01,-1.552803545011925863e-02,2.450820929875893988e-04,7.195453584769866406e-01
1.544000000000000000e+10,1.819175755473554818e-05,2.536003389906408808e-04,-7.193156819603070407e-01,-1.574094839951508187e-02,2.542519852018824663e-04,7.194878927199107599e-01
1.560000000000000191e+10,1.971441859205496754e-05,2.587503858453106455e-04,-7.192388053822098559e-01,-1.598315854046428522e-02,2.595003284690019629e-04,7.194163749349593573e-01
1.576000000000000000e+10,1.988486495283154823e-05,2.616448472057851852e-04,-7.191720161103891673e-01,-1.625322937762713194e-02,2.623993786645292771e-04,7.193556534993545970e-01
1.592000000000000191e+10,1.912401447396270003e-05,2.649911970671446236e-04,-7.191293037358479356e-01,-1.653518040736003461e-02,2.656803764915252565e-04,7.193193780809115090e-01
1.608000000000000191e+10,1.853133987765893790e-05,2.688868660458476937e-04,-7.191091217270152436e-01,-1.681141277973962830e-02,2.695246877182477362e-04,7.193056044204368948e-01
1.624000000000000191e+10,1.828197779409338386e-05,2.728452574738977465e-04,-7.191002855366649404e-01,-1.707306711842748737e-02,2.734570628783635480e-04,7.193029335959526538e-01
1.640000000000000191e+10,1.807243545382154629e-05,2.765243443029868887e-04,-7.190917617333714151e-01,-1.732174950525746174e-02,2.771142831313993648e-04,7.193003578469335801e-01
1.656000000000000000e+10,1.736240480303390476e-05,2.802130107025678149e-04,-7.190787755157813654e-01,-1.756436542225972910e-02,2.807503953114613205e-04,7.192932589215348393e-01
1.672000000000000191e+10,1.702812088552070326e-05,2.849705547647228793e-04,-7.190627839405803190e-01,-1.780683667349609867e-02,2.854788503266149813e-04,7.192832339771964012e-01
1.688000000000000000e+10,2.959714352983264804e-04,3.042793507150110335e-04,-7.190477911601560468e-01,-1.805101664912193288e-02,4.244820535477326060e-04,7.192743323477949202e-01
1.704000000000000191e+10,2.108208744566662617e-05,2.885135075807304379e-04,-7.190368140892066107e-01,-1.829516597473775097e-02,2.892827310220970490e-04,7.192695274468392519e-01
1.720000000000000000e+10,1.862640770882703417e-05,2.883483607031924237e-04,-7.190300829620839274e-01,-1.853601784955232618e-02,2.889493384390312363e-04,7.192689651042788457e-01
1.736000000000000000e+10,1.647601094169125435e-05,2.914164855245701094e-04,-7.190248458957363420e-01,-1.877134311766531088e-02,2.918818716056937809e-04,7.192698327733678676e-01
1.752000000000000000e+10,1.632358054663903747e-05,2.944718004030223778e-04,-7.190172750325359852e-01,-1.900229546331339697e-02,2.949238893586954616e-04,7.192683289483060571e-01
1.768000000000000000e+10,1.634924444817023454e-05,2.969307931035398106e-04,-7.190062842349670413e-01,-1.923321569137435849e-02,2.973805536465409143e-04,7.192634797869311702e-01
1.784000000000000381e+10,1.630121600914626124e-05,2.996336636183966127e-04,-7.189956217139471528e-01,-1.946734641696452189e-02,3.000767602077163620e-04,7.192591199424192006e-01
