# Frequency, Real(S21), Imag(S21), Real(S11), Imag(S11), Amp(S21), Amp(S11)
2.000000000000000000e+09,3.764828612872806769e-05,5.408977791727178101e-05,-7.197318878735313730e-01,-3.183669048905001658e-03,6.590218147808431682e-05,7.197389291754410223e-01
2.160000000000000000e+09,6.664223265223432723e-05,6.377749976819041013e-05,-7.198206085955316524e-01,-3.459141838348531433e-03,9.224292194827771955e-05,7.198289201060897868e-01
2.320000000000000000e+09,3.303189890990987582e-05,6.827206803289499098e-05,-7.199190141032942858e-01,-3.712444243844708388e-03,7.584313824653319777e-05,7.199285861179030022e-01
2.480000000000000000e+09,1.623706301995313117e-05,7.182462082435975715e-05,-7.200140027940952203e-01,-3.951146130689247617e-03,7.363707199554435953e-05,7.200248438597944833e-01
2.640000000000000477e+09,8.602007355383353213e-06,8.277640267226197071e-05,-7.187792549237557171e-01,-4.209363303823804477e-03,8.322215672465193008e-05,7.187915803959955552e-01
2.800000000000000477e+09,1.559804700557442273e-05,8.229952565113348004e-05,-7.187907114879175108e-01,-4.429489304193900100e-03,8.376461659191000969e-05,7.188043595421516052e-01
2.960000000000000000e+09,2.280217527038042733e-06,8.733383677822772139e-05,-7.188029453503310684e-01,-4.703440160060208715e-03,8.736359904660941989e-05,7.188183335124740392e-01
3.120000000000000000e+09,-1.128750419255523295e-06,9.288227213051836509e-05,-7.188490019179700763e-01,-4.977246963661631669e-03,9.288913043858596918e-05,7.188662327205243008e-01
3.280000000000000000e+09,-6.664232552744984534e-07,9.791641689855742643e-05,-7.188354704509863913e-01,-5.261558877736593857e-03,9.791868472465953363e-05,7.188547263392756070e-01
3.440000000000000000e+09,-8.642728814230081657e-07,1.039309175479645984e-04,-7.188555926529853757e-01,-5.549209233909951564e-03,1.039345110633392019e-04,7.188770109077049497e-01
3.600000000000000000e+09,1.072089246829926724e-05,1.132233667370867133e-04,-7.188770211215950168e-01,-5.845245049232103418e-03,1.137298039679910392e-04,7.189007848002001433e-01
3.760000000000000477e+09,-1.124097659090176867e-06,1.265117358058893851e-04,-7.188736121319537764e-01,-6.151449951660697968e-03,1.265167296928209706e-04,7.188999308361008200e-01
3.920000000000000000e+09,-6.131012101801912770e-07,1.391391996399060443e-04,-7.188974613264903502e-01,-6.466143000865247695e-03,1.391405504140599510e-04,7.189265406889498999e-01
4.080000000000000000e+09,3.463969413565887998e-07,1.466533075802313110e-04,-7.189094735667633795e-01,-6.793324120644504693e-03,1.466537166766083381e-04,7.189415695566984121e-01
4.240000000000000000e+09,1.492558722625858975e-06,1.475967427878559907e-04,-7.189242800476424167e-01,-7.133924855991223037e-03,1.476042892775308488e-04,7.189596743391606370e-01
4.400000000000000000e+09,2.008371309821340017e-06,1.448544882652099536e-04,-7.189339897748693309e-01,-7.491441801272089203e-03,1.448684103795370569e-04,7.189730199067790872e-01
4.560000000000000000e+09,2.295023471006319882e-06,1.431215948282408765e-04,-7.189666749333727402e-01,-7.865592036164879494e-03,1.431399945469875163e-04,7.190096989629760627e-01
4.720000000000000000e+09,1.742996428602672667e-06,1.455684082396800974e-04,-7.189981309475115268e-01,-8.264274919577731943e-03,1.455788429476766069e-04,7.190456248013482599e-01
4.880000000000000000e+09,9.955851680310414595e-07,1.522720252954293610e-04,-7.190413901047599810e-01,-8.692488914639385014e-03,1.522752799288140441e-04,7.190939299196710266e-01
5.040000000000000000e+09,3.362214219470903507e-07,1.609694223159428600e-04,-7.191044741688593644e-01,-9.158499671762692848e-03,1.609697734531950557e-04,7.191627930350049658e-01
5.200000000000000000e+09,-3.277365445013967645e-07,1.688026655588948494e-04,-7.192036849200599269e-01,-9.670810054290062199e-03,1.688029837148345670e-04,7.192687015084828772e-01
5.360000000000000000e+09,-1.481119953568076151e-06,1.735625814792077909e-04,-7.193658333638984770e-01,-1.022858584319173529e-02,1.735689010336918065e-04,7.194385492727559672e-01
5.520000000000000000e+09,-4.057064799761773554e-06,1.736963983272559028e-04,-7.196163587811147400e-01,-1.081378916859070290e-02,1.737437727420761580e-04,7.196976044572975795e-01
5.680000000000000000e+09,-1.018617094266873233e-05,1.675070178401566055e-04,-7.199691718863637790e-01,-1.139958163117885809e-02,1.678164446774386097e-04,7.200594134709318306e-01
5.840000000000000954e+09,-1.306166119603997919e-05,1.521560396259571903e-04,-7.204284378990460924e-01,-1.195792090121656527e-02,1.527156422500851633e-04,7.205276719224178450e-01
6.000000000000000000e+09,-5.832799394620847286e-05,1.296983520724668605e-04,-7.209912944683152247e-01,-1.246147468619709237e-02,1.422104687008045223e-04,7.210989772912256290e-01
6.160000000000000954e+09,-1.258380050652812806e-04,1.035116400999188757e-04,-7.216489989434077268e-01,-1.288407855373629139e-02,1.629412874473038311e-04,7.217640037825392429e-01
6.320000000000000000e+09,-2.452529006039353972e-04,9.288461639006664666e-05,-7.223872265145101501e-01,-1.320112962329376277e-02,2.622528116466506958e-04,7.225078372271522831e-01
6.480000000000000000e+09,-4.280264990444776962e-04,1.342412874506532369e-04,-7.231859610292843410e-01,-1.339024059419143334e-02,4.485837793998810716e-04,7.233099147481802937e-01
6.640000000000000000e+09,-6.652808826142901123e-04,2.819107196897918275e-04,-7.240192486717178522e-01,-1.343232490283247961e-02,7.225457124971853846e-04,7.241438391641912276e-01
6.800000000000000954e+09,-9.115575672245478361e-04,5.981571757201547754e-04,-7.248551119878235971e-01,-1.331323786368475426e-02,1.090288588048984528e-03,7.249773621826376413e-01
6.960000000000000954e+09,-1.072865171369822516e-03,1.130597057568439711e-03,-7.256560203920456864e-01,-1.302598177574991987e-02,1.558617779483094596e-03,7.257729232566086930e-01
7.120000000000000000e+09,-1.008006629419848582e-03,1.878476578699868425e-03,-7.263803735537948114e-01,-1.257324784636467893e-02,2.131842306944471688e-03,7.264891834332818377e-01
7.280000000000000954e+09,-5.521267845305850332e-04,2.755275026374159972e-03,-7.269853592575131751e-01,-1.196974466063038811e-02,2.810050614696683879e-03,7.270838929325942335e-01
7.440000000000000000e+09,4.323805261591876208e-04,3.561667344037554653e-03,-7.274312091493787547e-01,-1.124347576044491467e-02,3.587816493214950400e-03,7.275180958517135643e-01
7.600000000000001907e+09,1.980836234767018467e-03,3.988049635696527991e-03,-7.276863138721214597e-01,-1.043507953904559971e-02,4.452892552683613246e-03,7.277611299607734674e-01
7.760000000000000954e+09,3.943417338902042990e-03,3.666761356471909001e-03,-7.277320689348329985e-01,-9.594711235236952004e-03,5.384763611716765659e-03,7.277953164454000756e-01
7.919999999999999046e+09,5.919082957929679145e-03,2.280636918440268231e-03,-7.275509516155647116e-01,-8.737653192658848683e-03,6.343252148275857483e-03,7.276034179276709146e-01
8.080000000000000954e+09,7.312673536641466077e-03,-2.389046568273000843e-04,-7.272023383292137710e-01,-8.033292108108290586e-03,7.316574997124691143e-03,7.272467082452628295e-01
8.240000000000000000e+09,7.386688118627505149e-03,-3.596257039018052951e-03,-7.266737921815049628e-01,-7.347339842691007726e-03,8.215608684239995504e-03,7.267109354111943587e-01
8.400000000000000954e+09,5.636529002161678320e-03,-7.014962356624908878e-03,-7.259980854719192411e-01,-6.900540282144861440e-03,8.998897491197142481e-03,7.260308792090579555e-01
8.560000000000000000e+09,2.105013586190034210e-03,-9.346542457132425014e-03,-7.252462720879904179e-01,-6.635315622636121617e-03,9.580654367057798299e-03,7.252766248755984080e-01
8.720000000000000000e+09,-2.451373965003331330e-03,-9.581545853754390440e-03,-7.244393111957952991e-01,-6.517622673352883693e-03,9.890159516605084161e-03,7.244686294182450803e-01
8.880000000000000000e+09,-6.635706912868553214e-03,-7.323722879931162180e-03,-7.235074014213398463e-01,-6.550404994863097408e-03,9.882789234599648198e-03,7.235370534513463348e-01
9.040000000000000000e+09,-8.968065056154678888e-03,-3.206944284527922691e-03,-7.228314930460701948e-01,-6.835129078805014281e-03,9.524215584261462933e-03,7.228638089769987563e-01
9.200000000000001907e+09,-8.746720173785083041e-03,1.351759572511773786e-03,-7.221051212922199314e-01,-7.259066382367379729e-03,8.850557481897745882e-03,7.221416067788888338e-01
9.360000000000000000e+09,-6.295478833600560292e-03,4.782598513131598728e-03,-7.214793247194253301e-01,-7.843896482373444515e-03,7.906092731692517320e-03,7.215219627354556575e-01
9.520000000000001907e+09,-2.813396762313285539e-03,6.146392958390555807e-03,-7.209913925502553500e-01,-8.570483103801143296e-03,6.759685476495773046e-03,7.210423297644799057e-01
9.680000000000000000e+09,2.999899275820903108e-04,5.484359776529645555e-03,-7.206802805090151143e-01,-9.411600806801903932e-03,5.492558248673108830e-03,7.207417324841813855e-01
9.840000000000000000e+09,2.109184461691611216e-03,3.626398620071622381e-03,-7.205867661211425856e-01,-1.032715040214613605e-02,4.195166986557114820e-03,7.206607645379029536e-01
1.000000000000000000e+10,2.460327064370582649e-03,1.649787507109858877e-03,-7.207496069555670015e-01,-1.125613878760634880e-02,2.962264012928309508e-03,7.208374966571939879e-01
1.016000000000000000e+10,1.894594524620433346e-03,3.146583557969565622e-04,-7.212404052715026825e-01,-1.201784408100618762e-02,1.920546352888825772e-03,7.213405234509958630e-01
1.032000000000000191e+10,1.018416985857810604e-03,-1.657347670116522806e-04,-7.218991634510772970e-01,-1.276413076098752500e-02,1.031814503716687757e-03,7.220119979788762743e-01
1.048000000000000000e+10,4.531796334480564926e-04,-1.297644545091943187e-04,-7.228911674189238967e-01,-1.300282151284243640e-02,4.713921868531378368e-04,7.230081004384317778e-01
1.064000000000000191e+10,2.003815010560897579e-04,6.618954060120526639e-05,-7.236798938631378020e-01,-1.305772576954578913e-02,2.110303325365581217e-04,7.237976878824877724e-01
1.080000000000000000e+10,1.338604793014853511e-04,1.970619505430536134e-04,-7.244111328924380810e-01,-1.267270147746694074e-02,2.382268672309155986e-04,7.245219712481069108e-01
1.096000000000000000e+10,1.157967413835853424e-04,2.843958735210408775e-04,-7.248637001619955278e-01,-1.208647016229974155e-02,3.070666022068385854e-04,7.249644588347234908e-01
1.112000000000000191e+10,1.397997476180362934e-04,3.700841677256518514e-04,-7.250358956748382822e-01,-1.144907565847534323e-02,3.956087216369920086e-04,7.251262864842569211e-01
1.128000000000000000e+10,2.380609075644687348e-04,4.299153942665080654e-04,-7.249917859727706970e-01,-1.084623133791875506e-02,4.914267411707930275e-04,7.250729138936465867e-01
1.144000000000000191e+10,3.921496532686543431e-04,3.899260236842208918e-04,-7.247860121276922252e-01,-1.029682231567339082e-02,5.530132498457097532e-04,7.248591504049346490e-01
1.160000000000000000e+10,4.958631359506124542e-04,2.106459401323743747e-04,-7.244310434738722160e-01,-9.805386560853395980e-03,5.387503704769281646e-04,7.244973998257351333e-01
1.176000000000000000e+10,4.326388352171132447e-04,-1.798242574180941968e-05,-7.239246145666957677e-01,-9.404513959936055753e-03,4.330123893996338830e-04,7.239856990703350537e-01
1.192000000000000000e+10,2.278995412722225938e-04,-1.300699061925838259e-04,-7.232903744464304063e-01,-9.145587705131996356e-03,2.624049950154094119e-04,7.233481924642722882e-01
1.208000000000000000e+10,4.172403450834416224e-05,-7.278619902157824743e-05,-7.225814623634064793e-01,-9.065003713406764516e-03,8.389711451332693495e-05,7.226383217374809931e-01
1.224000000000000191e+10,-2.093192047946757037e-05,4.518124113275035012e-05,-7.218583193420878841e-01,-9.172741207687179835e-03,4.979447605161124897e-05,7.219165965571416876e-01
1.240000000000000000e+10,-4.795038065563837808e-06,1.112570292315016412e-04,-7.211787172835519844e-01,-9.461637890101076351e-03,1.113603113477571778e-04,7.212407814692072261e-01
1.256000000000000191e+10,4.514427898095765238e-06,1.251250241412978667e-04,-7.206025119767972553e-01,-9.906336958002324999e-03,1.252064364384174904e-04,7.206706014395174442e-01
1.272000000000000000e+10,6.371361159238029528e-04,1.421406893898184427e-04,-7.201795879640761067e-01,-1.044832533114923093e-02,6.527989014962283683e-04,7.202553758371623704e-01
1.288000000000000000e+10,-2.630986054992539474e-05,1.655591400276157149e-04,-7.199170964167006526e-01,-1.100756287086647467e-02,1.676366237098569879e-04,7.200012445499029967e-01
1.304000000000000191e+10,-3.925050017273586908e-05,2.078768968193871582e-04,-7.197786822538838614e-01,-1.152442320690526094e-02,2.115500082606192587e-04,7.198709354859309517e-01
1.320000000000000191e+10,3.757769304175624951e-06,2.250730775631993577e-04,-7.197179022939959037e-01,-1.197295656256222758e-02,2.251044448115437774e-04,7.198174842078503000e-01
1.336000000000000191e+10,2.444298284805538414e-05,2.215484653900745549e-04,-7.196913412640382202e-01,-1.234590608361063775e-02,2.228927588038862137e-04,7.197972270629108271e-01
1.352000000000000000e+10,3.584801169838583066e-04,1.889154755630386318e-04,-7.196554130749611700e-01,-1.265549783995785146e-02,4.052123531927053434e-04,7.197666810805222193e-01
1.368000000000000191e+10,2.169952113599420455e-05,2.145937926406153988e-04,-7.195834294775679263e-01,-1.294063951500127110e-02,2.156881198801058276e-04,7.196997791647258280e-01
1.384000000000000000e+10,1.826530277727461536e-05,2.177680833218567852e-04,-7.194872452574041510e-01,-1.324451701275550924e-02,2.185327421674396881e-04,7.196091392686652100e-01
1.400000000000000191e+10,1.151122265708611310e-05,2.209273435241217404e-04,-7.194048044823797561e-01,-1.358105943752313007e-02,2.212270312680760746e-04,7.195329859622674462e-01
1.416000000000000191e+10,1.711943634971381794e-06,2.330111093506662806e-04,-7.193667667778782526e-01,-1.392885043569666581e-02,2.330173981312070881e-04,7.195016039029504817e-01
1.432000000000000000e+10,4.680902040051227846e-06,2.546362721130021405e-04,-7.193748201082874605e-01,-1.425163817437768120e-02,2.546792922864272177e-04,7.195159768875770689e-01
1.448000000000000191e+10,2.524364497253986925e-05,2.651737191372537106e-04,-7.194030426131671208e-01,-1.452406662003202960e-02,2.663725641513831782e-04,7.195496412564357236e-01
1.464000000000000000e+10,4.184196526966710907e-05,2.532994503663877532e-04,-7.194145217842127238e-01,-1.474691031514696778e-02,2.567320813874693223e-04,7.195656505961428584e-01
1.480000000000000191e+10,3.672866971711177586e-05,2.374992613106309135e-04,-7.193836628705380098e-01,-1.494762793227823183e-02,2.403224798105329737e-04,7.195389398676306225e-01
1.496000000000000191e+10,2.288615842011291530e-05,2.380555171600979051e-04,-7.193133065057235598e-01,-1.516275484136414727e-02,2.391531005393661446e-04,7.194731002967215128e-01
1.512000000000000191e+10,1.804294271729815001e-05,2.475522221495076152e-04,-7.192302480944259280e-01,-1.541265351928822885e-02,2.482088847585010882e-04,7.193953708931376534e-01
1.528000000000000191e+10,1.917896454513351369e-05,2.537872265740781313e-04,-7.191632616285336121e-01,-1.569164812493152247e-02,2.545108819936506414e-04,7.193344317472001315e-01
1.544000000000000000e+10,1.973519664901144635e-05,2.572334234755169636e-04,-7.191247461853709222e-01,-1.597849147319420002e-02,2.579893643926233068e-04,7.193022402063913301e-01
1.560000000000000191e+10,1.943055038360374566e-05,2.606966290719630718e-04,-7.191082684039504791e-01,-1.625435246596749345e-02,2.614197366261668959e-04,7.192919474462480256e-01
1.576000000000000000e+10,1.931168285781351254e-05,2.644255732090864145e-04,-7.190995026825975911e-01,-1.651357395842894052e-02,2.651298264280250419e-04,7.192890885334211060e-01
1.592000000000000191e+10,1.947734448585228896e-05,2.679865810561555617e-04,-7.190885000857567544e-01,-1.676146756968651189e-02,2.686934583766191834e-04,7.192838228061806394e-01
1.608000000000000191e+10,1.955599453816006289e-05,2.712029066011146117e-04,-7.190736087983777836e-01,-1.700558180297715230e-02,2.719070677111381259e-04,7.192746656756237034e-01
1.624000000000000191e+10,1.896860837444263237e-05,2.744567435051296586e-04,-7.190578645678357139e-01,-1.724981835158482732e-02,2.751114540674442642e-04,7.192647418232167578e-01
1.640000000000000191e+10,1.836849069526877139e-05,2.789903112011854914e-04,-7.190443467062374028e-01,-1.749413222591457082e-02,2.795943404193949639e-04,7.192571287047055950e-01
1.656000000000000000e+10,2.019663217963920478e-05,2.832497416450623778e-04,-7.190342084595918726e-01,-1.773665642164638095e-02,2.839688716979278725e-04,7.192529331995326514e-01
1.672000000000000191e+10,2.163231365558604055e-05,2.836008045543139135e-04,-7.190264927512012294e-01,-1.797548400295553850e-02,2.844246356030852188e-04,7.192511489759566556e-01
1.688000000000000000e+10,1.894020547019319899e-05,2.841678352849544764e-04,-7.190186864366708841e-01,-1.821033005284205392e-02,2.847983321471355398e-04,7.192492527390967894e-01
1.704000000000000191e+10,1.670986379569447972e-05,2.877896646856753613e-04,-7.190089698877597524e-01,-1.844364610752757122e-02,2.882743669630793201e-04,7.192454844215548926e-01
1.720000000000000000e+10,1.648768364121731221e-05,2.910057375260136189e-04,-7.189991454681780025e-01,-1.867857828632665460e-02,2.914724394945634946e-04,7.192417260356691600e-01
1.736000000000000000e+10,1.642385013869729506e-05,2.933341312397142668e-04,-7.189935338850055313e-01,-1.891427029665803880e-02,2.937935591593802943e-04,7.192422758634976487e-01
1.752000000000000000e+10,1.635825522805083336e-05,2.956629780636993964e-04,-7.189928326078685039e-01,-1.914534670791305862e-02,2.961151619076632813e-04,7.192476886595136065e-01
1.768000000000000000e+10,1.660422399802778375e-05,2.979629288913277115e-04,-7.189914431007937701e-01,-1.936879252919588429e-02,2.984252121521824351e-04,7.192522821487610241e-01
1.784000000000000381e+10,1.674671179627786250e-05,3.001781944904451365e-04,-7.189840856268886471e-01,-1.958897067651550056e-02,3.006449746853106825e-04,7.192508902718844910e-01
