# Frequency, Real(S21), Imag(S21), Real(S11), Imag(S11), Amp(S21), Amp(S11)
2.000000000000000000e+09,4.638754522812419312e-05,5.603755920815576652e-05,-7.197501655138440757e-01,-3.184525110651587835e-03,7.274621910655447150e-05,7.197572104240334001e-01
2.160000000000000000e+09,4.950134541689187940e-05,6.471087229075890676e-05,-7.198172555277824181e-01,-3.458464028475906598e-03,8.147318694339476233e-05,7.198255638201418449e-01
2.320000000000000000e+09,4.437214846337793177e-05,7.075041078345412581e-05,-7.198732167545055516e-01,-3.714374138340405859e-03,8.351352097285537574e-05,7.198827993331406994e-01
2.480000000000000000e+09,2.701547453727988447e-05,7.467816509138325092e-05,-7.200360955466804658e-01,-3.950124437481691668e-03,7.941450878706176632e-05,7.200469306740915343e-01
2.640000000000000477e+09,9.510595690782364819e-06,8.565870491304475027e-05,-7.188501272312646240e-01,-4.202273122931294777e-03,8.618506342617383419e-05,7.188624100061186128e-01
2.800000000000000477e+09,1.608561805008919154e-05,8.205786349231244687e-05,-7.187940905904982580e-01,-4.420040218263300742e-03,8.361961533621366444e-05,7.188076804148327836e-01
2.960000000000000000e+09,3.928436294567282629e-06,8.698302868727905083e-05,-7.188140492915182644e-01,-4.689371266372473028e-03,8.707169397302709512e-05,7.188293452981333598e-01
3.120000000000000000e+09,1.739488614414570557e-06,9.256426440529442893e-05,-7.188463369521841395e-01,-4.963035664761855127e-03,9.258060739449129562e-05,7.188634695632980520e-01
3.280000000000000000e+09,3.376203455442863874e-06,9.752006835271349178e-05,-7.188480488588234740e-01,-5.243964563938479512e-03,9.757849394866912360e-05,7.188671758485606356e-01
3.440000000000000000e+09,-8.354788082573161998e-07,1.035137798807116421e-04,-7.188712171395666983e-01,-5.529123179678561463e-03,1.035171514775762557e-04,7.188924801629643646e-01
3.600000000000000000e+09,7.056353400438072150e-06,1.128158835796250171e-04,-7.188747154790410265e-01,-5.822092510888388084e-03,1.130363468587134568e-04,7.188982913571833055e-01
3.760000000000000477e+09,-2.555805845073316713e-06,1.259438728290052220e-04,-7.189106559760438664e-01,-6.123085872400343271e-03,1.259698029159621779e-04,7.189367311916302627e-01
3.920000000000000000e+09,-5.761032059944074252e-07,1.385615949215887621e-04,-7.188946667600797369e-01,-6.433652355153771617e-03,1.385627925603349399e-04,7.189234547423759558e-01
4.080000000000000000e+09,-2.045999905440050931e-07,1.460156329675745305e-04,-7.188923313075196164e-01,-6.755626861579534098e-03,1.460157763122792347e-04,7.189240728387479296e-01
4.240000000000000000e+09,8.349603605783374097e-07,1.469134584941339972e-04,-7.189071162068306764e-01,-7.088734819647063944e-03,1.469158311602645681e-04,7.189420643516172271e-01
4.400000000000000000e+09,2.057998061904756641e-06,1.441736218598942707e-04,-7.189358698540904147e-01,-7.434674542055899789e-03,1.441883094991497068e-04,7.189743106317526555e-01
4.560000000000000000e+09,2.092408567631605281e-06,1.424762488125362982e-04,-7.189568746059403770e-01,-7.798188821752994812e-03,1.424916125577419587e-04,7.189991650148431779e-01
4.720000000000000000e+09,1.585497411028242125e-06,1.450312200359996485e-04,-7.189839790626857408e-01,-8.181778064250843155e-03,1.450398861940084398e-04,7.190305303956885385e-01
4.880000000000000000e+09,9.197339216480009306e-07,1.519514604371709438e-04,-7.190200851439061402e-01,-8.590314845597916277e-03,1.519542439008392926e-04,7.190713986451530149e-01
5.040000000000000000e+09,3.798542591403086199e-07,1.610308720440849683e-04,-7.190703815029725332e-01,-9.030444011297789411e-03,1.610313200608398752e-04,7.191270836742778005e-01
5.200000000000000000e+09,-8.636024906549665426e-08,1.695200512763076796e-04,-7.191450006900047542e-01,-9.510488554842204401e-03,1.695200732739772075e-04,7.192078846967535632e-01
5.360000000000000000e+09,-8.668985178278804015e-07,1.754381878916468312e-04,-7.192633869439613026e-01,-1.003651487886514718e-02,1.754403296957258670e-04,7.193334076970235857e-01
5.520000000000000000e+09,-2.592425187482342850e-06,1.777233869342279503e-04,-7.194521287714821245e-01,-1.060188293202674742e-02,1.777422935930725626e-04,7.195302394726170725e-01
5.680000000000000000e+09,-6.391905769523461932e-06,1.754100866317041460e-04,-7.197318727323148702e-01,-1.118556357065108274e-02,1.755265078314623877e-04,7.198187865422506215e-01
5.840000000000000954e+09,-1.500743650194727913e-05,1.668038039827552982e-04,-7.201125122938364376e-01,-1.176141653357794421e-02,1.674775572232812117e-04,7.202085540182211476e-01
6.000000000000000000e+09,-3.467950935046750882e-05,1.500032487136296409e-04,-7.205958439028741225e-01,-1.230302255230167688e-02,1.539598746213837344e-04,7.207008634752825049e-01
6.160000000000000954e+09,-7.678861596864064725e-05,1.257440929164351060e-04,-7.211775568985134832e-01,-1.278477892818232105e-02,1.473365821707441482e-04,7.212908700006892548e-01
6.320000000000000000e+09,-1.574820097955363380e-04,1.025720118027098442e-04,-7.218480119623004176e-01,-1.318225109904874216e-02,1.879404187887657302e-04,7.219683678098118840e-01
6.480000000000000000e+09,-2.932821870060474357e-04,1.029333564884069756e-04,-7.225923942344691930e-01,-1.347256569006404121e-02,3.108210370824659205e-04,7.227179797346788837e-01
6.640000000000000000e+09,-4.914216958918204287e-04,1.671826443852773283e-04,-7.233905576845693908e-01,-1.363507699945629321e-02,5.190812265694521232e-04,7.235190490042217037e-01
6.800000000000000954e+09,-7.356341012080712047e-04,3.513924795831332559e-04,-7.242167950356324102e-01,-1.365245848137366241e-02,8.152510077073131045e-04,7.243454671869417050e-01
6.960000000000000954e+09,-9.710897142078862582e-04,7.150434340203958537e-04,-7.250398198965760654e-01,-1.351231831946217606e-02,1.205944586445013454e-03,7.251657211851825213e-01
7.120000000000000000e+09,-1.095224047204356854e-03,1.296826722560273605e-03,-7.258233345877351805e-01,-1.320930870544890015e-02,1.697431960910690540e-03,7.259435231948386802e-01
7.280000000000000954e+09,-9.630606423064228504e-04,2.081061238045411009e-03,-7.265275854554660295e-01,-1.274747038867484958e-02,2.293098706391584474e-03,7.266394088053989009e-01
7.440000000000000000e+09,-4.148810872001101706e-04,2.963030321531425360e-03,-7.271121848843425939e-01,-1.214227088834527943e-02,2.991934993082397479e-03,7.272135615825713328e-01
7.600000000000001907e+09,6.703630492269469464e-04,3.727519199475449064e-03,-7.275401481341544629e-01,-1.142157312897671209e-02,3.787319104620964164e-03,7.276297956239889952e-01
7.760000000000000954e+09,2.301194775582370792e-03,4.058895424402618815e-03,-7.277825938270869877e-01,-1.062477842523057783e-02,4.665847132236986862e-03,7.278601443919483494e-01
7.919999999999999046e+09,4.297256749200397200e-03,3.600420562820006755e-03,-7.278230698598930903e-01,-9.799751704277222253e-03,5.606196910359597524e-03,7.278890411001832650e-01
8.080000000000000954e+09,6.243286680177028217e-03,2.071389943387918001e-03,-7.276602666467546499e-01,-8.997825700039593227e-03,6.577939256974367661e-03,7.277158954727830364e-01
8.240000000000000000e+09,7.518365535119793906e-03,-5.712771883547484910e-04,-7.273081804957274299e-01,-8.267940179596580327e-03,7.540038325208410323e-03,7.273551733856156165e-01
8.400000000000000954e+09,7.443181694153493469e-03,-3.977513745535829481e-03,-7.267935666059115452e-01,-7.651424358939240729e-03,8.439287252375530374e-03,7.268338412281462046e-01
8.560000000000000000e+09,5.552603602730731350e-03,-7.348590762611717161e-03,-7.261514715952859245e-01,-7.178796065728749141e-03,9.210493633101352745e-03,7.261869558267709523e-01
8.720000000000000000e+09,1.733715571752255172e-03,-9.569606546101993086e-03,-7.254203310073503719e-01,-6.869224060805298460e-03,9.725386322966012367e-03,7.254528536562602214e-01
8.880000000000000000e+09,-2.876217046555834631e-03,-9.737692086991465296e-03,-7.246382100678909755e-01,-6.732254687589414241e-03,1.015358417899583747e-02,7.246694824149665370e-01
9.040000000000000000e+09,-6.821604626133890605e-03,-7.410749963422806272e-03,-7.238411328230862640e-01,-6.770508306326488215e-03,1.007241305227612321e-02,7.238727963871378623e-01
9.200000000000001907e+09,-9.164457665931255437e-03,-3.259032494299217257e-03,-7.230633322999927559e-01,-6.981835646725411543e-03,9.726694048315919980e-03,7.230970395083688995e-01
9.360000000000000000e+09,-8.964598884635450668e-03,1.331039858014744330e-03,-7.223383699771148692e-01,-7.360110331515254921e-03,9.062874834512008385e-03,7.223758661287678073e-01
9.520000000000001907e+09,-6.535063922624682192e-03,4.826083580069716328e-03,-7.217001310244416379e-01,-7.894852144859985932e-03,8.123924125360183421e-03,7.217433115804299248e-01
9.680000000000000000e+09,-3.033816578968949115e-03,6.280234889009307132e-03,-7.211835072994916551e-01,-8.570186013212192228e-03,6.974624957369148816e-03,7.212344274153147383e-01
9.840000000000000000e+09,1.582598947269271000e-04,5.694809998553996763e-03,-7.208250194340787287e-01,-9.362951962473444259e-03,5.697008611008899659e-03,7.208858255726711128e-01
1.000000000000000000e+10,2.084370841724432228e-03,3.857433299198442019e-03,-7.206629010866202334e-01,-1.023896464305633879e-02,4.384563086967274703e-03,7.207356335020113081e-01
1.016000000000000000e+10,2.541638508427671202e-03,1.831797013773660840e-03,-7.207344589188483530e-01,-1.114663776590787102e-02,3.132954932199398697e-03,7.208206488486088581e-01
1.032000000000000191e+10,1.986319939386918358e-03,4.153350371167332643e-04,-7.210667071182204069e-01,-1.200944347394806815e-02,2.029278220122319489e-03,7.211667094693621216e-01
1.048000000000000000e+10,1.158574236714743182e-03,-1.794075264710604575e-04,-7.217147272966154548e-01,-1.263326237236979226e-02,1.172382754280194101e-03,7.218252883593072600e-01
1.064000000000000191e+10,3.166542037560245116e-04,-1.380092019937509081e-04,-7.224821128324148134e-01,-1.312025819144690443e-02,3.454220962696420119e-04,7.226012348022942122e-01
1.080000000000000000e+10,2.225528095703058597e-04,4.278562320292886908e-05,-7.233008487977385936e-01,-1.328535454577609021e-02,2.266282475784954509e-04,7.234228490426163338e-01
1.096000000000000000e+10,1.406752721578035271e-04,1.885496293014960996e-04,-7.240608051265656764e-01,-1.305871027017308471e-02,2.352456054986015906e-04,7.241785549396301258e-01
1.112000000000000191e+10,1.177425651646846086e-04,2.820782862040763402e-04,-7.245970947526101380e-01,-1.259883107052705772e-02,3.056656199172370046e-04,7.247066166858605607e-01
1.128000000000000000e+10,1.349252662987427277e-04,3.696098469720236214e-04,-7.248776318622431880e-01,-1.204497352961067524e-02,3.934669826865646387e-04,7.249776979752844408e-01
1.144000000000000191e+10,2.233150975151513618e-04,4.353762600333345055e-04,-7.249485469007962424e-01,-1.149435383200267217e-02,4.893077973819907542e-04,7.250396650001924570e-01
1.160000000000000000e+10,3.714012354707244522e-04,4.128638602175783425e-04,-7.248674164111722495e-01,-1.097537675189141394e-02,5.553336337580685707e-04,7.249505019444111298e-01
1.176000000000000000e+10,4.900511166758623593e-04,2.574990889786286734e-04,-7.246531782403213828e-01,-1.048375044520131333e-02,5.535845714794472919e-04,7.247290098769306743e-01
1.192000000000000000e+10,4.639153239605048719e-04,3.065791500036607175e-05,-7.242924906932182161e-01,-1.003477566999895487e-02,4.649272368420136279e-04,7.243620012102600647e-01
1.208000000000000000e+10,2.831139218244194621e-04,-1.149219163228347548e-04,-7.237829762477396844e-01,-9.676969844336280255e-03,3.055495697626100962e-04,7.238476638433009036e-01
1.224000000000000191e+10,8.209115027774224662e-05,-9.357382278407850619e-05,-7.231578521102332013e-01,-9.462269258609752251e-03,1.244789832234702482e-04,7.232197547137442228e-01
1.240000000000000000e+10,-1.127577980565314542e-05,1.952171730078860237e-05,-7.224717357009412533e-01,-9.418577070661304090e-03,2.254419341199600995e-05,7.225331262168999125e-01
1.256000000000000191e+10,-7.685527981451592341e-06,1.014490364895941261e-04,-7.217794146672447120e-01,-9.550752123432237548e-03,1.017397382787113140e-04,7.218426007818558032e-01
1.272000000000000000e+10,6.428332939781647177e-06,1.243289270589423550e-04,-7.211333802038549790e-01,-9.850657623926185533e-03,1.244950021808606283e-04,7.212006568908970738e-01
1.288000000000000000e+10,-3.926683013238038418e-06,1.346239508894027284e-04,-7.205880262113556478e-01,-1.029170664454333306e-02,1.346812050456884296e-04,7.206615174579774630e-01
1.304000000000000191e+10,-1.980884864570881511e-05,1.586358022159134234e-04,-7.201837518010145711e-01,-1.081829505571544302e-02,1.598677835880481593e-04,7.202650011392319751e-01
1.320000000000000191e+10,-2.301707656394347192e-05,1.933394965125631874e-04,-7.199233839318683881e-01,-1.136308462817472303e-02,1.947047681113173601e-04,7.200130543428913121e-01
1.336000000000000191e+10,-5.036720397543773735e-06,2.230277899016556856e-04,-7.197798494360351240e-01,-1.187672914398173706e-02,2.230846557268789578e-04,7.198778287663267772e-01
1.352000000000000000e+10,2.983776204842955961e-06,2.332907033632280775e-04,-7.197182200175025191e-01,-1.233059053413119305e-02,2.333097837557402245e-04,7.198238393441013239e-01
1.368000000000000191e+10,2.958244502860804277e-05,2.196290869553390549e-04,-7.196979742626735677e-01,-1.270894496373441325e-02,2.216124023846736144e-04,7.198101773661492730e-01
1.384000000000000000e+10,2.490296442698128234e-05,2.157830573403132877e-04,-7.196722373979713705e-01,-1.301864807816337753e-02,2.172152975100612778e-04,7.197899794239880356e-01
1.400000000000000191e+10,1.686506020940379974e-05,2.209834660355242261e-04,-7.196475614737054549e-01,-1.318290308156075050e-02,2.216260871759922232e-04,7.197682972100872822e-01
1.416000000000000191e+10,1.396358282492245358e-05,2.210338450075597023e-04,-7.195166135983077638e-01,-1.358644716906684362e-02,2.214744732111003376e-04,7.196448768598678880e-01
1.432000000000000000e+10,3.701039627595918677e-06,2.289092793897172669e-04,-7.194254536840783976e-01,-1.390863438362384928e-02,2.289391969170955833e-04,7.195598887646248443e-01
1.448000000000000191e+10,1.539835725801760684e-06,2.495256916076199222e-04,-7.193889024316090230e-01,-1.394696637180108285e-02,2.495304427646524476e-04,7.195240863325780278e-01
1.464000000000000000e+10,1.584038715830690311e-05,2.670498465672716849e-04,-7.193587233958310678e-01,-1.458509902412510537e-02,2.675192299946461830e-04,7.195065656679050514e-01
1.480000000000000191e+10,3.752833288361652930e-05,2.631257878426540835e-04,-7.193809937270037036e-01,-1.487933297458250877e-02,2.657885550523967689e-04,7.195348557821363844e-01
1.496000000000000191e+10,4.141566032679229855e-05,2.459682917604899544e-04,-7.194039904399807117e-01,-1.512309813233549995e-02,2.494306666628579223e-04,7.195629295329826203e-01
1.512000000000000191e+10,2.872655684715969389e-05,2.390193776077334758e-04,-7.193967067170756735e-01,-1.533124261583910554e-02,2.407394399351327435e-04,7.195600521398612948e-01
1.528000000000000191e+10,1.905273114047196381e-05,2.465362390427032740e-04,-7.193485363206068017e-01,-1.553567082725905782e-02,2.472713564593198772e-04,7.195162776300841889e-01
1.544000000000000000e+10,1.862187126692859556e-05,2.549463147689934577e-04,-7.192739049118690442e-01,-1.576387437424640880e-02,2.556255024518734489e-04,7.194466276399211768e-01
1.560000000000000191e+10,1.990225152703588036e-05,2.589724670925107200e-04,-7.191990937024340669e-01,-1.602371899899929925e-02,2.597360936177853393e-04,7.193775753753806068e-01
1.576000000000000000e+10,1.961779242623382840e-05,2.619463276708785919e-04,-7.191447109915275471e-01,-1.630375983586077049e-02,2.626799123647221125e-04,7.193294988611776963e-01
1.592000000000000191e+10,1.891030127139908389e-05,2.655533891203536384e-04,-7.191157417227654891e-01,-1.658487717756159871e-02,2.662258476697577166e-04,7.193069637814428763e-01
1.608000000000000191e+10,1.853418205882252857e-05,2.695019261528191568e-04,-7.191035990336850370e-01,-1.685347590303922297e-02,2.701384906018932655e-04,7.193010675601790860e-01
1.624000000000000191e+10,1.844139565899841158e-05,2.733382740736893394e-04,-7.190958595359199235e-01,-1.710719952806313490e-02,2.739596633583765814e-04,7.192993198087959117e-01
1.640000000000000191e+10,1.817514564705508673e-05,2.768675647919337387e-04,-7.190847999435995286e-01,-1.735169931893579959e-02,2.774634829182162491e-04,7.192941199392507423e-01
1.656000000000000000e+10,1.736507427840469969e-05,2.807894557950205800e-04,-7.190696552573162537e-01,-1.759388944088891016e-02,2.813259040514369774e-04,7.192848629420293127e-01
1.672000000000000191e+10,1.775740180381964699e-05,2.857380175314353497e-04,-7.190537893752998455e-01,-1.783737155103235286e-02,2.862892592844117675e-04,7.192749987583523241e-01
1.688000000000000000e+10,2.051457999243302814e-05,2.883227186274249640e-04,-7.190408226945096404e-01,-1.808178367951235321e-02,2.890516183469229484e-04,7.192681388760591155e-01
1.704000000000000191e+10,2.069039982164847256e-05,2.873309859929343009e-04,-7.190322669663999910e-01,-1.832437031378466794e-02,2.880749696805529015e-04,7.192657252269407664e-01
1.720000000000000000e+10,1.765378521557063308e-05,2.885352270238674527e-04,-7.190266411113269696e-01,-1.856221182177053564e-02,2.890747885343033954e-04,7.192661999117943017e-01
1.736000000000000000e+10,1.635185945672868591e-05,2.919702619790599308e-04,-7.190202515620984780e-01,-1.879483028014534637e-02,2.924277982473853441e-04,7.192658533544344923e-01
1.752000000000000000e+10,1.638883647234796353e-05,2.946856772595910618e-04,-7.190104339652131360e-01,-1.902553319083226738e-02,2.951410549938134975e-04,7.192621045655328560e-01
1.768000000000000000e+10,1.634193856733368017e-05,2.970971275087507554e-04,-7.189991339169562456e-01,-1.925866783546738292e-02,2.975462352813246832e-04,7.192570130767791392e-01
1.784000000000000381e+10,1.638636178034539567e-05,2.998272769410435172e-04,-7.189916815407529915e-01,-1.949419054279226751e-02,3.002747222965622474e-04,7.192559082758501754e-01
