# Frequency, Real(S21), Imag(S21), Real(S11), Imag(S11)
4.000000000000000000e+09,3.614616267865029765e-05,1.412742354925603102e-04,-7.187978022868565242e-01,6.828768329066051135e-03
4.080000000000000000e+09,1.790038849092452813e-06,1.459474756093260151e-04,-7.187640178693894821e-01,6.986758588833398738e-03
4.160000000000000477e+09,2.922142358054078041e-06,1.469761620459253404e-04,-7.187433588589298150e-01,7.146375870632849618e-03
4.240000000000000000e+09,3.294114501824067684e-06,1.465711212852799047e-04,-7.187295654900259789e-01,7.308234409149349207e-03
4.320000000000000000e+09,3.695849645132280110e-06,1.452190998327395483e-04,-7.187234069849728346e-01,7.473203712622884624e-03
4.400000000000000000e+09,3.458919794818678996e-06,1.435555210641758193e-04,-7.187313888906923243e-01,7.641809286588331467e-03
4.480000000000000000e+09,4.062546283300695778e-06,1.422012412877313886e-04,-7.187098009604089288e-01,7.810234371269690438e-03
4.560000000000000000e+09,4.037214547922163507e-06,1.416667732662356383e-04,-7.187022574389267948e-01,7.982615022367444899e-03
4.640000000000000000e+09,3.791262348707022448e-06,1.423079483827970905e-04,-7.187074140588148863e-01,8.159271876347165900e-03
4.720000000000000000e+09,3.770308333346551439e-06,1.441377145954649062e-04,-7.186853851207555266e-01,8.336103783711161161e-03
4.800000000000000000e+09,3.678779516991000234e-06,1.472191272934445850e-04,-7.186875290975851538e-01,8.519195768900336002e-03
4.880000000000000000e+09,4.099653901098355205e-06,1.511195716851112115e-04,-7.186458498210662738e-01,8.703616707979784997e-03
4.960000000000000000e+09,3.629472478732146954e-06,1.557172666571826224e-04,-7.186543143921637622e-01,8.892132619183611142e-03
5.040000000000000000e+09,3.789762424649976847e-06,1.605662056678916331e-04,-7.186419349405971380e-01,9.085704771218698281e-03
5.120000000000000000e+09,4.058032102394617963e-06,1.653704376147026919e-04,-7.186282524924667570e-01,9.284107111975310744e-03
5.200000000000000000e+09,4.412420051509320369e-06,1.698844982416905015e-04,-7.186130189450925521e-01,9.487871629830307851e-03
5.280000000000000000e+09,4.822195714661328264e-06,1.739479779985317483e-04,-7.185959093583222934e-01,9.697618635503916715e-03
5.360000000000000000e+09,5.253947996086081248e-06,1.774848141029926980e-04,-7.185764865128028145e-01,9.914074991537366252e-03
5.440000000000000000e+09,5.676669209236094140e-06,1.804891732783551919e-04,-7.185541432132945827e-01,1.013809262722208462e-02
5.520000000000000000e+09,6.064964274579484203e-06,1.830034257754772626e-04,-7.185280064582215687e-01,1.037065637892381834e-02
5.600000000000000000e+09,6.400288316351163679e-06,1.850936677322051385e-04,-7.184967830449617843e-01,1.061284540858478502e-02
5.680000000000000000e+09,6.670654868814055953e-06,1.868270004069995805e-04,-7.184585569437349495e-01,1.086565708316229902e-02
5.760000000000000000e+09,6.869588403028909887e-06,1.882528968080402366e-04,-7.184107040612561779e-01,1.112958339895172254e-02
5.840000000000000954e+09,6.994721569124871208e-06,1.893889571307855949e-04,-7.183502476451527619e-01,1.140412957278812318e-02
5.920000000000000000e+09,7.045133524310705827e-06,1.902097535036591474e-04,-7.182745121357270168e-01,1.168781398458500903e-02
6.000000000000000000e+09,7.015257894739230565e-06,1.906380421475899970e-04,-7.181814552577636679e-01,1.197860379495043447e-02
6.080000000000000000e+09,6.883582187719255817e-06,1.905387569785664699e-04,-7.180696167600794100e-01,1.227427689160746731e-02
6.160000000000000000e+09,6.595507598024541541e-06,1.897166053843228964e-04,-7.179379749632091023e-01,1.257257958176490747e-02
6.239999999999999046e+09,6.040444498695724131e-06,1.879182089406395556e-04,-7.177858376625433356e-01,1.287127614317284778e-02
6.320000000000000000e+09,5.023782217953186768e-06,1.848400658941069558e-04,-7.176127744261596719e-01,1.316816021422758179e-02
6.400000000000000954e+09,3.235037726633353003e-06,1.801441093332495141e-04,-7.174185758372391142e-01,1.346105523241819361e-02
6.480000000000000000e+09,2.143809453193651219e-07,1.734829604323375862e-04,-7.172032286025509240e-01,1.374781266683051777e-02
6.560000000000000000e+09,-4.679371016812894487e-06,1.645369394220729670e-04,-7.169669000533656078e-01,1.402631059416326390e-02
6.640000000000000000e+09,-1.229528156497104903e-05,1.530644594451034191e-04,-7.167099286071536568e-01,1.429445318665268153e-02
6.720000000000000000e+09,-2.370659553218819934e-05,1.389664913508205151e-04,-7.164328182406266565e-01,1.455017122746559213e-02
6.799999999999999046e+09,-4.021159242495871101e-05,1.223644027802666008e-04,-7.161362360150648199e-01,1.479142365964121117e-02
6.880000000000000000e+09,-6.331365694722059000e-05,1.036887370092904844e-04,-7.158210120586637748e-01,1.501620029647916452e-02
6.960000000000000954e+09,-9.467551437598577214e-05,8.377442004743519027e-05,-7.154881416583570575e-01,1.522252592707190079e-02
7.039999999999999046e+09,-1.360433933264214258e-04,6.395635018226379707e-05,-7.151387891572629218e-01,1.540846613858272082e-02
7.120000000000000000e+09,-1.887232644220988159e-04,5.031403531413752568e-05,-7.147303760140737428e-01,1.572256681641678866e-02
7.200000000000000000e+09,-2.555136538991469790e-04,3.295288549720788588e-05,-7.143961739683776235e-01,1.571170680782080220e-02
7.280000000000000000e+09,-3.363800193126376993e-04,2.762140925742501271e-05,-7.140061387886134092e-01,1.582542699125677813e-02
7.359999999999999046e+09,-4.324024567742900749e-04,3.413662751307545073e-05,-7.136060906996753994e-01,1.591163142109565387e-02
7.440000000000000000e+09,-5.434764179593039790e-04,5.712465948823038705e-05,-7.131981340089260657e-01,1.596876554303478662e-02
7.520000000000000000e+09,-6.684932603538379196e-04,1.017574101267919653e-04,-7.127845791086948601e-01,1.599540879274823774e-02
7.599999999999999046e+09,-8.051082844260145505e-04,1.735824142239193041e-04,-7.123679445363839680e-01,1.599030255148550447e-02
7.680000000000000000e+09,-9.495270579292459587e-04,2.782838545976075700e-04,-7.119509553595008144e-01,1.595238163890388972e-02
7.760000000000000954e+09,-1.096327848464460171e-03,4.213744922867647055e-04,-7.115365368171919780e-01,1.588080894634754520e-02
7.840000000000000000e+09,-1.238339287927459412e-03,6.078212739039252910e-04,-7.111278021389335624e-01,1.577501242733399950e-02
7.919999999999999046e+09,-1.366593125994511413e-03,8.416117183010125586e-04,-7.107280334789521925e-01,1.563472351094742641e-02
8.000000000000000000e+09,-1.470371553386300590e-03,1.125272442012568552e-03,-7.103406551948571179e-01,1.546001557885732028e-02
8.080000000000000000e+09,-1.537367421973083632e-03,1.459355797626062708e-03,-7.099691987111906855e-01,1.525134091033203236e-02
8.159999999999999046e+09,-1.553973539917412154e-03,1.841915641849321264e-03,-7.096172587200039183e-01,1.500956428950479815e-02
8.240000000000000000e+09,-1.505713748208731620e-03,2.267998066043571022e-03,-7.092884407947460668e-01,1.473599111607455485e-02
8.320000000000000954e+09,-1.377824288657836281e-03,2.729178236774335888e-03,-7.089863009847310327e-01,1.443238793381911370e-02
8.400000000000000000e+09,-1.155988054229652607e-03,3.213179824878109429e-03,-7.087142785379690890e-01,1.410099315471840045e-02
8.480000000000000000e+09,-8.272174801051627568e-04,3.703617919070254991e-03,-7.084756235223590437e-01,1.374451601583681973e-02
8.560000000000000000e+09,-3.808729725738779683e-04,4.179911028919427313e-03,-7.082733216524561559e-01,1.336612209509004980e-02
8.640000000000000000e+09,1.902068032642846248e-04,4.617410812770510360e-03,-7.081100192093425783e-01,1.296940427854486114e-02
8.720000000000000000e+09,8.884992236972623792e-04,4.987799575912646791e-03,-7.079879512874351910e-01,1.255833875635417249e-02
8.800000000000000000e+09,1.710568473166654280e-03,5.259804761283766797e-03,-7.079088768147965283e-01,1.213722644854925946e-02
8.880000000000000000e+09,2.645882516441329813e-03,5.400273826399409546e-03,-7.078740238375741400e-01,1.171062120828271838e-02
8.959999999999998093e+09,3.675766220453054699e-03,5.375642740972974738e-03,-7.078840481027915965e-01,1.128324708546394814e-02
9.040000000000000000e+09,4.772601939831327793e-03,5.153812733394404905e-03,-7.079390075426282847e-01,1.085990769287458607e-02
9.120000000000000000e+09,5.899409663542572874e-03,4.706421860156045911e-03,-7.080383543623619547e-01,1.044539151435050495e-02
9.200000000000000000e+09,7.009955297200175933e-03,4.011459066704288132e-03,-7.081809453854100989e-01,1.004437726157400915e-02
9.280000000000000000e+09,8.049543615391341334e-03,3.056116741484649502e-03,-7.083650702715991176e-01,9.661343582401222055e-03
9.360000000000000000e+09,8.956644907214461257e-03,1.839714569625374753e-03,-7.085884960749849748e-01,9.300487123758987076e-03
9.440000000000000000e+09,9.665474396541137020e-03,3.764571125547781782e-04,-7.088485255646275185e-01,8.965652414522592636e-03
9.520000000000000000e+09,1.010958344441634585e-02,-1.302284829872668755e-03,-7.091420660222127470e-01,8.660276208739105600e-03
9.600000000000000000e+09,1.022642555370235386e-02,-3.146538647973034109e-03,-7.094657046870149752e-01,8.387347903948785474e-03
9.680000000000000000e+09,9.962726987372227255e-03,-5.087542347444417440e-03,-7.098157868229637568e-01,8.149386569903837446e-03
9.760000000000000000e+09,9.280327834873971712e-03,-7.039190167854247719e-03,-7.101884925991617248e-01,7.948434096138136395e-03
9.840000000000000000e+09,8.161981486023817123e-03,-8.901411806240839414e-03,-7.105799092393337846e-01,7.786062934066645923e-03
9.920000000000000000e+09,6.616438787104989352e-03,-1.056561701683547336e-02,-7.109860957901380507e-01,7.663396361774428393e-03
1.000000000000000000e+10,4.682038155688805076e-03,-1.192208364297976664e-02,-7.114031383944204867e-01,7.581138511096860433e-03
1.008000000000000000e+10,2.428020049003336463e-03,-1.286884965349210062e-02,-7.118271948970976704e-01,7.539611477079160781e-03
1.016000000000000000e+10,-4.707804012562405438e-05,-1.332133209438641878e-02,-7.122545283749602829e-01,7.538796555372045613e-03
1.024000000000000000e+10,-2.620295763043560110e-03,-1.322160695043287509e-02,-7.126815296968803670e-01,7.578377226705428592e-03
1.032000000000000000e+10,-5.152312470410636697e-03,-1.254612296814447241e-02,-7.131047297623800407e-01,7.657781645631621739e-03
1.040000000000000000e+10,-7.683651693773159257e-03,-1.134371576243242002e-02,-7.135208022355015167e-01,7.776222891925177981e-03
1.048000000000000000e+10,-9.519194542717901789e-03,-9.571564848074441689e-03,-7.139265576720447148e-01,7.932735561036390742e-03
1.056000000000000000e+10,-1.109589859716035229e-02,-7.422897366825434960e-03,-7.143189298482287564e-01,8.126207530885391078e-03
1.064000000000000000e+10,-1.213834972670038703e-02,-4.989440264256017610e-03,-7.146949550095866854e-01,8.355405732466479607e-03
1.072000000000000000e+10,-1.259460619956311728e-02,-2.416463043520761852e-03,-7.150517446307823599e-01,8.618994756971434801e-03
1.080000000000000000e+10,-1.245503164959461777e-02,1.426587630317915478e-04,-7.153864523155968325e-01,8.915546767926331787e-03
1.088000000000000000e+10,-1.175243214823420285e-02,2.539463029930715508e-03,-7.156962355812197529e-01,9.243540958707418750e-03
1.096000000000000000e+10,-1.055809111075567755e-02,4.642573955490274240e-03,-7.159782136747223635e-01,9.601350292925204741e-03
1.104000000000000000e+10,-8.974348272148834765e-03,6.347749902286712979e-03,-7.162294231966352953e-01,9.987212908040664014e-03
1.112000000000000191e+10,-7.124729227863771906e-03,7.584900302657831411e-03,-7.164467741571552972e-01,1.039918509279104050e-02
1.120000000000000000e+10,-5.142804764409445416e-03,8.321608425205476167e-03,-7.166270104523270179e-01,1.083507263787651144e-02
1.128000000000000000e+10,-3.160953852025337636e-03,8.563127119231090517e-03,-7.167666803956268540e-01,1.129233723739801049e-02
1.135999999999999809e+10,-1.300063360874761454e-03,8.349169493877033055e-03,-7.168621253262675852e-01,1.176797514674038717e-02
1.143999999999999809e+10,3.390248153659321598e-04,7.748069857013043654e-03,-7.169094970664156019e-01,1.225836663449515404e-02
1.152000000000000000e+10,1.681760866421733430e-03,6.849036585489886794e-03,-7.169048185478347213e-01,1.275909731906246965e-02
1.160000000000000000e+10,2.683514900685442586e-03,5.753279007237710463e-03,-7.168441053623830772e-01,1.326475728872791165e-02
1.168000000000000191e+10,3.330488213897770527e-03,4.564786964798910399e-03,-7.167235690585351815e-01,1.376873133050652773e-02
1.176000000000000000e+10,3.637994034670528898e-03,3.381503355995899105e-03,-7.165399238120423453e-01,1.426300482404820220e-02
1.184000000000000000e+10,3.646352377549219592e-03,2.287571798811966622e-03,-7.162908141888786329e-01,1.473802456988465050e-02
1.191999999999999809e+10,3.451516924961118941e-03,6.998936253172715304e-04,-7.159753699779206615e-01,1.518267131258982383e-02
1.200000000000000000e+10,3.075175360719668849e-03,5.869069990866479340e-04,-7.155275731622794400e-01,1.547742976645495247e-02
1.208000000000000000e+10,2.517374669886776866e-03,6.490495632495148041e-05,-7.151534598546576138e-01,1.592974435945066630e-02
1.216000000000000000e+10,1.991448776751993718e-03,-2.752077188253744099e-04,-7.146728017165344671e-01,1.622467824808465978e-02
1.224000000000000191e+10,1.499887792459870389e-03,-4.283784374040528484e-04,-7.141225845712464437e-01,1.639702407777601095e-02
1.232000000000000000e+10,1.075232600328174509e-03,-4.519464619093515332e-04,-7.135604444766885379e-01,1.649551094853012739e-02
1.239999999999999809e+10,7.407012606568464438e-04,-3.848391426044988402e-04,-7.129915353362203945e-01,1.649358267590024171e-02
1.247999999999999809e+10,4.994625798521033951e-04,-2.696490044300498662e-04,-7.124372391099649260e-01,1.638962468790331264e-02
1.256000000000000000e+10,3.409947051351818609e-04,-1.408959013892380836e-04,-7.119193385175172084e-01,1.618803396511961021e-02
1.264000000000000000e+10,2.467241273090993838e-04,-2.179733821719518488e-05,-7.114578400070585840e-01,1.589924643357261413e-02
1.272000000000000000e+10,1.958341269851740670e-04,7.603459688926441197e-05,-7.110688859540089668e-01,1.553881979173028609e-02
1.280000000000000191e+10,1.698582283649140005e-04,1.505118459167843563e-04,-7.107632145368021348e-01,1.512569368465267912e-02
1.288000000000000000e+10,1.552834078288585582e-04,2.057547353840600115e-04,-7.105455011545391830e-01,1.467998172142158907e-02
1.295999999999999809e+10,1.442062933449626274e-04,2.487795719065537692e-04,-7.104146783563540790e-01,1.422076747173264301e-02
1.303999999999999809e+10,1.337143923407598163e-04,2.870004829918502195e-04,-7.103650803847205708e-01,1.376433884007942018e-02
1.312000000000000000e+10,1.248291474006542844e-04,3.266955894176582376e-04,-7.103880867180891734e-01,1.332313721194820430e-02
1.320000000000000000e+10,1.215471252936172988e-04,3.720651272828390905e-04,-7.104738866934198205e-01,1.290549850053152904e-02
1.328000000000000000e+10,1.299896159604704057e-04,4.243827302313550424e-04,-7.106130347595747132e-01,1.251609497872541686e-02
1.335999999999999809e+10,1.572541680605632779e-04,4.810392871754631513e-04,-7.107975636961966215e-01,1.215688104381052077e-02
1.344000000000000000e+10,2.140603077360363812e-04,5.303355645167734389e-04,-7.111595790496089142e-01,1.163475037111479961e-02
1.351999999999999809e+10,2.894000482650513394e-04,5.740862233461643902e-04,-7.112809744916790411e-01,1.153045779752765940e-02
1.359999999999999809e+10,3.931857390733892914e-04,5.848440522272233596e-04,-7.115733686015357495e-01,1.126410789322289559e-02
1.368000000000000000e+10,5.093396935781746397e-04,5.543782828821308163e-04,-7.118967601927405076e-01,1.103109734767335204e-02
1.376000000000000000e+10,6.194084560140204927e-04,4.759374293878698855e-04,-7.122488672883988681e-01,1.083435269064727917e-02
1.384000000000000000e+10,7.017910620692266064e-04,3.524487320179730903e-04,-7.126264109184604623e-01,1.067739217012590724e-02
1.392000000000000000e+10,7.373970911168606802e-04,1.975729905600576695e-04,-7.130248637795247868e-01,1.056361899998710906e-02
1.400000000000000000e+10,7.152049843539742997e-04,3.330229932778079691e-05,-7.134386292391698969e-01,1.049566810501350450e-02
1.407999999999999809e+10,6.356481395256660281e-04,-1.152168664319460625e-04,-7.138615046552077015e-01,1.047502027796775280e-02
1.415999999999999809e+10,5.106650245323374150e-04,-2.258421712613016595e-04,-7.142872055700852929e-01,1.050195825889492854e-02
1.424000000000000000e+10,3.605718371732624769e-04,-2.845592075335987427e-04,-7.147097506361224095e-01,1.057579935415215583e-02
1.432000000000000000e+10,2.089611732801381161e-04,-2.881522091343059169e-04,-7.151235940170762584e-01,1.069525471093964002e-02
1.440000000000000000e+10,7.724087699515971980e-05,-2.439646401520732745e-04,-7.155234904776898164e-01,1.085874471603617310e-02
1.448000000000000000e+10,-1.974343454475436382e-05,-1.671622024370394586e-04,-7.159041596611672720e-01,1.106451979152676263e-02
1.456000000000000000e+10,-7.605653046128727337e-05,-7.646534904244022186e-05,-7.162598827672348456e-01,1.131047428802924547e-02
1.463999999999999809e+10,-9.464201845710683444e-05,1.045013682562179945e-05,-7.165842312728372132e-01,1.159360246945496768e-02
1.471999999999999809e+10,-8.514446867436670078e-05,8.070854061041808571e-05,-7.168701870302570667e-01,1.190916140931550134e-02
1.480000000000000000e+10,-6.035532521953100045e-05,1.282220674909560678e-04,-7.171109042910605025e-01,1.224980303824562897e-02
1.488000000000000000e+10,-3.246188468452257945e-05,1.535119077266749955e-04,-7.173011775243458565e-01,1.260516691971871363e-02
1.496000000000000191e+10,-1.033594129416291036e-05,1.617351232480448628e-04,-7.174392592566233295e-01,1.296249196936094181e-02
1.504000000000000191e+10,1.416825516194086961e-06,1.600131424495691769e-04,-7.175282082349255797e-01,1.330845960638563433e-02
1.511999999999999809e+10,1.896770690265522355e-06,1.552945222173900120e-04,-7.175758908631186817e-01,1.363174441667134966e-02
1.519999999999999809e+10,-7.188249289030390296e-06,1.533014225964578019e-04,-7.175933954864005537e-01,1.392514796791241224e-02
1.527999999999999809e+10,-2.233270088346145973e-05,1.581640311501529854e-04,-7.175925625019135001e-01,1.418634442041193273e-02
1.536000000000000000e+10,-4.112139200979812525e-05,1.752650218392520830e-04,-7.176285512167350777e-01,1.445825195442232772e-02
1.544000000000000000e+10,-5.108898461491748091e-05,1.945645896686132434e-04,-7.175748257354599424e-01,1.462174929307094411e-02
1.552000000000000191e+10,-5.485130368220687076e-05,2.225573164351097948e-04,-7.175708045942758018e-01,1.480548269022969113e-02
1.560000000000000191e+10,-3.833029699302968259e-06,2.324478234246170035e-04,-7.175747428271677109e-01,1.497349135049969547e-02
1.567999999999999809e+10,-3.149697636862782503e-05,2.734165446781060705e-04,-7.175883083840889354e-01,1.513054134251519585e-02
1.575999999999999809e+10,-9.931819716041941982e-06,2.867475812919060597e-04,-7.176122904395848545e-01,1.528108841614916544e-02
1.583999999999999809e+10,1.127170739262358453e-05,2.901638231771635525e-04,-7.176466895860084128e-01,1.542951656473143772e-02
1.592000000000000000e+10,2.774625626529940821e-05,2.862973038138151701e-04,-7.176904829406136610e-01,1.558021062174169691e-02
