# Frequency, Real(S21), Imag(S21), Real(S11), Imag(S11)
4.000000000000000000e+09,1.734474929010136952e-06,1.447250330028162807e-04,-7.187396673015917781e-01,6.920119239838432718e-03
4.080000000000000000e+09,2.415188142490348379e-06,1.475416924226737253e-04,-7.187337076803235192e-01,7.086375146907183259e-03
4.160000000000000477e+09,3.120150223803986480e-06,1.486421859728256716e-04,-7.187273122471864450e-01,7.255292416877212429e-03
4.240000000000000000e+09,3.183671033698401073e-06,1.482893339319944586e-04,-7.187344578889873770e-01,7.428485814154351871e-03
4.320000000000000000e+09,4.298115251704092678e-06,1.470033308919416019e-04,-7.187130008841807749e-01,7.601830061794599344e-03
4.400000000000000000e+09,4.654089349582472636e-06,1.453881553155677642e-04,-7.187049536090059920e-01,7.779881560881183288e-03
4.480000000000000000e+09,4.825504778110470009e-06,1.440669520593868794e-04,-7.186962026593228803e-01,7.961468868439822849e-03
4.560000000000000000e+09,4.833720580106750392e-06,1.435436788936083675e-04,-7.186866443194768195e-01,8.146907715629175817e-03
4.640000000000000000e+09,4.729094898516408125e-06,1.441376422752109812e-04,-7.186761511421684290e-01,8.336567720564716857e-03
4.720000000000000000e+09,4.651253202815919003e-06,1.460127543722921696e-04,-7.186738930606293430e-01,8.532575597265792955e-03
4.800000000000000000e+09,4.454600853730532151e-06,1.489116129888385059e-04,-7.186516812887360217e-01,8.730362260187286838e-03
4.880000000000000000e+09,4.415182287547479221e-06,1.527626204608332366e-04,-7.186372405514024342e-01,8.935610333689263801e-03
4.960000000000000000e+09,4.500520534165927501e-06,1.571802977732012884e-04,-7.186208928601016677e-01,9.147344041326136918e-03
5.040000000000000000e+09,4.725093562519256632e-06,1.618095367752078956e-04,-7.186021584699566755e-01,9.366421276589145459e-03
5.120000000000000000e+09,5.078901480446456726e-06,1.663229709042846744e-04,-7.185803523754966671e-01,9.593870151768985402e-03
5.200000000000000000e+09,5.532326436921048516e-06,1.704575963724092990e-04,-7.185544529135566849e-01,9.830907889932063645e-03
5.280000000000000000e+09,6.043580272760264213e-06,1.740319895551912621e-04,-7.185228753764688614e-01,1.007889332426470733e-02
5.360000000000000000e+09,6.567108554205199333e-06,1.769454555054876792e-04,-7.184831661183902485e-01,1.033905190946126512e-02
5.440000000000000000e+09,7.061524314764548843e-06,1.791625287786705251e-04,-7.184319419523739203e-01,1.061179825252058125e-02
5.520000000000000000e+09,7.495653941521947391e-06,1.806864422901149035e-04,-7.183655829606898635e-01,1.089613178582885325e-02
5.600000000000000000e+09,7.849500033919974758e-06,1.815253880618804348e-04,-7.182811195283819172e-01,1.118991827052951381e-02
5.680000000000000000e+09,8.106526845302029172e-06,1.816573105308453943e-04,-7.181764370389062124e-01,1.149055694770197665e-02
5.760000000000000000e+09,8.235896713622311332e-06,1.809998186854534612e-04,-7.180500823978372971e-01,1.179534741850478755e-02
5.840000000000000954e+09,8.165447449226186869e-06,1.793902961850467326e-04,-7.179010743271410089e-01,1.210160315563434640e-02
5.920000000000000000e+09,7.747026569872111722e-06,1.765795231382427449e-04,-7.177287883931663393e-01,1.240667438449237665e-02
6.000000000000000000e+09,6.716358881880120596e-06,1.722409852954424479e-04,-7.175328926757306158e-01,1.270794787374708579e-02
6.080000000000000000e+09,4.650312980134909736e-06,1.659974436285779409e-04,-7.173133114438098312e-01,1.300284335657932860e-02
6.160000000000000000e+09,9.253262633823408634e-07,1.574656393616834401e-04,-7.170702042594798709e-01,1.328881121564787736e-02
6.239999999999999046e+09,-5.318234360416333089e-06,1.463193867988458617e-04,-7.168039539919125458e-01,1.356333233212218652e-02
6.320000000000000000e+09,-1.519989256769662084e-05,1.323703747399604250e-04,-7.165151604457092871e-01,1.382391985339969862e-02
6.400000000000000954e+09,-3.010465878291353745e-05,1.156647373783924318e-04,-7.162046378756574683e-01,1.406812271424954554e-02
6.480000000000000000e+09,-5.166341500865235864e-05,9.659180814054041907e-05,-7.158734155195056736e-01,1.429353081225193806e-02
6.560000000000000000e+09,-8.170148941057719179e-05,7.599966637174337752e-05,-7.155227406091092535e-01,1.449778208607229238e-02
6.640000000000000000e+09,-1.221497650184482742e-04,5.530974038939179922e-05,-7.151540835399463614e-01,1.467857183662977204e-02
6.720000000000000000e+09,-1.738195306209813686e-04,3.874395761971726588e-05,-7.147416058284106199e-01,1.490561081132133099e-02
6.799999999999999046e+09,-2.417043437486438365e-04,2.279047827776783074e-05,-7.143698632415868000e-01,1.496091103471826854e-02
6.880000000000000000e+09,-3.238173163660856791e-04,1.748138405048663439e-05,-7.139584248042929460e-01,1.505826502163096735e-02
6.960000000000000954e+09,-4.218925452448610801e-04,2.515746776869643396e-05,-7.135372711438907611e-01,1.512381084343042588e-02
7.039999999999999046e+09,-5.356381041697012499e-04,5.101753624111465303e-05,-7.131091066161441283e-01,1.515579170005584668e-02
7.120000000000000000e+09,-6.635487157287734729e-04,1.008536879793237159e-04,-7.126769023999695030e-01,1.515264542674068897e-02
7.200000000000000000e+09,-8.026319529261800693e-04,1.808258450931971538e-04,-7.122438961061925422e-01,1.511304550716677415e-02
7.280000000000000000e+09,-9.481644829184049557e-04,2.971476435295534232e-04,-7.118135850097828676e-01,1.503594722609773691e-02
7.359999999999999046e+09,-1.093502321035167302e-03,4.556841718739651839e-04,-7.113897111663288753e-01,1.492063802369918840e-02
7.440000000000000000e+09,-1.229970071412620543e-03,6.614681770223767004e-04,-7.109762365955866192e-01,1.476679059075311148e-02
7.520000000000000000e+09,-1.346854025316450302e-03,9.181476520353961789e-04,-7.105773070097038957e-01,1.457451665478498755e-02
7.599999999999999046e+09,-1.431522708425927905e-03,1.227383976967114923e-03,-7.101972029775889261e-01,1.434441890418770502e-02
7.680000000000000000e+09,-1.469696052362166622e-03,1.588225971229569825e-03,-7.098402779343773172e-01,1.407763796490459247e-02
7.760000000000000954e+09,-1.445881107350302898e-03,1.996490767129328880e-03,-7.095108832465510940e-01,1.377589104882377333e-02
7.840000000000000000e+09,-1.343988082968915329e-03,2.444188238478457818e-03,-7.092132814772112992e-01,1.344149866861712138e-02
7.919999999999999046e+09,-1.148135239589637624e-03,2.919031247778436540e-03,-7.089515498724793252e-01,1.307739600731843213e-02
8.000000000000000000e+09,-8.436445608609845562e-04,3.404080202782303836e-03,-7.087294772788766961e-01,1.268712583241346330e-02
8.080000000000000000e+09,-4.182209910633914729e-04,3.877577107191441160e-03,-7.085504586022359774e-01,1.227481059434979739e-02
8.159999999999999046e+09,1.367041885282234393e-04,4.313031294260314188e-03,-7.084173915983112968e-01,1.184510248673230869e-02
8.240000000000000000e+09,8.245023547609963647e-04,4.679625334769583339e-03,-7.083325814462034797e-01,1.140311141739284127e-02
8.320000000000000954e+09,1.641808178492235992e-03,4.943013785126784340e-03,-7.082976584970440692e-01,1.095431241451638553e-02
8.400000000000000000e+09,2.577000368319906556e-03,5.066586153475133303e-03,-7.083135142271992368e-01,1.050443552375417491e-02
8.480000000000000000e+09,3.608826595330597194e-03,5.013255243131196914e-03,-7.083802597243215038e-01,1.005934263287446354e-02
8.560000000000000000e+09,4.705336358365953299e-03,4.747808633862435693e-03,-7.084972094983205126e-01,9.624896813879353641e-03
8.640000000000000000e+09,5.823325732982252874e-03,4.239818209909328867e-03,-7.086628920153112965e-01,9.206830513957977788e-03
8.720000000000000000e+09,6.908530723902257115e-03,3.467037898056694184e-03,-7.088750864491221160e-01,8.810619044237069306e-03
8.800000000000000000e+09,7.896821317943364393e-03,2.419128919537295690e-03,-7.091308834172411757e-01,8.441365523603597265e-03
8.880000000000000000e+09,8.716631768715735890e-03,1.101439803063556256e-03,-7.094267659060891074e-01,8.103702451113305519e-03
8.959999999999998093e+09,9.292799354719456090e-03,-4.615591526101908183e-04,-7.097587053954550473e-01,7.801713854840659247e-03
9.040000000000000000e+09,9.551858000351578018e-03,-2.223707909143343622e-03,-7.101222675009676299e-01,7.538880282010064146e-03
9.120000000000000000e+09,9.428638104915516849e-03,-4.116063374624475205e-03,-7.105127212992882191e-01,7.318047332448816139e-03
9.200000000000000000e+09,8.873764257387796103e-03,-6.047902768699544088e-03,-7.109251468452969513e-01,7.141416871416205944e-03
9.280000000000000000e+09,7.861345754909005584e-03,-7.910344653517442995e-03,-7.113545360892418179e-01,7.010558790060829326e-03
9.360000000000000000e+09,6.395874009670280379e-03,-9.582860523810642767e-03,-7.117958834326562068e-01,6.926440355863072371e-03
9.440000000000000000e+09,4.517152788460978771e-03,-1.094254840818628671e-02,-7.122442631664566148e-01,6.889469668449841114e-03
9.520000000000000000e+09,2.302079666567605643e-03,-1.187552213255249969e-02,-7.126948920599956994e-01,6.899549595048243798e-03
9.600000000000000000e+09,-1.376608705162486648e-04,-1.228922595298607631e-02,-7.131431761001350011e-01,6.956138763129580092e-03
9.680000000000000000e+09,-2.662419724900038503e-03,-1.212404697465118558e-02,-7.135847409841822309e-01,7.058316332313796515e-03
9.760000000000000000e+09,-5.115623674971822923e-03,-1.136241164534501635e-02,-7.140154462415678749e-01,7.204847324826763912e-03
9.840000000000000000e+09,-7.337941338349815781e-03,-1.003372366343230002e-02,-7.144313831184139207e-01,7.394245793632559655e-03
9.920000000000000000e+09,-9.182808028265531178e-03,-8.214046606377867210e-03,-7.148288565295509711e-01,7.624832442095446847e-03
1.000000000000000000e+10,-1.053117629085133233e-02,-6.020261935725441417e-03,-7.152043516261507028e-01,7.894783484559228515e-03
1.008000000000000000e+10,-1.130341135651860909e-02,-3.599355475831794368e-03,-7.155544860244961169e-01,8.202167105705444189e-03
1.016000000000000000e+10,-1.146671558951443612e-02,-1.114281849705868336e-03,-7.158759492543553815e-01,8.544963457147782340e-03
1.024000000000000000e+10,-1.103722145583066645e-02,1.271653320118423282e-03,-7.161654318510941586e-01,8.921063865192844361e-03
1.032000000000000000e+10,-1.007674689532165636e-02,3.409853948288060939e-03,-7.164195474671362085e-01,9.328244558111093224e-03
1.040000000000000000e+10,-8.684966139909296515e-03,5.179160514416348421e-03,-7.166347527682340735e-01,9.764109829544847727e-03
1.048000000000000000e+10,-6.988277646788934247e-03,6.494979909033631905e-03,-7.168072716741321626e-01,1.022599928042864682e-02
1.056000000000000000e+10,-5.126894261077311575e-03,7.314169057717970733e-03,-7.169330330891432457e-01,1.071085356303840518e-02
1.064000000000000000e+10,-3.241665633422411222e-03,7.635606283887496487e-03,-7.170076350070131443e-01,1.121503350049481498e-02
1.072000000000000000e+10,-1.461941518991303080e-03,7.496848808613753613e-03,-7.170263528396738639e-01,1.173408907379608693e-02
1.080000000000000000e+10,1.045143095459550534e-04,6.967585881390608166e-03,-7.169842163767250476e-01,1.226247873322131206e-02
1.088000000000000000e+10,1.378871146135870378e-03,6.140766279854169979e-03,-7.168761870623615584e-01,1.279324747582599904e-02
1.096000000000000000e+10,2.366113237760147057e-03,4.498605271059926379e-03,-7.166974741717698771e-01,1.331768601235918184e-02
1.104000000000000000e+10,2.902630430619291754e-03,4.020555924772153261e-03,-7.164440311705952968e-01,1.382501534403546978e-02
1.112000000000000191e+10,3.160617935824889049e-03,2.935728270879063399e-03,-7.161132666448454254e-01,1.430217151361784511e-02
1.120000000000000000e+10,3.136148650098124699e-03,1.951368558366714176e-03,-7.157049788846169269e-01,1.473380195907077715e-02
1.128000000000000000e+10,2.889544022746325623e-03,1.144494812207406172e-03,-7.152048370649902731e-01,1.502080612283658752e-02
1.135999999999999809e+10,2.511565481267184416e-03,4.971725606667937430e-04,-7.146737092273364178e-01,1.539025471398522416e-02
1.143999999999999809e+10,2.060825824488929457e-03,6.602183333436232801e-05,-7.140723016398247136e-01,1.557875643897677943e-02
1.152000000000000000e+10,1.607131639448177059e-03,-1.837720695505458933e-04,-7.134379175761222935e-01,1.565266096291951722e-02
1.160000000000000000e+10,1.198330465959213109e-03,-2.868350960555067974e-04,-7.127958024032520212e-01,1.560146789055287010e-02
1.168000000000000191e+10,8.623238353448310850e-04,-2.858322363724409045e-04,-7.121751038629385855e-01,1.542200371209410253e-02
1.176000000000000000e+10,6.079615026557856627e-04,-2.227532629483740256e-04,-7.116060503089101097e-01,1.512002818468268991e-02
1.184000000000000000e+10,4.294359466014864156e-04,-1.322336979880926093e-04,-7.111164289530591542e-01,1.471046182657656173e-02
1.191999999999999809e+10,3.124771600349041350e-04,-3.823872350773317155e-05,-7.107281679631310967e-01,1.421594150779250526e-02
1.200000000000000000e+10,2.402428011372123909e-04,4.583307504918134002e-05,-7.104549097338543895e-01,1.366393635774391935e-02
1.208000000000000000e+10,1.973322071599658179e-04,1.148014830368087268e-04,-7.103011852105910462e-01,1.308314320889508026e-02
1.216000000000000000e+10,1.715389702572180444e-04,1.688125663019140088e-04,-7.102632757138569453e-01,1.250008595302380503e-02
1.224000000000000191e+10,1.540923158614333505e-04,2.111825821729642130e-04,-7.103313352541879011e-01,1.193668652031585481e-02
1.232000000000000000e+10,1.395878107511354339e-04,2.472422640775683001e-04,-7.104920611557081767e-01,1.140917683591415217e-02
1.239999999999999809e+10,1.263986046171302930e-04,2.835037011301201615e-04,-7.107312025048811988e-01,1.092829258970841495e-02
1.247999999999999809e+10,1.174169623416228009e-04,3.261698040102662560e-04,-7.110353970033972404e-01,1.050038770115978119e-02
1.256000000000000000e+10,1.201051093054010234e-04,3.785372603720626398e-04,-7.113930983926165519e-01,1.012897439661493253e-02
1.264000000000000000e+10,1.446390988258472270e-04,4.379578687165933387e-04,-7.117946165971738015e-01,9.816194544174214678e-03
1.272000000000000000e+10,1.997411453669753988e-04,4.940672942075181005e-04,-7.122315117708023502e-01,9.563827746261563401e-03
1.280000000000000191e+10,2.873716401057993357e-04,5.301217760375004709e-04,-7.126957381764879029e-01,9.373631299992761859e-03
1.288000000000000000e+10,3.988351124245792479e-04,5.280120902548856091e-04,-7.131789701064218390e-01,9.247066682478929239e-03
1.295999999999999809e+10,5.148442429655799256e-04,4.753501081861989663e-04,-7.136724079006845356e-01,9.184712926663762475e-03
1.303999999999999809e+10,6.102870846889173846e-04,3.714159314872107634e-04,-7.141670916019906556e-01,9.185770345115194455e-03
1.312000000000000000e+10,6.619102713698301818e-04,2.290253077373646134e-04,-7.146544843655173729e-01,9.247949821384129215e-03
1.320000000000000000e+10,6.556176988157490226e-04,7.142520490491455687e-05,-7.151269786406034834e-01,9.367795872248577127e-03
1.328000000000000000e+10,5.904990005873688840e-04,-7.430024258566928852e-05,-7.155780586041270430e-01,9.541262411095204760e-03
1.335999999999999809e+10,4.784665890886397759e-04,-1.845760180431308621e-04,-7.160020330632342889e-01,9.764255645939417735e-03
1.344000000000000000e+10,3.402251721156452930e-04,-2.449221077768725611e-04,-7.163934237879898692e-01,1.003287245240815605e-02
1.351999999999999809e+10,1.993599175407602755e-04,-2.523768310866153909e-04,-7.167462195228455624e-01,1.034312905185857251e-02
1.359999999999999809e+10,7.650688683640810409e-05,-2.145874170607176912e-04,-7.170533222469134271e-01,1.069006416988201903e-02
1.368000000000000000e+10,-1.482224769575548229e-05,-1.463342658516315876e-04,-7.173066521393564043e-01,1.106627137337981917e-02
1.376000000000000000e+10,-6.985629766825530952e-05,-6.483392447690280720e-05,-7.174984554231007561e-01,1.146028488517862251e-02
1.384000000000000000e+10,-9.155703046564024183e-05,1.460072192233082347e-05,-7.176240850556040440e-01,1.185581467695510580e-02
1.392000000000000000e+10,-8.785991728498851298e-05,8.122141950118991660e-05,-7.176855748163231130e-01,1.223317704357030321e-02
1.400000000000000000e+10,-6.867342231736991542e-05,1.294262769002255445e-04,-7.176940011787074081e-01,1.257353043430836821e-02
1.407999999999999809e+10,-4.383648153301399568e-05,1.580731578474282460e-04,-7.176683545855140345e-01,1.286444099455637952e-02
1.415999999999999809e+10,-2.199376856196786983e-05,1.697426425259878616e-04,-7.176306602394109113e-01,1.310356567387717733e-02
1.424000000000000000e+10,-6.923127025984092972e-06,1.684723553616451351e-04,-7.176892225529687419e-01,1.326257498935075330e-02
1.432000000000000000e+10,-1.509476784800582857e-05,1.707305885279026137e-04,-7.175147779611245058e-01,1.340621389524481247e-02
1.440000000000000000e+10,-1.776710338068970471e-05,1.692099859070043640e-04,-7.176013029108750940e-01,1.360785473624887866e-02
1.448000000000000000e+10,-3.021713293586415197e-05,1.801479125021137142e-04,-7.176372537821150699e-01,1.375038314118074215e-02
1.456000000000000000e+10,-3.875281478034612903e-05,2.000121651386083902e-04,-7.176916389248099160e-01,1.389915142142968824e-02
1.463999999999999809e+10,-3.828698179847432636e-05,2.239876794871612886e-04,-7.177572898017633429e-01,1.406113896509196895e-02
1.471999999999999809e+10,-2.835078337866502182e-05,2.455656759054846284e-04,-7.178256093506512059e-01,1.424004149075984438e-02
1.480000000000000000e+10,-1.262292634169606757e-05,2.601576672624254989e-04,-7.178875008427214599e-01,1.443600752891393245e-02
1.488000000000000000e+10,3.951897577678709940e-06,2.670015352763086837e-04,-7.179346154375665368e-01,1.464552234966744540e-02
1.496000000000000191e+10,1.808722424335697460e-05,2.681943075079911039e-04,-7.179607857958054673e-01,1.486187207164527818e-02
1.504000000000000191e+10,2.890683947269506336e-05,2.662655753164776306e-04,-7.179631653706075589e-01,1.507628265032781058e-02
1.511999999999999809e+10,3.670126628153938677e-05,2.627271182304936805e-04,-7.179427445896215954e-01,1.527939906661644233e-02
1.519999999999999809e+10,4.167798254380860354e-05,2.583846165811954547e-04,-7.179043119289242325e-01,1.546275405622947463e-02
1.527999999999999809e+10,4.395227415974797933e-05,2.541348317706039342e-04,-7.178560190604621472e-01,1.562018664749973036e-02
1.536000000000000000e+10,4.413405325540695548e-05,2.509358683473194868e-04,-7.178084209895357892e-01,1.574926699043817727e-02
1.544000000000000000e+10,4.330564615087679510e-05,2.491617320896699953e-04,-7.177726935240725803e-01,1.585242258756940428e-02
1.552000000000000191e+10,4.231960652432667947e-05,2.484286373375174791e-04,-7.177581218608063418e-01,1.593704891507353658e-02
1.560000000000000191e+10,4.140236797139812430e-05,2.481703377496426296e-04,-7.177696836136728820e-01,1.601407100567332070e-02
1.567999999999999809e+10,4.051214529431971492e-05,2.480784218243353278e-04,-7.178068318068266951e-01,1.609527723432794752e-02
1.575999999999999809e+10,3.965512318220164767e-05,2.478196741824949126e-04,-7.178639864916536162e-01,1.619050637692388134e-02
1.583999999999999809e+10,3.842346764165214894e-05,2.467728781881288534e-04,-7.179323217208563035e-01,1.630570962848749278e-02
1.592000000000000000e+10,3.544588621916041770e-05,2.447617084855721538e-04,-7.180020227710615099e-01,1.644225043065762615e-02
