# Frequency, Real(S21), Imag(S21), Real(S11), Imag(S11)
4.000000000000000000e+09,3.850591982240630327e-05,1.405669256873296954e-04,-7.188445107837142523e-01,6.804569730090749904e-03
4.080000000000000000e+09,1.330562765465830794e-05,1.448708493832946427e-04,-7.187540879576814756e-01,6.952609115669099518e-03
4.160000000000000477e+09,2.067536605031579734e-06,1.463870344420421744e-04,-7.187535090385689385e-01,7.111017495158236321e-03
4.240000000000000000e+09,1.123355476261994883e-06,1.459161033831438191e-04,-7.187034403924213999e-01,7.269291848579511120e-03
4.320000000000000000e+09,3.517827673254638775e-06,1.445700311841844460e-04,-7.187265827678829266e-01,7.431807639302228687e-03
4.400000000000000000e+09,3.750316325113877800e-06,1.428821597044561400e-04,-7.187204261752747625e-01,7.595788979351170492e-03
4.480000000000000000e+09,2.989250657410065124e-05,1.418219196034401191e-04,-7.187286867094181408e-01,7.763231455559681769e-03
4.560000000000000000e+09,3.809878928797749548e-06,1.409590126960583872e-04,-7.187068772343023770e-01,7.930386670661223811e-03
4.640000000000000000e+09,3.694685262735131078e-06,1.415580130280394108e-04,-7.186993971504402889e-01,8.101299604510503460e-03
4.720000000000000000e+09,3.485475228844336260e-06,1.434562950610068538e-04,-7.187048678422185422e-01,8.276259503991641175e-03
4.800000000000000000e+09,3.422477394661251730e-06,1.464539227620699361e-04,-7.186827505384708603e-01,8.451271838141836967e-03
4.880000000000000000e+09,3.400233135827407715e-06,1.504798877075528857e-04,-7.186852729650716753e-01,8.632216348851745949e-03
4.960000000000000000e+09,3.900808428127855881e-06,1.550234526982193612e-04,-7.186433803156208056e-01,8.814284362577988821e-03
5.040000000000000000e+09,3.544379244912391692e-06,1.599172828980373058e-04,-7.186524097736993744e-01,9.000196857845048706e-03
5.120000000000000000e+09,3.788722217670968523e-06,1.647702299984232029e-04,-7.186404400000001580e-01,9.190765193121471985e-03
5.200000000000000000e+09,4.113640033357734779e-06,1.693524211820508795e-04,-7.186272931999906355e-01,9.385756566421359776e-03
5.280000000000000000e+09,4.491372911577301646e-06,1.735084493170438100e-04,-7.186127626536775725e-01,9.585629768538671963e-03
5.360000000000000000e+09,5.712144930936704988e-06,1.771868102639507364e-04,-7.185743467622976999e-01,9.791682439730010554e-03
5.440000000000000000e+09,5.288505612364067344e-06,1.803315937057562617e-04,-7.185784076361392270e-01,1.000222448755521201e-02
5.520000000000000000e+09,5.658902217976625638e-06,1.830487203956412251e-04,-7.185577673873186910e-01,1.022027605305889791e-02
5.600000000000000000e+09,5.987903427172618248e-06,1.853934633071809284e-04,-7.185340125181066684e-01,1.044589905316720135e-02
5.680000000000000000e+09,6.265830681850023841e-06,1.874423977210262640e-04,-7.185062118358889194e-01,1.068003438527185753e-02
5.760000000000000000e+09,6.487019897445996271e-06,1.892573260550979271e-04,-7.184730027531625041e-01,1.092367101774931876e-02
5.840000000000000954e+09,6.647994777463820556e-06,1.908739525892442883e-04,-7.184324249263024376e-01,1.117763594320494644e-02
5.920000000000000000e+09,6.746128147919138552e-06,1.922957263748054253e-04,-7.183819257384495005e-01,1.144218243479949021e-02
6.000000000000000000e+09,6.778664728322406102e-06,1.934907568156597757e-04,-7.183187639967473226e-01,1.171663609637083915e-02
6.080000000000000000e+09,6.740698649319046154e-06,1.943893892895977619e-04,-7.182405535191561663e-01,1.199949918056202915e-02
6.160000000000000000e+09,6.619836976366201148e-06,1.948812634510488655e-04,-7.181454803597954184e-01,1.228883923830671569e-02
6.239999999999999046e+09,6.385933487731269118e-06,1.948122577294367956e-04,-7.180322372703172862e-01,1.258257490686534065e-02
6.320000000000000000e+09,5.975271388439528958e-06,1.939824092382165435e-04,-7.178999026701314845e-01,1.287859961790427908e-02
6.400000000000000954e+09,5.269282773023258439e-06,1.921464144370526553e-04,-7.177478496531821683e-01,1.317482236576065537e-02
6.480000000000000000e+09,4.068496539473114839e-06,1.890187780748684224e-04,-7.175756882280918125e-01,1.346917811456446734e-02
6.560000000000000000e+09,2.063071664124704755e-06,1.842858409954197224e-04,-7.173832295845511409e-01,1.375962884485509678e-02
6.640000000000000000e+09,-1.197962738421477183e-06,1.776274599815776741e-04,-7.171704636944163935e-01,1.404416238172165841e-02
6.720000000000000000e+09,-6.335868739104809290e-06,1.687501484281348906e-04,-7.169375450532714522e-01,1.432079124696130322e-02
6.799999999999999046e+09,-1.416616914766616938e-05,1.574334332010389058e-04,-7.166847836933543103e-01,1.458755214714302882e-02
6.880000000000000000e+09,-2.571324959235331189e-05,1.435893262758403404e-04,-7.164126398769293802e-01,1.484250624823091162e-02
6.960000000000000954e+09,-4.221102375307123934e-05,1.273346082238054110e-04,-7.161217215945480108e-01,1.508374033048138010e-02
7.039999999999999046e+09,-6.508503472075412191e-05,1.090725667926450060e-04,-7.158127843615991193e-01,1.530936895918531652e-02
7.120000000000000000e+09,-9.591159289647845131e-05,8.958050966022182828e-05,-7.154867329796263942e-01,1.551753788260227911e-02
7.200000000000000000e+09,-1.363502286501886069e-04,7.009700093431052068e-05,-7.151446249653881093e-01,1.570642896049769671e-02
7.280000000000000000e+09,-1.880469155763554896e-04,5.240188668385311948e-05,-7.147876753818624973e-01,1.587426693457001312e-02
7.359999999999999046e+09,-2.533510623861567001e-04,4.159340585202601090e-05,-7.143543156314116072e-01,1.631422027872114072e-02
7.440000000000000000e+09,-3.309386807395067786e-04,3.256559356026931910e-05,-7.140349351578324510e-01,1.613995339721782663e-02
7.520000000000000000e+09,-4.240707962811127944e-04,3.714158361849812223e-05,-7.136424174703912549e-01,1.623455964232352333e-02
7.599999999999999046e+09,-5.319499513106958934e-04,5.691314398271920920e-05,-7.132416166263386703e-01,1.630166012956327931e-02
7.680000000000000000e+09,-6.623107662685992925e-04,1.738499062754407694e-04,-7.128346267011856918e-01,1.633988371075555460e-02
7.760000000000000954e+09,-7.874382017420045090e-04,1.617958803508034917e-04,-7.124237315107495583e-01,1.634799902892499629e-02
7.840000000000000000e+09,-9.298107188197002586e-04,2.575706812316597757e-04,-7.120114043939600457e-01,1.632494149807746722e-02
7.919999999999999046e+09,-1.076081120602912639e-03,3.894041360862773252e-04,-7.116003041613497837e-01,1.626984305524122390e-02
8.000000000000000000e+09,-1.219870678521179416e-03,5.622615458864543012e-04,-7.111932663756702633e-01,1.618206419289240638e-02
8.080000000000000000e+09,-1.353118966391676477e-03,7.803300379491864142e-04,-7.107932890262140813e-01,1.606122745606380561e-02
8.159999999999999046e+09,-1.466098986289235059e-03,1.046585605885558788e-03,-7.104035118666143234e-01,1.590725147399085077e-02
8.240000000000000000e+09,-1.547529692282935583e-03,1.362323646884728645e-03,-7.100271887553416539e-01,1.572038427185186785e-02
8.320000000000000954e+09,-1.584800903881879424e-03,1.726670617368623699e-03,-7.096676526011579389e-01,1.550123441414893131e-02
8.400000000000000000e+09,-1.564322721198482162e-03,2.136099473729430927e-03,-7.093282728264953541e-01,1.525079832524569613e-02
8.480000000000000000e+09,-1.472007835080566332e-03,2.583976330827222369e-03,-7.090124055558555405e-01,1.497048199952813984e-02
8.560000000000000000e+09,-1.293890370996962115e-03,3.060170339982336198e-03,-7.087233372945705989e-01,1.466211528634363791e-02
8.640000000000000000e+09,-1.016879157774607662e-03,3.550762890223227441e-03,-7.084642232444355869e-01,1.432795692912618851e-02
8.720000000000000000e+09,-6.296364296079408427e-04,4.037895514090854635e-03,-7.082380219402086841e-01,1.397068888146630120e-02
8.800000000000000000e+09,-1.235646337052279933e-04,4.499798267577350200e-03,-7.080474283802619118e-01,1.359339852415691365e-02
8.880000000000000000e+09,5.061257167068425929e-04,4.911041277851918227e-03,-7.078948081788127844e-01,1.319954820531077377e-02
8.959999999999998093e+09,1.259305973980981864e-03,5.243051457565768569e-03,-7.077821356089248894e-01,1.279293185353300513e-02
9.040000000000000000e+09,2.129829582191082420e-03,5.464932283679384273e-03,-7.077109384544431059e-01,1.237761938458429960e-02
9.120000000000000000e+09,3.104510713345462122e-03,5.544617912444629350e-03,-7.076822525220283211e-01,1.195789018696179380e-02
9.200000000000000000e+09,4.162266487837907626e-03,5.450380099507566578e-03,-7.076965883471272312e-01,1.153815788741862150e-02
9.280000000000000000e+09,5.273525466626222298e-03,5.152687772798326613e-03,-7.077539120622178270e-01,1.112288914913545264e-02
9.360000000000000000e+09,6.400020625167853437e-03,4.626392397634959686e-03,-7.078536416988736590e-01,1.071651978305812082e-02
9.440000000000000000e+09,7.495096221271490416e-03,3.853176258333126849e-03,-7.079946592907517822e-01,1.032337175815093398e-02
9.520000000000000000e+09,8.504659926260992736e-03,2.824155642328610941e-03,-7.081753382352210524e-01,9.947574662461721590e-03
9.600000000000000000e+09,9.368899550130016171e-03,1.542477335132641470e-03,-7.083935844795307135e-01,9.592994954641690872e-03
9.680000000000000000e+09,1.002485165982427116e-02,2.568888498235362330e-05,-7.086468892592674429e-01,9.263175813774553180e-03
9.760000000000000000e+09,1.040985191880438102e-02,-1.692393054576012048e-03,-7.089323904997472114e-01,8.961289753321072943e-03
9.840000000000000000e+09,1.046581042029476848e-02,-3.560635856114821758e-03,-7.092469396850287211e-01,8.690105170523843361e-03
9.920000000000000000e+09,1.014413983501484887e-02,-5.510703201117694155e-03,-7.095871707166799824e-01,8.451967332340873038e-03
1.000000000000000000e+10,9.411026253495108004e-03,-7.458640948342984758e-03,-7.099495675473088685e-01,8.248793188585975752e-03
1.008000000000000000e+10,8.252587409669786406e-03,-9.308170462756233665e-03,-7.103305276706196603e-01,8.082078831931292437e-03
1.016000000000000000e+10,6.679334125155179935e-03,-1.095577672955825796e-02,-7.107264190907092161e-01,7.952917679375065205e-03
1.024000000000000000e+10,4.729271291785406769e-03,-1.229746457684060580e-02,-7.111336290297687324e-01,7.862027138227577552e-03
1.032000000000000000e+10,2.468978750580956907e-03,-1.323679388700597231e-02,-7.115486033444957670e-01,7.809781290192776941e-03
1.040000000000000000e+10,-7.870049565977723510e-06,-1.369352719679863342e-02,-7.119678762330140520e-01,7.796247182648492757e-03
1.048000000000000000e+10,-2.584850976019890858e-03,-1.361198586796051775e-02,-7.123880904232380296e-01,7.821222480349093037e-03
1.056000000000000000e+10,-5.129939792905019447e-03,-1.296807340627719254e-02,-7.128060083341993813e-01,7.884272554867323424e-03
1.064000000000000000e+10,-7.505000417943727756e-03,-1.177394144834159606e-02,-7.132185151326290162e-01,7.984765487178389215e-03
1.072000000000000000e+10,-9.576736436851069831e-03,-1.007947236307842054e-02,-7.136226144551476303e-01,8.121903735787560849e-03
1.080000000000000000e+10,-1.122792554825386216e-02,-7.970121430710198560e-03,-7.140154177753899045e-01,8.294751545724808606e-03
1.088000000000000000e+10,-1.236762445049428838e-02,-5.561144330151104875e-03,-7.143941280170243990e-01,8.502257282439383557e-03
1.096000000000000000e+10,-1.293911294845426566e-02,-2.988742879501325028e-03,-7.147560181196654927e-01,8.743269925449100727e-03
1.104000000000000000e+10,-1.292463254766802738e-02,-3.990937957698730064e-04,-7.150984049973239109e-01,9.016548725161339928e-03
1.112000000000000191e+10,-1.234640924315686533e-02,2.063502089144777542e-03,-7.154186194443608038e-01,9.320764851383750438e-03
1.120000000000000000e+10,-1.126394493624258142e-02,4.268040755351365512e-03,-7.157139726863249729e-01,9.654493472696043868e-03
1.128000000000000000e+10,-9.768023424333660901e-03,6.106627043530979057e-03,-7.159817206838366976e-01,1.001619436388231053e-02
1.135999999999999809e+10,-7.972228683014864759e-03,7.501777079670868265e-03,-7.162190278374319652e-01,1.040417874800315078e-02
1.143999999999999809e+10,-6.002975815333677981e-03,8.410677991301750839e-03,-7.164229326992276325e-01,1.081655980478423741e-02
1.152000000000000000e+10,-3.989102865068394101e-03,8.826249767280570230e-03,-7.165903194656508823e-01,1.125118417907634838e-02
1.160000000000000000e+10,-2.051990736366174697e-03,8.775188060436787257e-03,-7.167179005936448188e-01,1.170554189858952904e-02
1.168000000000000191e+10,-2.970098980230356962e-04,8.313422044657192006e-03,-7.168022179812184591e-01,1.217665288352826752e-02
1.176000000000000000e+10,1.193120075949806328e-03,7.519586847358272069e-03,-7.168396725616882348e-01,1.266092954817635459e-02
1.184000000000000000e+10,2.362691957692389898e-03,6.487192807956574173e-03,-7.168265949151776395e-01,1.315401782844503355e-02
1.191999999999999809e+10,2.929653515961211201e-03,5.320490449632489863e-03,-7.167593721516722916e-01,1.365062336590359277e-02
1.200000000000000000e+10,3.661485575111357756e-03,4.104627642278401919e-03,-7.166346482222000214e-01,1.414433645058805686e-02
1.208000000000000000e+10,3.563345066123122049e-03,2.852893874892085003e-03,-7.164814301260182816e-01,1.466630474181817266e-02
1.216000000000000000e+10,3.707661329272473986e-03,1.897744907378897099e-03,-7.162024007363919642e-01,1.509100906349445347e-02
1.224000000000000191e+10,3.388336635901378902e-03,1.026908073827438508e-03,-7.158925725611940960e-01,1.552453168089036259e-02
1.232000000000000000e+10,2.967813418786977020e-03,-2.949190931465085590e-04,-7.155217050539540713e-01,1.591647649304241824e-02
1.239999999999999809e+10,2.401597040319413713e-03,-1.345464134984144730e-04,-7.150919232622785504e-01,1.631252285246174646e-02
1.247999999999999809e+10,1.976142811321074302e-03,-3.982984271876472901e-04,-7.144615835617789124e-01,1.642448751543180638e-02
1.256000000000000000e+10,1.365083679655507013e-03,-5.033356169748863735e-04,-7.139960907772957555e-01,1.656074132117912531e-02
1.264000000000000000e+10,9.906960909263997674e-04,-4.717441049080149619e-04,-7.135607164477719699e-01,1.682657399538234691e-02
1.272000000000000000e+10,6.774585128694560286e-04,-3.824369998338640261e-04,-7.130135382168989455e-01,1.683980229420063701e-02
1.280000000000000191e+10,4.559046607721202113e-04,-2.556084125965349505e-04,-7.124786174150763429e-01,1.675821221234903569e-02
1.288000000000000000e+10,3.133022961754316224e-04,-1.224186801660291364e-04,-7.119755690747674448e-01,1.658554433871558056e-02
1.295999999999999809e+10,2.304284776916748685e-04,-2.979809070873461977e-06,-7.115225327745908768e-01,1.633082441256397677e-02
1.303999999999999809e+10,1.868572262466596889e-04,9.350730922311336702e-05,-7.111343868392591139e-01,1.600763114043131721e-02
1.312000000000000000e+10,1.650420401047733533e-04,1.665673875470297116e-04,-7.108213851246493187e-01,1.563267153203827184e-02
1.320000000000000000e+10,1.525649901193804438e-04,2.212335398493052744e-04,-7.105884971871623268e-01,1.522393070755600521e-02
1.328000000000000000e+10,1.426074054292580896e-04,2.648734247561535860e-04,-7.104355567372292457e-01,1.479876649412858493e-02
1.335999999999999809e+10,1.332223784769301410e-04,3.047786926205577106e-04,-7.103581269974185153e-01,1.437230777259928746e-02
1.344000000000000000e+10,1.261443612117532339e-04,3.466898008882023964e-04,-7.103488446684630420e-01,1.395640694417914045e-02
1.351999999999999809e+10,1.256482137128809022e-04,3.939791495824943165e-04,-7.103989443928814262e-01,1.355924612101573785e-02
1.359999999999999809e+10,1.375518950420956128e-04,4.470726601611550895e-04,-7.104996853181927419e-01,1.318555912486378892e-02
1.368000000000000000e+10,1.681019556201672894e-04,5.028856063627562371e-04,-7.106434672344739134e-01,1.283733707971755969e-02
1.376000000000000000e+10,2.224018867414824887e-04,5.544447227654128061e-04,-7.108245026361198482e-01,1.251483430730597132e-02
1.384000000000000000e+10,3.023169332932769816e-04,5.912164027165763263e-04,-7.110389883818591938e-01,1.221766771555183456e-02
1.392000000000000000e+10,4.043080588184909093e-04,6.007023968093467160e-04,-7.112847993990939477e-01,1.194579811388024083e-02
1.400000000000000000e+10,5.181247236927960260e-04,5.714545232183693407e-04,-7.115608135367856857e-01,1.170020203068647749e-02
1.407999999999999809e+10,6.273609688378882629e-04,4.969081387030408132e-04,-7.118660600317928688e-01,1.148310640853236406e-02
1.415999999999999809e+10,7.123392372088909689e-04,3.787254607850504729e-04,-7.121989316449810481e-01,1.129777015829349154e-02
1.424000000000000000e+10,7.547866132607515544e-04,2.281664512542054134e-04,-7.125566753468869363e-01,1.114792936982642382e-02
1.432000000000000000e+10,7.428328958212376300e-04,6.460412644599441544e-05,-7.129352724741377934e-01,1.103712035000854394e-02
1.440000000000000000e+10,6.745553033773304952e-04,-8.857271153648525438e-05,-7.133296767972389096e-01,1.096810841734791910e-02
1.448000000000000000e+10,5.588164662202137591e-04,-2.093770549146905906e-04,-7.137342633898267064e-01,1.094257654928902125e-02
1.456000000000000000e+10,4.131808188726656100e-04,-2.822292157201680175e-04,-7.141432994958685221e-01,1.096110959770927283e-02
1.463999999999999809e+10,2.596965790828949325e-04,-3.011087117934811079e-04,-7.145512813560609411e-01,1.102340467689383492e-02
1.471999999999999809e+10,1.198849047618895467e-04,-2.701603653693826729e-04,-7.149530541429067743e-01,1.112858025755376727e-02
1.480000000000000000e+10,1.029942037528459452e-05,-2.018721429071908225e-04,-7.153437090826991751e-01,1.127544574453614827e-02
1.488000000000000000e+10,-6.033323110839786075e-05,-1.135379655659137714e-04,-7.157183142591351244e-01,1.146261099418668591e-02
1.496000000000000191e+10,-9.189057644742737864e-05,-2.302005186448724631e-05,-7.160715876145484771e-01,1.168834683761121873e-02
1.504000000000000191e+10,-9.156778192175289049e-05,5.512598885695437384e-05,-7.163976713497670623e-01,1.195015786445643470e-02
1.511999999999999809e+10,-7.101778582601587305e-05,1.122481672699453178e-04,-7.166902092045029926e-01,1.224411925078002991e-02
1.519999999999999809e+10,-4.280047933950905422e-05,1.463407756988858055e-04,-7.169429177048691759e-01,1.256417653665530682e-02
1.527999999999999809e+10,-1.723438806043353010e-05,1.609004450041055128e-04,-7.171507054402539438e-01,1.290177255640160593e-02
1.536000000000000000e+10,-2.020090628487242819e-06,1.637726936122884714e-04,-7.169484028751587079e-01,1.310531124463084826e-02
1.544000000000000000e+10,4.504529232184290629e-06,1.587421553226128909e-04,-7.172378957586033055e-01,1.363709889238606809e-02
1.552000000000000191e+10,3.346562277636578849e-07,1.544916285025638852e-04,-7.174988703625833075e-01,1.391068014045837228e-02
1.560000000000000191e+10,-1.175558377087923708e-05,1.552041107273057830e-04,-7.175398671141497431e-01,1.421273032728143267e-02
1.567999999999999809e+10,-2.764596705555418964e-05,1.632202746003710056e-04,-7.175579607081913336e-01,1.448835333297209330e-02
1.575999999999999809e+10,-4.304867809334660849e-05,1.795596469234425835e-04,-7.175621972426423634e-01,1.473724574090237195e-02
1.583999999999999809e+10,-5.356046419090291491e-05,2.032542995430945004e-04,-7.175599327267927485e-01,1.496153957318982312e-02
1.592000000000000000e+10,-5.743381210464022606e-05,2.339056997570227434e-04,-7.175329397635917816e-01,1.495792018370277303e-02
