# Frequency, Real(S21), Imag(S21), Real(S11), Imag(S11)
4.000000000000000000e+09,3.793166776779418508e-05,1.405030602221239114e-04,-7.188499053543301320e-01,6.802506728134561156e-03
4.080000000000000000e+09,2.196559582833512597e-06,1.453682834006115394e-04,-7.187430602321304152e-01,6.950173518836868028e-03
4.160000000000000477e+09,2.087644288183130073e-06,1.463733110008728032e-04,-7.187535842178189860e-01,7.109359075075255899e-03
4.240000000000000000e+09,1.140363997723412587e-06,1.459018303440464618e-04,-7.187035066793628912e-01,7.267580817106278519e-03
4.320000000000000000e+09,3.532799279804206017e-06,1.445528127791247596e-04,-7.187266636736632242e-01,7.430023239951412915e-03
4.400000000000000000e+09,3.764001892874722841e-06,1.428628958088423359e-04,-7.187205135188580174e-01,7.593933467426334377e-03
4.480000000000000000e+09,2.990605515983853755e-05,1.417945612522162702e-04,-7.187287850912007503e-01,7.761292231953335376e-03
4.560000000000000000e+09,3.824338363675651391e-06,1.409353976601053298e-04,-7.187069793083901148e-01,7.928378053195810418e-03
4.640000000000000000e+09,3.710768499029476200e-06,1.415323166030869407e-04,-7.186995076738524890e-01,8.099208375574061536e-03
4.720000000000000000e+09,3.503381279858460006e-06,1.434283537704325411e-04,-7.187049894268547900e-01,8.274069851753034638e-03
4.800000000000000000e+09,3.442065855460317047e-06,1.464246158801234092e-04,-7.186828806242286927e-01,8.449001472731998766e-03
4.880000000000000000e+09,3.420697053017945586e-06,1.504486875236791762e-04,-7.186854142013235913e-01,8.629835482177071471e-03
4.960000000000000000e+09,3.420837885999614103e-06,1.550026725821036767e-04,-7.186635209745548813e-01,8.811180720812451447e-03
5.040000000000000000e+09,3.563230649375438609e-06,1.598838277253581579e-04,-7.186525779653483159e-01,8.997616298077141042e-03
5.120000000000000000e+09,3.804751193470385202e-06,1.647355232436149407e-04,-7.186406240094848075e-01,9.188067960074786447e-03
5.200000000000000000e+09,4.125547326265549569e-06,1.693164313337906823e-04,-7.186274950463223954e-01,9.382934864390376009e-03
5.280000000000000000e+09,4.497995529707079544e-06,1.734711121405260249e-04,-7.186129847404137960e-01,9.582674942476202343e-03
5.360000000000000000e+09,4.892409148918994847e-06,1.771292283245363248e-04,-7.185968285551956880e-01,9.787816640410579999e-03
5.440000000000000000e+09,5.281692446035307398e-06,1.802913410637531800e-04,-7.185786795476830635e-01,9.998973257816567983e-03
5.520000000000000000e+09,5.644182871187008264e-06,1.830069243178644787e-04,-7.185580704057696888e-01,1.021685897555193491e-02
5.600000000000000000e+09,5.964562501448000657e-06,1.853500838300525247e-04,-7.185343522747936751e-01,1.044230226706790998e-02
5.680000000000000000e+09,6.233143480410407632e-06,1.873973921821879649e-04,-7.185065956894917116e-01,1.067624214677279949e-02
5.760000000000000000e+09,6.444218401966213242e-06,1.892106164693962414e-04,-7.184734405810256908e-01,1.091966553279605581e-02
5.840000000000000954e+09,6.594254659590322325e-06,1.908253557318818753e-04,-7.184329302411798235e-01,1.117339752799974620e-02
5.920000000000000000e+09,6.680574564247539123e-06,1.922448499071066587e-04,-7.183825168979492970e-01,1.143769034613961386e-02
6.000000000000000000e+09,6.700378353072622040e-06,1.934368336933821341e-04,-7.183194648934249082e-01,1.171187004381251014e-02
6.080000000000000000e+09,6.648679486708845336e-06,1.943310316767135864e-04,-7.182413934248199627e-01,1.199444088731728593e-02
6.160000000000000000e+09,6.512874210902797551e-06,1.948161319404554141e-04,-7.181464932918142363e-01,1.228347356298536801e-02
6.239999999999999046e+09,6.262315357465308941e-06,1.947366539348829287e-04,-7.180334612890796331e-01,1.257689056554629065e-02
6.320000000000000000e+09,5.832262342228460906e-06,1.938908388801060070e-04,-7.179013792346911060e-01,1.287258969829264271e-02
6.400000000000000954e+09,5.102303776149356030e-06,1.920311901680368132e-04,-7.177496230218060047e-01,1.316848473559475811e-02
6.480000000000000000e+09,3.869955679810183687e-06,1.888697187504627222e-04,-7.175778048766202621e-01,1.346251577821694356e-02
6.560000000000000000e+09,1.820823403633802439e-06,1.840903417933555347e-04,-7.173857376238533812e-01,1.375265024163384309e-02
6.640000000000000000e+09,-1.502515171592275602e-06,1.773709223125561534e-04,-7.171734122736987960e-01,1.403688164790778056e-02
6.720000000000000000e+09,-6.729955874448302101e-06,1.684170925068607298e-04,-7.169409837466502733e-01,1.431322842831717936e-02
6.799999999999999046e+09,-1.468798765801937814e-05,1.570093874650873591e-04,-7.166887618703041696e-01,1.457973335918291702e-02
6.880000000000000000e+09,-2.641421995630343711e-05,1.430638657805098342e-04,-7.164172060511437845e-01,1.483446379040490037e-02
6.960000000000000954e+09,-4.315769158942531561e-05,1.267053949471048469e-04,-7.161269227599329490e-01,1.507551274266909734e-02
7.039999999999999046e+09,-6.636022145033545388e-05,1.083506987691131062e-04,-7.158186653139658739e-01,1.530100102661075163e-02
7.120000000000000000e+09,-9.761435711141613967e-05,8.879708982926330109e-05,-7.154933356231870656e-01,1.550908057839994053e-02
7.200000000000000000e+09,-1.385941149284659901e-04,6.931088211562902142e-05,-7.151519876121152919e-01,1.569793932960206195e-02
7.280000000000000000e+09,-1.909559862408718783e-04,5.170793453197007725e-05,-7.147958320436785806e-01,1.586580791670329574e-02
7.359999999999999046e+09,-2.514513136326169225e-04,3.270008147115429460e-05,-7.143009267713774646e-01,1.638752736421888664e-02
7.440000000000000000e+09,-3.355555223413914621e-04,3.252837500527930911e-05,-7.140447611275706485e-01,1.613176669803996141e-02
7.520000000000000000e+09,-4.297045097472778534e-04,3.778239633196137526e-05,-7.136531065813915831e-01,1.622662492306964355e-02
7.599999999999999046e+09,-5.386659947022602504e-04,5.855025956694474756e-05,-7.132531786049248756e-01,1.629406072451354201e-02
7.680000000000000000e+09,-7.141992710537085551e-04,-3.010190663656464030e-04,-7.128470634711112641e-01,1.633270688891132541e-02
7.760000000000000954e+09,-7.962625108761253127e-04,1.666420272200292308e-04,-7.124370365401586636e-01,1.634133536560632843e-02
7.840000000000000000e+09,-9.394732483920913146e-04,2.647450338505645366e-04,-7.120255620663823448e-01,1.631888416254150334e-02
7.919999999999999046e+09,-1.086268819366140951e-03,3.994421789941813086e-04,-7.116152891934723890e-01,1.626448701270519909e-02
8.000000000000000000e+09,-1.230111111555154315e-03,5.757081686129514797e-04,-7.112090432775729498e-01,1.617750532527566579e-02
8.080000000000000000e+09,-1.362757560276325799e-03,7.977041149954487015e-04,-7.108098116180453507e-01,1.605756158171883427e-02
8.159999999999999046e+09,-1.474282057069417270e-03,1.068334865657435484e-03,-7.104207228607327673e-01,1.590457328408310597e-02
8.240000000000000000e+09,-1.553196284922496364e-03,1.388770145995381474e-03,-7.100450194199229292e-01,1.571878617007659018e-02
8.320000000000000954e+09,-1.586686754135534748e-03,1.757947978276682473e-03,-7.096860225188578175e-01,1.550080526662415623e-02
8.400000000000000000e+09,-1.560979701097038813e-03,2.172083925751025751e-03,-7.093470897548319609e-01,1.525162212142290585e-02
8.480000000000000000e+09,-1.461842121657979136e-03,2.624214713633211266e-03,-7.090315654261136746e-01,1.497263642480413208e-02
8.560000000000000000e+09,-1.275222158051940143e-03,3.103809375243199702e-03,-7.087427243476577265e-01,1.466567020736125361e-02
8.640000000000000000e+09,-9.880259640047072377e-04,3.596485202642195084e-03,-7.084837103345199560e-01,1.433297283402173994e-02
8.720000000000000000e+09,-5.890209031701110686e-04,4.083869047197207468e-03,-7.082574710343658708e-01,1.397721523160620760e-02
8.800000000000000000e+09,-6.984617906987907777e-05,4.543646686662026861e-03,-7.080666912595215967e-01,1.360147209741067835e-02
8.880000000000000000e+09,5.738982126414504410e-04,4.949843716170119513e-03,-7.079137273695113031e-01,1.320919141941662156e-02
8.959999999999998093e+09,1.341525510865944695e-03,5.273380030348633583e-03,-7.078005455600872020e-01,1.280415110652587118e-02
9.040000000000000000e+09,2.226154557568710973e-03,5.482935686620150906e-03,-7.077286669660400875e-01,1.239040345227241345e-02
9.120000000000000000e+09,3.213691725136271632e-03,5.546157930451584180e-03,-7.076991224480673193e-01,1.197220870254646873e-02
9.200000000000000000e+09,4.281990793191059984e-03,5.431225762677822401e-03,-7.077124195601054435e-01,1.155395995321152613e-02
9.280000000000000000e+09,5.400296344690358463e-03,5.108768471246428675e-03,-7.077685236889117437e-01,1.114010211791164121e-02
9.360000000000000000e+09,6.529091341546788135e-03,4.554106422584859939e-03,-7.078668546180953980e-01,1.073504824795100225e-02
9.440000000000000000e+09,7.620479497115356139e-03,3.749745770319222980e-03,-7.080062988835639226e-01,1.034309680665754239e-02
9.520000000000000000e+09,8.619233447540055812e-03,2.688010802561094630e-03,-7.081852373642215648e-01,9.968353437822577781e-03
9.600000000000000000e+09,9.464625369983319103e-03,1.373645619175500963e-03,-7.084015866914796788e-01,9.614660581754034402e-03
9.680000000000000000e+09,1.009312184606535150e-02,-1.738433984591034086e-04,-7.086528521485248033e-01,9.285537729682644126e-03
9.760000000000000000e+09,1.044196379827505225e-02,-1.918386883371381475e-03,-7.089361892159169454e-01,8.984134527177067148e-03
9.840000000000000000e+09,1.050074413143423091e-02,-4.142750414067090242e-03,-7.092484705006613099e-01,8.713197851901933327e-03
9.920000000000000000e+09,1.008052298707168976e-02,-5.767146622368560238e-03,-7.095863545653223747e-01,8.475053385705980796e-03
1.000000000000000000e+10,9.107844916284933701e-03,-7.681319307337478204e-03,-7.099463534600205517e-01,8.271601069190599384e-03
1.008000000000000000e+10,8.073694399635164554e-03,-9.549863341700728925e-03,-7.103248959335418666e-01,8.104323205712863493e-03
1.016000000000000000e+10,6.442538126220862145e-03,-1.116899391612959092e-02,-7.107183839900362843e-01,7.974303295354850246e-03
1.024000000000000000e+10,4.439319077251582465e-03,-1.246742750976974692e-02,-7.111232410243011337e-01,7.882253279972127602e-03
1.032000000000000000e+10,2.134660010403229523e-03,-1.334949202616475192e-02,-7.115359504861916706e-01,7.828546715079600163e-03
1.040000000000000000e+10,-3.738218224963543203e-04,-1.373690523973221909e-02,-7.119530847143452634e-01,7.813255372867183163e-03
1.048000000000000000e+10,-2.966232676273310425e-03,-1.357713113898628352e-02,-7.123713241181014455e-01,7.836186988435182854e-03
1.056000000000000000e+10,-5.507935619997158909e-03,-1.285027540856725596e-02,-7.127874673667262684e-01,7.896922207887745876e-03
1.064000000000000000e+10,-7.859381626057974912e-03,-1.157349157061161524e-02,-7.131984334310342843e-01,7.994849132291185004e-03
1.072000000000000000e+10,-9.887315428979744775e-03,-9.802086622279847228e-03,-7.136012565074622005e-01,8.129194313727217125e-03
1.080000000000000000e+10,-1.147613402781443720e-02,-7.626903671165105245e-03,-7.139930747660118149e-01,8.299049249348577559e-03
1.088000000000000000e+10,-1.253805841340531121e-02,-5.168056582783402131e-03,-7.143711136517143512e-01,8.503391653560354174e-03
1.096000000000000000e+10,-1.302088128497944954e-02,-2.565607390019223645e-03,-7.147326644699644183e-01,8.741100841601383981e-03
1.104000000000000000e+10,-1.291236213444702657e-02,3.179253482847653293e-05,-7.150750587152446824e-01,9.010966335479170947e-03
1.112000000000000191e+10,-1.224079523956914106e-02,2.479013143380654101e-03,-7.153956386690751845e-01,9.311688603452411561e-03
1.120000000000000000e+10,-1.107178514841669972e-02,4.645970230355707734e-03,-7.156917249303911266e-01,9.641870499124132951e-03
1.128000000000000000e+10,-9.501730904829541052e-03,6.427373846119421169e-03,-7.159605818909868802e-01,9.999997521913087453e-03
1.135999999999999809e+10,-7.648870592760101741e-03,7.749811072569231553e-03,-7.161993827709155491e-01,1.038440471449817923e-02
1.143999999999999809e+10,-5.642931391901891483e-03,8.575655974563497347e-03,-7.164051766827934653e-01,1.079322760974178903e-02
1.152000000000000000e+10,-3.614465641057896302e-03,8.903688854279525472e-03,-7.165748614623308477e-01,1.122433464721551456e-02
1.160000000000000000e+10,-1.684858274043430975e-03,8.766647120582138700e-03,-7.167051675076293593e-01,1.167523842338479695e-02
1.168000000000000191e+10,4.219133366847090810e-05,8.226185513128682347e-03,-7.167926599776648366e-01,1.214298406318572304e-02
1.176000000000000000e+10,1.487134407252256423e-03,7.365886526388137380e-03,-7.168337690979480481e-01,1.262401419189905678e-02
1.184000000000000000e+10,2.598635685330837834e-03,6.283039907140599428e-03,-7.168248610097610607e-01,1.311401293386561286e-02
1.191999999999999809e+10,3.355096130854360020e-03,5.079922539702984297e-03,-7.167623642335719802e-01,1.360773567524504145e-02
1.200000000000000000e+10,3.519397568785186982e-03,3.860389705899256244e-03,-7.166429685373324476e-01,1.409883822563979920e-02
1.208000000000000000e+10,3.857046149244159824e-03,2.696654773611216471e-03,-7.164639124029381634e-01,1.457972854262419744e-02
1.216000000000000000e+10,3.688120453395639202e-03,1.674134935189863132e-03,-7.162233705598133326e-01,1.504147621283127498e-02
1.224000000000000191e+10,3.323377165466992293e-03,8.360137234872627547e-04,-7.159209413623766061e-01,1.547382803803368408e-02
1.232000000000000000e+10,2.873524314453891008e-03,-4.430108020691725552e-04,-7.155582126713336821e-01,1.586538892387725358e-02
1.239999999999999809e+10,2.341524192255466964e-03,-2.411592105255025344e-04,-7.150676516889497014e-01,1.609741708714113387e-02
1.247999999999999809e+10,1.762086303263127665e-03,-4.414635062533777722e-04,-7.146716369082861675e-01,1.647756911153801587e-02
1.256000000000000000e+10,1.196044713433490293e-03,-5.406259070522166296e-04,-7.141657683793539713e-01,1.667473846836753024e-02
1.264000000000000000e+10,8.951222061502642170e-04,-4.744977080446141984e-04,-7.136358576103954965e-01,1.678636820081382680e-02
1.272000000000000000e+10,6.010943075572072834e-04,-3.663895300164092387e-04,-7.130989082267364942e-01,1.680664901659763982e-02
1.280000000000000191e+10,3.994105993528892042e-04,-2.294178558483378808e-04,-7.125737581632817230e-01,1.673423555990211087e-02
1.288000000000000000e+10,2.745508425123501742e-04,-9.321126075852403893e-05,-7.120795382122179218e-01,1.657292137905065632e-02
1.295999999999999809e+10,2.055499010231445160e-04,2.435715526198233179e-05,-7.116338644167721217e-01,1.633165383360999853e-02
1.303999999999999809e+10,1.713820490574434713e-04,1.165108137024753075e-04,-7.112510968590003424e-01,1.602378812299271385e-02
1.312000000000000000e+10,1.549058702626316471e-04,1.849130830835344469e-04,-7.109410237436498692e-01,1.566566788365290550e-02
1.320000000000000000e+10,1.448137303157705702e-04,2.361262451517936361e-04,-7.107082420645992604e-01,1.527479784587354623e-02
1.328000000000000000e+10,1.357426610850941129e-04,2.782955079934766747e-04,-7.105523328154139673e-01,1.486797267531018117e-02
1.335999999999999809e+10,1.272151737805179918e-04,3.187528421704914389e-04,-7.104687374804320443e-01,1.445971210893026368e-02
1.344000000000000000e+10,1.221899477739094085e-04,3.626550732190067343e-04,-7.104501010498397440e-01,1.406124536296139010e-02
1.351999999999999809e+10,1.257349322391224989e-04,4.123279602829013580e-04,-7.104877899657651152e-01,1.368014130531922806e-02
1.359999999999999809e+10,1.438953418924590090e-04,4.668761810691794733e-04,-7.105733128911194685e-01,1.332054824525537307e-02
1.368000000000000000e+10,1.824859402683029410e-04,5.218465164124615847e-04,-7.106994347401107692e-01,1.298391642881482379e-02
1.376000000000000000e+10,2.454933269911802832e-04,5.691354461902732240e-04,-7.108608484034175667e-01,1.267002607569881964e-02
1.384000000000000000e+10,3.330801755186627846e-04,5.976497514275232962e-04,-7.110543415712116122e-01,1.237811728521406862e-02
1.392000000000000000e+10,4.397019152598009156e-04,5.952112061142003641e-04,-7.112784727907792703e-01,1.210790824696847748e-02
1.400000000000000000e+10,5.532690139978492169e-04,5.517336790970526778e-04,-7.115328597695413926e-01,1.186030203387966088e-02
1.407999999999999809e+10,6.562665744607809951e-04,4.629445991254573802e-04,-7.118172726017708563e-01,1.163764206610522212e-02
1.415999999999999809e+10,7.291136187557495287e-04,3.332905637809513693e-04,-7.121307805388154000e-01,1.144348912013907170e-02
1.424000000000000000e+10,7.550266094628623435e-04,1.766263491541454687e-04,-7.124711822451142984e-01,1.128203224663559823e-02
1.432000000000000000e+10,7.247996537245522848e-04,1.400989309441910517e-05,-7.128348461812437087e-01,1.115735326319274717e-02
1.440000000000000000e+10,6.397614663980784452e-04,-1.309088387372877942e-04,-7.132169394305337695e-01,1.107278663658343987e-02
1.448000000000000000e+10,5.118325858667195465e-04,-2.374376522512949231e-04,-7.136118982867178939e-01,1.103054536531176098e-02
1.456000000000000000e+10,3.607067597355376361e-04,-2.925614305862945315e-04,-7.140139437580266257e-01,1.103166189381483454e-02
1.463999999999999809e+10,2.091484638525490194e-04,-2.934875727251843799e-04,-7.144174736077804067e-01,1.107618115972181135e-02
1.471999999999999809e+10,7.786134489929215580e-05,-2.475043695148699901e-04,-7.148172361391537111e-01,1.116347849355530004e-02
1.480000000000000000e+10,-1.870596246079895696e-05,-1.694627448685521445e-04,-7.152082702622639676e-01,1.129256049266221147e-02
1.488000000000000000e+10,-7.468314136630950354e-05,-7.775475389805223644e-05,-7.155856611788298238e-01,1.146222315171015020e-02
1.496000000000000191e+10,-9.286549628794777593e-05,1.009314165019551985e-05,-7.159442134344369268e-01,1.167097230501724058e-02
1.504000000000000191e+10,-8.274687885476242647e-05,8.111265764126728136e-05,-7.162781931482979925e-01,1.191665855236208674e-02
1.511999999999999809e+10,-5.716161281872160743e-05,1.289978079334827012e-04,-7.165813346867915268e-01,1.219586257924133027e-02
1.519999999999999809e+10,-2.856114521741869012e-05,1.541730202677413859e-04,-7.168473049399325392e-01,1.250320467528315618e-02
1.527999999999999809e+10,-6.081001550025893587e-06,1.620005958876177127e-04,-7.170707009799776044e-01,1.283091367008772771e-02
1.536000000000000000e+10,5.733405614629985265e-06,1.599847379575754778e-04,-7.172483860568908964e-01,1.316905729103567436e-02
1.544000000000000000e+10,6.427554570203654078e-06,1.552106711161503096e-04,-7.173806474550498136e-01,1.350664998580213168e-02
1.552000000000000191e+10,-1.872778295387378476e-06,1.529622278998292743e-04,-7.174715541839010724e-01,1.383340039965138234e-02
1.560000000000000191e+10,-1.587058866084850941e-05,1.565712472005556413e-04,-7.175282124099681136e-01,1.414141799579974462e-02
1.567999999999999809e+10,-3.178759626990594015e-05,1.677624321350260973e-04,-7.175592099150586156e-01,1.442615804932880288e-02
1.575999999999999809e+10,-4.558007195774958081e-05,1.867409037645222222e-04,-7.175729507944829111e-01,1.468632097347763107e-02
1.583999999999999809e+10,-5.333519370026308095e-05,2.119265328260071691e-04,-7.175765133701618170e-01,1.492297597903431000e-02
1.592000000000000000e+10,-1.490860527284047202e-04,2.618821287545717940e-04,-7.175752647314878052e-01,1.513845044213463914e-02
