# Frequency, Real(S21), Imag(S21), Real(S11), Imag(S11)
4.000000000000000000e+09,3.792714201369211109e-05,1.405031994621211292e-04,-7.188498881068940971e-01,6.802961742042949386e-03
4.080000000000000000e+09,2.189514945855381160e-06,1.453720966954597752e-04,-7.187430410538103720e-01,6.950646432541616668e-03
4.160000000000000477e+09,2.081625363700635902e-06,1.463774154970359721e-04,-7.187535618987493935e-01,7.109852446181946263e-03
4.240000000000000000e+09,1.135271142985997690e-06,1.459060954955789826e-04,-7.187034869674890913e-01,7.268089803640197070e-03
4.320000000000000000e+09,3.528319718470892206e-06,1.445579534137831626e-04,-7.187266396449226713e-01,7.430554049483038132e-03
4.400000000000000000e+09,3.759908172141671120e-06,1.428686452205445157e-04,-7.187204875787630565e-01,7.594485416691271543e-03
4.480000000000000000e+09,2.990203814440432826e-05,1.418027275601800531e-04,-7.187287558864671189e-01,7.761869083642678087e-03
4.560000000000000000e+09,3.820015765055566387e-06,1.409424381811181463e-04,-7.187069489951850576e-01,7.928975512702567466e-03
4.640000000000000000e+09,3.705961872155052280e-06,1.415399745487283794e-04,-7.186994748524653254e-01,8.099830389106681475e-03
4.720000000000000000e+09,3.498031169487786894e-06,1.434366774992852840e-04,-7.187049533429682446e-01,8.274721140361608260e-03
4.800000000000000000e+09,3.436214663805379001e-06,1.464333435036908632e-04,-7.186828419962808523e-01,8.449676724832240818e-03
4.880000000000000000e+09,3.414586481090661191e-06,1.504579763797325438e-04,-7.186853722915433895e-01,8.630543598464416113e-03
4.960000000000000000e+09,3.414773585472284930e-06,1.550122495947946471e-04,-7.186634752232675671e-01,8.811915574935784770e-03
5.040000000000000000e+09,3.557608258103554574e-06,1.598937815514416287e-04,-7.186525280288192929e-01,8.998383722600094767e-03
5.120000000000000000e+09,3.799976666164451334e-06,1.647458452363301956e-04,-7.186405693795148153e-01,9.188870048213905115e-03
5.200000000000000000e+09,4.122010304512386099e-06,1.693271309782213652e-04,-7.186274351243612246e-01,9.383773929201019715e-03
5.280000000000000000e+09,4.496043417292350959e-06,1.734822077303145886e-04,-7.186129188139338542e-01,9.583553551260818107e-03
5.360000000000000000e+09,4.892343202246646208e-06,1.771407414813584648e-04,-7.185967557651944393e-01,9.788737658724880678e-03
5.440000000000000000e+09,5.283770292870418195e-06,1.803032920355695937e-04,-7.185785988429900240e-01,9.999939899943351834e-03
5.520000000000000000e+09,5.648632118533745369e-06,1.830193281361644573e-04,-7.185579804764015144e-01,1.021787486744567958e-02
5.600000000000000000e+09,5.971598056933683855e-06,1.853629515779785827e-04,-7.185342514524952762e-01,1.044337151847933402e-02
5.680000000000000000e+09,6.242983088218090490e-06,1.874107355416797791e-04,-7.185064817946282822e-01,1.067736942578661682e-02
5.760000000000000000e+09,6.457092676580088487e-06,1.892244601490986641e-04,-7.184733106885243803e-01,1.092085611344312604e-02
5.840000000000000954e+09,6.610412155363657926e-06,1.908397549049730530e-04,-7.184327803500674126e-01,1.117465724490445192e-02
5.920000000000000000e+09,6.700277917282944026e-06,1.922599227507426406e-04,-7.183823415741497076e-01,1.143902534780875078e-02
6.000000000000000000e+09,6.723904838855217916e-06,1.934528126219206448e-04,-7.183192570655270170e-01,1.171328634456586699e-02
6.080000000000000000e+09,6.676330333574753947e-06,1.943483346400854479e-04,-7.182411444303968828e-01,1.199594390818609774e-02
6.160000000000000000e+09,6.545015232762341724e-06,1.948354650336669839e-04,-7.181461930650538950e-01,1.228506779831676533e-02
6.239999999999999046e+09,6.299463631204812029e-06,1.947591319507255433e-04,-7.180330985683838207e-01,1.257857937170478273e-02
6.320000000000000000e+09,5.875244990135871737e-06,1.939181184405926563e-04,-7.179009417529385040e-01,1.287437513926289155e-02
6.400000000000000954e+09,5.152504960033657278e-06,1.920655919732323132e-04,-7.177490976837912484e-01,1.317036746692730464e-02
6.480000000000000000e+09,3.929669522397974217e-06,1.889143040110618902e-04,-7.175771779298881770e-01,1.346449493791610635e-02
6.560000000000000000e+09,1.893720252471004059e-06,1.841489133959466865e-04,-7.173849948309460878e-01,1.375472336585854133e-02
6.640000000000000000e+09,-1.410817247862226702e-06,1.774478655919400677e-04,-7.171725390872514261e-01,1.403904459143480270e-02
6.720000000000000000e+09,-6.611229828518366911e-06,1.685170902843822647e-04,-7.169399654900072694e-01,1.431547530380965563e-02
6.799999999999999046e+09,-1.453069663500205599e-05,1.571367681034739670e-04,-7.166875839232538237e-01,1.458205648795794784e-02
6.880000000000000000e+09,-2.620283350791521209e-05,1.432217637531458404e-04,-7.164158540401069919e-01,1.483685367092229049e-02
6.960000000000000954e+09,-4.287211595239818780e-05,1.268944593916109692e-04,-7.161253827537796823e-01,1.507795803301131311e-02
7.039999999999999046e+09,-6.597545162965949670e-05,1.085675356102058786e-04,-7.158169240228428043e-01,1.530348854275007109e-02
7.120000000000000000e+09,-9.710049396763036490e-05,8.903225471072973235e-05,-7.154913806017427769e-01,1.551159530856122473e-02
7.200000000000000000e+09,-1.379169015063829709e-04,6.954648406373253964e-05,-7.151498074652202774e-01,1.570046447201521936e-02
7.280000000000000000e+09,-1.900780103163321444e-04,5.191523502438022690e-05,-7.147934166338856254e-01,1.586832492782766849e-02
7.359999999999999046e+09,-2.558323833163826493e-04,4.144724613315043955e-05,-7.143628386134961428e-01,1.629126271938493437e-02
7.440000000000000000e+09,-3.341623571496614518e-04,3.253602666198869911e-05,-7.140418508512461626e-01,1.613420523237200574e-02
7.520000000000000000e+09,-4.280047899556366610e-04,3.758440471726107223e-05,-7.136499402569959072e-01,1.622899006898799110e-02
7.599999999999999046e+09,-5.366402233197135364e-04,5.805036631472706120e-05,-7.132497532001834672e-01,1.629632789922854860e-02
7.680000000000000000e+09,-6.591788633499337090e-04,9.881964011930618411e-05,-7.128433782380488859e-01,1.633485033439081857e-02
7.760000000000000954e+09,-7.936028775460774939e-04,1.651706037551195407e-04,-7.124330932053378751e-01,1.634332833469929677e-02
7.840000000000000000e+09,-9.365627239815888135e-04,2.625692465663333631e-04,-7.120213650154808560e-01,1.632069912139733070e-02
7.919999999999999046e+09,-1.083202669496656587e-03,3.964004317925976482e-04,-7.116108456458913878e-01,1.626609587468409029e-02
8.000000000000000000e+09,-1.227032855437493273e-03,5.716362032923226867e-04,-7.112043634433727890e-01,1.617887969792006567e-02
8.080000000000000000e+09,-1.359865826321580203e-03,7.924457684706606069e-04,-7.108049088429013729e-01,1.605867305884872351e-02
8.159999999999999046e+09,-1.471835666140815365e-03,1.061755774240221578e-03,-7.104156137523910397e-01,1.590539374532719610e-02
8.240000000000000000e+09,-1.551516653239768881e-03,1.380774267055947212e-03,-7.100397239502760360e-01,1.571928812075783916e-02
8.320000000000000954e+09,-1.586156604328555538e-03,1.748496619356323164e-03,-7.096805641058038239e-01,1.550096219548997671e-02
8.400000000000000000e+09,-1.562037069780356034e-03,2.161216608019525011e-03,-7.093414953039857140e-01,1.525140889378192276e-02
8.480000000000000000e+09,-1.464968679757610746e-03,2.612070951633839195e-03,-7.090258653458246796e-01,1.497202969077366351e-02
8.560000000000000000e+09,-1.280924999872025578e-03,3.090650017110427566e-03,-7.087369525203065512e-01,1.466464884962953054e-02
8.640000000000000000e+09,-9.968122379390468527e-04,3.582711700929093121e-03,-7.084779040387212401e-01,1.433151841929665091e-02
8.720000000000000000e+09,-6.013650361710822694e-04,4.070038607997063934e-03,-7.082516708180922604e-01,1.397531249639870701e-02
8.800000000000000000e+09,-8.614990775028969492e-05,4.530481017575993877e-03,-7.080609407437198355e-01,1.359910944263796606e-02
8.880000000000000000e+09,5.533521654736349134e-04,4.938228832589800291e-03,-7.079080730037361491e-01,1.320636139998483671e-02
8.959999999999998093e+09,1.316624514274872867e-03,5.264354543401117241e-03,-7.077950362825993214e-01,1.280085093836496810e-02
9.040000000000000000e+09,2.197009448893067884e-03,5.477665115117118580e-03,-7.077233538127369883e-01,1.238663549307234338e-02
9.120000000000000000e+09,3.180689075829424770e-03,5.545892964790195834e-03,-7.076940580630274313e-01,1.196798091811612612e-02
9.200000000000000000e+09,4.245839700459505019e-03,5.437242900130093842e-03,-7.077076576345526782e-01,1.154928634964732734e-02
9.280000000000000000e+09,5.362064496175295014e-03,5.122293136063554506e-03,-7.077641183167776573e-01,1.113500312832280646e-02
9.360000000000000000e+09,6.490224377491184311e-03,4.576219168643789331e-03,-7.078628595686033975e-01,1.072955105992534283e-02
9.440000000000000000e+09,7.582797327223503130e-03,3.781274432605266113e-03,-7.080027667934639668e-01,1.033723561898482711e-02
9.520000000000000000e+09,8.584897325440944346e-03,2.729414267502823163e-03,-7.081822188600740420e-01,9.962169621269393455e-03
9.600000000000000000e+09,9.436070368322811014e-03,1.424896133586831416e-03,-7.083991294279200490e-01,9.608202748351961711e-03
9.680000000000000000e+09,1.007295101010811239e-02,-1.133691207261332647e-04,-7.086509998109636888e-01,9.278861662697946225e-03
9.760000000000000000e+09,1.043280310112861334e-02,-1.849995702781342781e-03,-7.089349804551796641e-01,8.977302987041529611e-03
9.840000000000000000e+09,1.045787931967425040e-02,-3.732154233373762269e-03,-7.092479378475154972e-01,8.706280204704661477e-03
9.920000000000000000e+09,1.010041641915095795e-02,-5.689794695593786318e-03,-7.095865233503575453e-01,8.468125061306293333e-03
1.000000000000000000e+10,9.327943742647188535e-03,-7.637372552266694960e-03,-7.099472407495112103e-01,8.264742826780918303e-03
1.008000000000000000e+10,8.128436926467211276e-03,-9.477304486425038033e-03,-7.103265095501157811e-01,8.097620190976257196e-03
1.016000000000000000e+10,6.514721900038695709e-03,-1.110522778977286046e-02,-7.107207216453375054e-01,7.967843904293579749e-03
1.024000000000000000e+10,4.527458671812116184e-03,-1.241691888845171746e-02,-7.111262896240008180e-01,7.876127836346060243e-03
1.032000000000000000e+10,2.236045203039377718e-03,-1.331645940399055553e-02,-7.115396856557336669e-01,7.822845992870176846e-03
1.040000000000000000e+10,-2.719339253418307477e-04,-1.371770693118224901e-02,-7.120356332647191921e-01,7.789139702391800583e-03
1.048000000000000000e+10,-2.851101712797152448e-03,-1.358891912740859374e-02,-7.123763134306854150e-01,7.831601897459725126e-03
1.056000000000000000e+10,-5.394125130162882691e-03,-1.288715631066631243e-02,-7.127930018466037687e-01,7.893020945607962316e-03
1.064000000000000000e+10,-7.753023569097730258e-03,-1.163530104793751574e-02,-7.132044444930799587e-01,7.991708481418688045e-03
1.072000000000000000e+10,-9.794508192457930182e-03,-9.887013070607471310e-03,-7.136076662077903698e-01,8.126884013004461241e-03
1.080000000000000000e+10,-1.140246247605099066e-02,-7.731505712955552730e-03,-7.139997969441090886e-01,8.297631009276346808e-03
1.088000000000000000e+10,-1.248812605492875122e-02,-5.287430503636014918e-03,-7.143780551751072183e-01,8.502918485116323782e-03
1.096000000000000000e+10,-1.299790419951750084e-02,-2.693696503676089316e-03,-7.147397264868451394e-01,8.741616727175138477e-03
1.104000000000000000e+10,-1.291786925931935268e-02,-9.822818693105592972e-05,-7.150821378054813549e-01,9.012506213801793967e-03
1.112000000000000191e+10,-1.227446845866784000e-02,2.354068019635476797e-03,-7.154026277913485554e-01,9.314278639198057819e-03
1.120000000000000000e+10,-1.113145713274510049e-02,4.532799211710730226e-03,-7.156985140855371963e-01,9.645528550863542716e-03
1.128000000000000000e+10,-9.583541719659015648e-03,6.331856136187604886e-03,-7.159670584322076481e-01,1.000473372936822383e-02
1.135999999999999809e+10,-7.747567659785170417e-03,7.676565343973785864e-03,-7.162054313174677223e-01,1.039022207505729475e-02
1.143999999999999809e+10,-5.752283840100688196e-03,8.527707811946588778e-03,-7.164106786251069892e-01,1.080012244090796172e-02
1.152000000000000000e+10,-3.727754312047134883e-03,8.882274397785622916e-03,-7.165796940570385853e-01,1.123229679143858580e-02
1.160000000000000000e+10,-1.795397390547415380e-03,8.771167450951387196e-03,-7.167092026024926010e-01,1.168425106040804108e-02
1.168000000000000191e+10,-5.945395735054768808e-05,8.254312679975731731e-03,-7.167957624020517837e-01,1.215302298356388949e-02
1.176000000000000000e+10,1.364009493160169180e-03,7.447564238996211977e-03,-7.168554487737742731e-01,1.263780268620392534e-02
1.184000000000000000e+10,2.528878594894563327e-03,6.345827897779937263e-03,-7.168256552728994313e-01,1.312599419685194294e-02
1.191999999999999809e+10,3.337683785740397802e-03,5.057134978090190025e-03,-7.167987469245631349e-01,1.364097731344280501e-02
1.200000000000000000e+10,3.734565053519160911e-03,3.930815051285626617e-03,-7.166407835114505520e-01,1.411252247078305724e-02
1.208000000000000000e+10,3.847429847300340433e-03,2.770216829448052601e-03,-7.164599507533219169e-01,1.459412224699630813e-02
1.216000000000000000e+10,3.695501910694931266e-03,1.741042098077106052e-03,-7.162174220450834294e-01,1.505644336224863482e-02
1.224000000000000191e+10,3.344180938713355294e-03,8.927246267189370681e-04,-7.159127846061381639e-01,1.548919059180796538e-02
1.232000000000000000e+10,2.902834834927765784e-03,-3.993961638934116418e-04,-7.155476211291708077e-01,1.588091658055589689e-02
1.239999999999999809e+10,2.329105087672787584e-03,-1.813552311342545454e-04,-7.151261052898446602e-01,1.621942937123853692e-02
1.247999999999999809e+10,1.836275990242406363e-03,-4.270215163202574667e-04,-7.145202108773044403e-01,1.640689419063389581e-02
1.256000000000000000e+10,1.319061732853626370e-03,-5.061640782592432978e-04,-7.141466435319701045e-01,1.668870843218777864e-02
1.264000000000000000e+10,9.235157397230123058e-04,-4.744802522479430167e-04,-7.136136189239172811e-01,1.679887990422119365e-02
1.272000000000000000e+10,6.235609521323733778e-04,-3.717895936826115088e-04,-7.130735553717422182e-01,1.681711104402428339e-02
1.280000000000000191e+10,4.158524659229051587e-04,-2.376251194662179944e-04,-7.125454134439634934e-01,1.674200612038550043e-02
1.288000000000000000e+10,2.856959135659326823e-04,-1.021134203223081848e-04,-7.120484695685012078e-01,1.657733868943877739e-02
1.295999999999999809e+10,2.126239517704950994e-04,1.617113259283584504e-05,-7.116004985733852539e-01,1.633207554835686484e-02
1.303999999999999809e+10,1.757574868989945568e-04,1.097095010143760260e-04,-7.112160190630454348e-01,1.601963544242178059e-02
1.312000000000000000e+10,1.577991539891595023e-04,1.795242821245321484e-04,-7.109049630290577015e-01,1.565646855664309597e-02
1.320000000000000000e+10,1.470795654216050096e-04,2.317339691045288016e-04,-7.106720438990802302e-01,1.526022267625960077e-02
1.328000000000000000e+10,1.377810659632188698e-04,2.742751243016442668e-04,-7.105169231612126213e-01,1.484786179811239948e-02
1.335999999999999809e+10,1.289803883727306242e-04,3.144961769312633066e-04,-7.104350830021765040e-01,1.443409009486218766e-02
1.344000000000000000e+10,1.232768258500994236e-04,3.577559515865496491e-04,-7.104191692110196632e-01,1.403032641965218895e-02
1.351999999999999809e+10,1.255190240431880834e-04,4.067146970519305762e-04,-7.104605108961571380e-01,1.364432682845269362e-02
1.359999999999999809e+10,1.417100208434195706e-04,4.608839388440729443e-04,-7.105505429723339983e-01,1.328041860134439311e-02
1.368000000000000000e+10,1.778232241610734057e-04,5.162191260378038360e-04,-7.106819209580237384e-01,1.294021730048761608e-02
1.376000000000000000e+10,2.382072601360892016e-04,5.649405292720218212e-04,-7.108491930858519270e-01,1.262364788669832587e-02
1.384000000000000000e+10,3.235544982001812360e-04,5.960951607556868020e-04,-7.110489689149046555e-01,1.233006531597417854e-02
1.392000000000000000e+10,4.324065895940338395e-04,5.952755386323313729e-04,-7.111587123571205815e-01,1.208941574882815839e-02
1.400000000000000000e+10,5.427739543116899762e-04,5.582399339805620316e-04,-7.115404846908883751e-01,1.181216299214734276e-02
1.407999999999999809e+10,6.478812481462148387e-04,4.737071115424058691e-04,-7.118311675465383015e-01,1.159107819923758075e-02
1.415999999999999809e+10,7.245933714529256484e-04,3.473724767403394602e-04,-7.121505161447245769e-01,1.139947840820753136e-02
1.424000000000000000e+10,7.556304027684035635e-04,1.923231216221249636e-04,-7.124961639606515185e-01,1.124141802751768560e-02
1.432000000000000000e+10,7.309462971162152076e-04,2.914622144796789535e-05,-7.128643634352090919e-01,1.112081687047037325e-02
1.440000000000000000e+10,6.508737709793164681e-04,-1.185345580592026362e-04,-7.132502173581530824e-01,1.104084054237019358e-02
1.448000000000000000e+10,5.264224964513133497e-04,-2.295812388866132593e-04,-7.136481428964156493e-01,1.100354489559214263e-02
1.456000000000000000e+10,3.766806305844165028e-04,-2.901606588759703034e-04,-7.140523738167047219e-01,1.100982974428647496e-02
1.463999999999999809e+10,2.242507950103213852e-04,-2.964839876113878532e-04,-7.144573361695387703e-01,1.105963704904485562e-02
1.471999999999999809e+10,9.014214379302488284e-05,-2.548964312800256426e-04,-7.148578061120893778e-01,1.115226624503143360e-02
1.480000000000000000e+10,-1.051191925240178675e-05,-1.795682905194380819e-04,-7.152488372005290085e-01,1.128666597201241281e-02
1.488000000000000000e+10,-7.095046336056117322e-05,-8.861234367491438490e-05,-7.156255085702211138e-01,1.146157790612948105e-02
1.496000000000000191e+10,-9.308754682102212254e-05,2.842072615656839052e-07,-7.159825976988308804e-01,1.167543956430867023e-02
1.504000000000000191e+10,-8.575160212687833185e-05,7.362204195549687784e-05,-7.163143317319610182e-01,1.192600080963626859e-02
1.511999999999999809e+10,-6.147019805677802888e-05,1.243564426656175947e-04,-7.166144144842147012e-01,1.220969452487984455e-02
1.519999999999999809e+10,-3.278455940810270236e-05,1.521773332033674075e-04,-7.168765217964271352e-01,1.252094247576102104e-02
1.527999999999999809e+10,-9.234682444130422026e-06,1.619117577533276298e-04,-7.170953350304039020e-01,1.285174002548316805e-02
1.536000000000000000e+10,4.085673186160433592e-06,1.608370495257006438e-04,-7.172679040795287841e-01,1.319192619441656410e-02
1.544000000000000000e+10,6.216307628259626849e-06,1.561079980654823669e-04,-7.173948060044819108e-01,1.353034823187788949e-02
1.552000000000000191e+10,-1.385120998012468070e-04,1.763153737986633226e-04,-7.174804673057542104e-01,1.385666207935385905e-02
1.560000000000000191e+10,-1.458610976820921021e-05,1.559641505877319267e-04,-7.175323565117937008e-01,1.416306312729543465e-02
1.567999999999999809e+10,-4.594795485734671928e-04,1.461085834728257098e-04,-7.175593643221453988e-01,1.444521483051083854e-02
1.575999999999999809e+10,-4.494388730994984635e-05,1.844477729099268067e-04,-7.175700984950161843e-01,1.470210211708746287e-02
1.583999999999999809e+10,-5.356702718131489465e-05,2.092552608212400276e-04,-7.175717353586680280e-01,1.493510404501102555e-02
1.592000000000000000e+10,-5.338094972895466705e-05,2.372593950112391855e-04,-7.175696513157864276e-01,1.514684729514996497e-02
