# Frequency, Real(S21), Imag(S21), Real(S11), Imag(S11)
4.000000000000000000e+09,3.786221972640948239e-05,1.405115773924473139e-04,-7.188419373766978815e-01,6.803568814894685006e-03
4.080000000000000000e+09,2.288337136658957119e-06,1.453712856215120793e-04,-7.187508869961839464e-01,6.951939771619500795e-03
4.160000000000000477e+09,2.075594999492939554e-06,1.463815307121167837e-04,-7.187535393787496396e-01,7.110349375052270673e-03
4.240000000000000000e+09,1.130170017720087455e-06,1.459103751272578333e-04,-7.187034671063582403e-01,7.268602491812221900e-03
4.320000000000000000e+09,3.523829961316897671e-06,1.445631163903168500e-04,-7.187266154080741432e-01,7.431088720996180917e-03
4.400000000000000000e+09,3.755804236614277837e-06,1.428744201175831928e-04,-7.187204614134639069e-01,7.595041394144705013e-03
4.480000000000000000e+09,2.989798044623316137e-05,1.418109291460423313e-04,-7.187287264164610168e-01,7.762450144245759166e-03
4.560000000000000000e+09,3.815680445179209995e-06,1.409495163701301079e-04,-7.187069184173463521e-01,7.929577361205641939e-03
4.640000000000000000e+09,3.701139603212876958e-06,1.415476759430054580e-04,-7.186994417436599614e-01,8.100456988064958647e-03
4.720000000000000000e+09,3.492662624721101149e-06,1.434450513946106467e-04,-7.187049169238139967e-01,8.275377230188316752e-03
4.800000000000000000e+09,3.430341850110452658e-06,1.464421264015537661e-04,-7.186828030277004897e-01,8.450356992532876213e-03
4.880000000000000000e+09,3.408451523783653360e-06,1.504673262638590771e-04,-7.186853299868437572e-01,8.631256975395117451e-03
4.960000000000000000e+09,3.908811521444258965e-06,1.550104339734104792e-04,-7.186434486538783029e-01,8.813284233097984713e-03
5.040000000000000000e+09,3.551957740759646733e-06,1.599038061956530455e-04,-7.186524776461646891e-01,8.999156921329137457e-03
5.120000000000000000e+09,3.795173021746608684e-06,1.647562446156992846e-04,-7.186405142589701311e-01,9.189678200266374400e-03
5.200000000000000000e+09,4.118442973771023767e-06,1.693379139076322247e-04,-7.186273746612111823e-01,9.384619369573375669e-03
5.280000000000000000e+09,4.494061719247096066e-06,1.734933938153427366e-04,-7.186128522884108749e-01,9.584438872682028016e-03
5.360000000000000000e+09,5.711909410051920092e-06,1.771710493382501212e-04,-7.185744552208657154e-01,9.790427941789810184e-03
5.440000000000000000e+09,5.285819273069008829e-06,1.803153501335792047e-04,-7.185785173943274318e-01,1.000091401461211844e-02
5.520000000000000000e+09,5.653052836776274929e-06,1.830318475343593204e-04,-7.185578897110913577e-01,1.021889866384587814e-02
5.600000000000000000e+09,5.978605228580072447e-06,1.853759443099643094e-04,-7.185341496841455289e-01,1.044444914799979446e-02
5.680000000000000000e+09,6.252794143491603645e-06,1.874242148262464727e-04,-7.185063668197486653e-01,1.067850560337887944e-02
5.760000000000000000e+09,6.469938169288408319e-06,1.892384495907782009e-04,-7.184731795492689255e-01,1.092205616863687993e-02
5.840000000000000954e+09,6.626539437504979669e-06,1.908543082387719489e-04,-7.184326290002557291e-01,1.117592707220090541e-02
5.920000000000000000e+09,6.719949464431851800e-06,1.922751589088216191e-04,-7.183821645169327086e-01,1.144037115964179931e-02
6.000000000000000000e+09,6.747396657348339784e-06,1.934689604089918891e-04,-7.183190471470298766e-01,1.171471421787702132e-02
6.080000000000000000e+09,6.703942711036710325e-06,1.943658124180973952e-04,-7.182408928861477859e-01,1.199745931686780308e-02
6.160000000000000000e+09,6.577111581399320628e-06,1.948549750781207869e-04,-7.181458897099096683e-01,1.228667527779222016e-02
6.239999999999999046e+09,6.336558139255497651e-06,1.947817845634842386e-04,-7.180327320065754693e-01,1.258028230298382719e-02
6.320000000000000000e+09,5.918159014275098639e-06,1.939455632599039426e-04,-7.179004995714876047e-01,1.287617559498466929e-02
6.400000000000000954e+09,5.202614125473096124e-06,1.921001377150435591e-04,-7.177485666312126700e-01,1.317226608848121212e-02
6.480000000000000000e+09,3.989253362034760628e-06,1.889590032982035796e-04,-7.175765440906962667e-01,1.346649083016076588e-02
6.560000000000000000e+09,1.966425556495723795e-06,1.842075414239295681e-04,-7.173842438002226984e-01,1.375681400611659944e-02
6.640000000000000000e+09,-1.319404188715651328e-06,1.775248263241165569e-04,-7.171716561485993457e-01,1.404122575272056216e-02
6.720000000000000000e+09,-6.492932617855546652e-06,1.686170333781277105e-04,-7.169389357995841205e-01,1.431774099048919828e-02
6.799999999999999046e+09,-1.437404595480747268e-05,1.572640125111423811e-04,-7.166863926970453713e-01,1.458439888816058690e-02
6.880000000000000000e+09,-2.599238982593825775e-05,1.433794098270673128e-04,-7.164144867503858816e-01,1.483926312128242171e-02
6.960000000000000954e+09,-4.258789438087311782e-05,1.270832650976457423e-04,-7.161238253263673137e-01,1.508042300362236188e-02
7.039999999999999046e+09,-6.559258494182008351e-05,1.087841355083401113e-04,-7.158151630403651877e-01,1.530599563343639467e-02
7.120000000000000000e+09,-9.658923909272118676e-05,8.926729183966708133e-05,-7.154894035113964490e-01,1.551412926838792970e-02
7.200000000000000000e+09,-1.372431672509151848e-04,6.978228898303807807e-05,-7.151476027873148178e-01,1.570300823208641006e-02
7.280000000000000000e+09,-1.892045512099443873e-04,5.212329865795614268e-05,-7.147909741744588041e-01,1.587085965513350058e-02
7.359999999999999046e+09,-2.527879553818172548e-04,1.708270752605636463e-04,-7.144208940777616590e-01,1.601596243388937746e-02
7.440000000000000000e+09,-3.327761633683228980e-04,3.254670606892023270e-05,-7.140389084520292196e-01,1.613665872610185736e-02
7.520000000000000000e+09,-4.263133234432684750e-04,3.739136504540585852e-05,-7.136467393324739117e-01,1.623136828393350814e-02
7.599999999999999046e+09,-5.346238660050133809e-04,5.755800737582866030e-05,-7.132462908154760806e-01,1.629860589796140735e-02
7.680000000000000000e+09,-6.568352071047835541e-04,9.791247358290500885e-05,-7.128396537911132480e-01,1.633700199668719488e-02
7.760000000000000954e+09,-7.909538355772942602e-04,1.637143098856673907e-04,-7.124291086233912607e-01,1.634532654756126746e-02
7.840000000000000000e+09,-9.336622889134359605e-04,2.604136650195133362e-04,-7.120171249396447521e-01,1.632251599421401592e-02
7.919999999999999046e+09,-1.080144942974184960e-03,3.933847832387044573e-04,-7.116063576087077180e-01,1.626770297742635707e-02
8.000000000000000000e+09,-1.223959817092466328e-03,5.675969071876753140e-04,-7.111996380289541397e-01,1.618024831943928529e-02
8.080000000000000000e+09,-1.356974161432480171e-03,7.872270910984854615e-04,-7.107999598323091472e-01,1.605977450162998990e-02
8.159999999999999046e+09,-1.469381859109173414e-03,1.055223385044204518e-03,-7.104104582481901575e-01,1.590619964388053156e-02
8.240000000000000000e+09,-1.549819425896880286e-03,1.372831624843362302e-03,-7.100343824806200077e-01,1.571977078519342513e-02
8.320000000000000954e+09,-1.585595716102758661e-03,1.739103822556468341e-03,-7.096750606911855774e-01,1.550109499019167864e-02
8.400000000000000000e+09,-1.563047465962941109e-03,2.150411118071186151e-03,-7.093358575080128681e-01,1.525116662935393531e-02
8.480000000000000000e+09,-1.468029004454207437e-03,2.599989202701098994e-03,-7.090201242723195296e-01,1.497138905639130296e-02
8.560000000000000000e+09,-1.286539640981168488e-03,3.077548666206357704e-03,-7.087311427750391246e-01,1.466358886089991383e-02
8.640000000000000000e+09,-1.005486286028407219e-03,3.568986820228444747e-03,-7.084720636411115935e-01,1.433002089026984109e-02
8.720000000000000000e+09,-6.135718820854630870e-04,4.056240866805106877e-03,-7.082458410527465720e-01,1.397336252769278662e-02
8.800000000000000000e+09,-1.022916878253120473e-04,4.517324538413504398e-03,-7.080551659562139832e-01,1.359669591825708214e-02
8.880000000000000000e+09,5.329904568478739885e-04,4.926591239410663299e-03,-7.079024003193113979e-01,1.320347749223794130e-02
8.959999999999998093e+09,1.291925685766104033e-03,5.255265641182315858e-03,-7.077895152635896858e-01,1.279749460240729893e-02
9.040000000000000000e+09,2.168077113208126926e-03,5.472281706760263875e-03,-7.077180360280785898e-01,1.238280995122673783e-02
9.120000000000000000e+09,3.147899658615702784e-03,5.545457777255423382e-03,-7.076889965842231289e-01,1.196369511557541544e-02
9.200000000000000000e+09,4.209889125274290586e-03,5.443026347539981283e-03,-7.077029064500388600e-01,1.154455537345932745e-02
9.280000000000000000e+09,5.324004352024239856e-03,5.135517028044047153e-03,-7.077597316635062530e-01,1.112984857680673033e-02
9.360000000000000000e+09,6.451481676952515107e-03,4.597964045067669606e-03,-7.078588911864790445e-01,1.072400134767842808e-02
9.440000000000000000e+09,7.545171552692601577e-03,3.812372969256588688e-03,-7.079992691053698106e-01,1.033132620639119585e-02
9.520000000000000000e+09,8.550528608814370393e-03,2.770335818526894339e-03,-7.081792420745535166e-01,9.955943151109253667e-03
9.600000000000000000e+09,9.407373429455362021e-03,1.475629837122063078e-03,-7.083967205855895566e-01,9.601709071813823923e-03
9.680000000000000000e+09,1.005251117900551362e-02,-5.342287777614052827e-05,-7.086492017728025505e-01,9.272157750400160034e-03
9.760000000000000000e+09,1.042323339682056475e-02,-1.782113426213258363e-03,-7.089338308460062521e-01,8.970452683124434043e-03
9.840000000000000000e+09,1.046164134308183100e-02,-3.658343516609208201e-03,-7.092474679917095681e-01,8.699353832101288861e-03
9.920000000000000000e+09,1.011961248995647475e-02,-5.612800487825511143e-03,-7.095867571987943823e-01,8.461198844958193327e-03
1.000000000000000000e+10,9.364093088745516560e-03,-7.560622756409480540e-03,-7.099481938499211386e-01,8.257898125729749156e-03
1.008000000000000000e+10,8.182254176420159647e-03,-9.404785433288641652e-03,-7.103281880918800306e-01,8.090942539490051863e-03
1.016000000000000000e+10,6.585920820505096474e-03,-1.104128580409606541e-02,-7.107231216321913125e-01,7.961421850341926856e-03
1.024000000000000000e+10,4.614606888351973843e-03,-1.236599211699760878e-02,-7.111293962155916804e-01,7.870051608329816512e-03
1.032000000000000000e+10,2.336495749444862137e-03,-1.328275345765410342e-02,-7.115434727316055641e-01,7.817206020440578204e-03
1.040000000000000000e+10,-1.531703741193179893e-04,-1.371209141419895382e-02,-7.119619005818206281e-01,7.802954355046512989e-03
1.048000000000000000e+10,-2.736581454769951814e-03,-1.359955766752149811e-02,-7.123813374547702804e-01,7.827098615521719746e-03
1.056000000000000000e+10,-5.280661869409096661e-03,-1.292270838113982259e-02,-7.127985601208539634e-01,7.889210573774179877e-03
1.064000000000000000e+10,-7.646695056544751748e-03,-1.169566895539280935e-02,-7.132104670734619178e-01,7.988666571624211676e-03
1.072000000000000000e+10,-9.701377022910975811e-03,-9.970468894422197456e-03,-7.136140739534958533e-01,8.124678915982966321e-03
1.080000000000000000e+10,-1.132810172935101549e-02,-7.834703129114987952e-03,-7.140065026744342180e-01,8.296322925104607574e-03
1.088000000000000000e+10,-1.243715512588052657e-02,-5.405564901064856265e-03,-7.143849649220069820e-01,8.502558823311356928e-03
1.096000000000000000e+10,-1.297358397830423483e-02,-2.820805732632985976e-03,-7.147467407437967379e-01,8.742247806583326036e-03
1.104000000000000000e+10,-1.292180078325823149e-02,-2.276096165226594581e-04,-7.150891526618896599e-01,9.014161277906681743e-03
1.112000000000000191e+10,-1.230642846241511955e-02,2.229362456499425424e-03,-7.154095358666640037e-01,9.316982145169391827e-03
1.120000000000000000e+10,-1.118938882296008179e-02,4.419437261273199274e-03,-7.157052051636934031e-01,9.649296649784084093e-03
1.128000000000000000e+10,-9.663702382442384761e-03,6.235718867429941581e-03,-7.159734197520387644e-01,1.000957485485480698e-02
1.135999999999999809e+10,-7.844818577975132962e-03,7.602307122903197156e-03,-7.162113474599035579e-01,1.039613751498884298e-02
1.143999999999999809e+10,-5.860494523960420137e-03,8.478421686347260150e-03,-7.164160309930261983e-01,1.080710678210830902e-02
1.152000000000000000e+10,-3.840283336094794248e-03,8.859290832343437797e-03,-7.165843599574176492e-01,1.124033809108656266e-02
1.160000000000000000e+10,-1.905606714854094115e-03,8.774001072656818084e-03,-7.167130539539794398e-01,1.169333062152734873e-02
1.168000000000000191e+10,-1.612123069295889367e-04,8.280758572140783577e-03,-7.167986641450106999e-01,1.216311457151022027e-02
1.176000000000000000e+10,1.316095913191291881e-03,7.416362765126162208e-03,-7.166929083774810083e-01,1.266833921918414721e-02
1.184000000000000000e+10,2.458227636952720063e-03,6.407298142321644560e-03,-7.168262155371938338e-01,1.313799264892585861e-02
1.191999999999999809e+10,3.254524630957045250e-03,5.223029625266091200e-03,-7.167609048620905421e-01,1.363347437068304462e-02
1.200000000000000000e+10,3.704117856263794938e-03,4.005734962267736357e-03,-7.166383329863186269e-01,1.412617694340805377e-02
1.208000000000000000e+10,3.836436549692266024e-03,2.843562791673242152e-03,-7.164557093657343279e-01,1.460845733215842754e-02
1.216000000000000000e+10,3.701580154409979916e-03,1.808113749895363985e-03,-7.162111813629095103e-01,1.507131883438495197e-02
1.224000000000000191e+10,3.363859993439796865e-03,9.499262333639325873e-04,-7.159043259755243360e-01,1.550442378742554819e-02
1.232000000000000000e+10,2.931274771333066201e-03,-3.550740091856248448e-04,-7.155367219373153231e-01,1.589627230409928690e-02
1.239999999999999809e+10,2.320126861764041683e-03,-1.741155603896666054e-04,-7.150124811026780103e-01,1.620764888357355271e-02
1.247999999999999809e+10,1.751802785823933705e-03,-4.231358932449056070e-04,-7.146391239222503744e-01,1.650711086294553293e-02
1.256000000000000000e+10,1.320884008432211560e-03,-5.155922176462963231e-04,-7.140221726397432134e-01,1.654304730788335245e-02
1.264000000000000000e+10,9.521569224672085316e-04,-4.737740166192548489e-04,-7.135911215934533924e-01,1.681100799649601352e-02
1.272000000000000000e+10,6.464131272069701967e-04,-3.766936309936184599e-04,-7.130479827209933452e-01,1.682713329027508975e-02
1.280000000000000191e+10,4.327312757572668485e-04,-2.455393808755809877e-04,-7.125169006253365689e-01,1.674928465556438373e-02
1.288000000000000000e+10,2.972525517189672983e-04,-1.109022822377793340e-04,-7.120172970415570290e-01,1.658121914346447762e-02
1.295999999999999809e+10,2.200293025035883173e-04,7.967180104175985034e-06,-7.115671040952893378e-01,1.633192644038993294e-02
1.303999999999999809e+10,1.803580264479187623e-04,1.028200438587327753e-04,-7.111809963080264474e-01,1.601489179942866548e-02
1.312000000000000000e+10,1.608150741848487998e-04,1.740368291968835452e-04,-7.108690459695544694e-01,1.564667403213560945e-02
1.320000000000000000e+10,1.493937537559499062e-04,2.272788088520494949e-04,-7.106360789753271012e-01,1.524506483544230476e-02
1.328000000000000000e+10,1.398367728863245552e-04,2.702523548611598936e-04,-7.104818333356257565e-01,1.482719720705746522e-02
1.335999999999999809e+10,1.307788046493565178e-04,3.102976237005968256e-04,-7.104018284017755702e-01,1.440795828187388557e-02
1.344000000000000000e+10,1.244524203636862634e-04,3.529523690460955676e-04,-7.103887079956873185e-01,1.399895423629288552e-02
1.351999999999999809e+10,1.254704805839499716e-04,4.011940049836735297e-04,-7.104337620532445996e-01,1.360812556695278723e-02
1.359999999999999809e+10,1.397711947130079926e-04,4.549323907959073677e-04,-7.105283508312386642e-01,1.323997570255143648e-02
1.368000000000000000e+10,1.734614895760430882e-04,5.105338460909147500e-04,-7.106650203887951989e-01,1.289628293045851949e-02
1.376000000000000000e+10,2.312290301576605533e-04,5.605561559214195791e-04,-7.108381748155667701e-01,1.257711482382691155e-02
1.384000000000000000e+10,3.189869267863609781e-04,5.879370217809357438e-04,-7.111906210760881031e-01,1.207918071274832229e-02
1.392000000000000000e+10,4.182797522035333723e-04,5.990865803012138504e-04,-7.112813823821063641e-01,1.201062273913268419e-02
1.400000000000000000e+10,5.322277629436094649e-04,5.642367724562355556e-04,-7.115487561234860037e-01,1.176411201423896435e-02
1.407999999999999809e+10,6.392391208987794823e-04,4.839787555796415852e-04,-7.118456929818836043e-01,1.154468187171408915e-02
1.415999999999999809e+10,7.196233913518348003e-04,3.610730658732666434e-04,-7.121708565185971285e-01,1.135571301206896901e-02
1.424000000000000000e+10,7.556469472622770901e-04,2.078288003704105891e-04,-7.125217146700625337e-01,1.120112419780633188e-02
1.432000000000000000e+10,7.364582666856317504e-04,4.433157018769262690e-05,-7.128944036644100368e-01,1.108467185856395337e-02
1.440000000000000000e+10,6.614108000389824077e-04,-1.058667216550912408e-04,-7.132839621609663450e-01,1.100935112574250897e-02
1.448000000000000000e+10,5.405965593322775015e-04,-2.212317835612416170e-04,-7.136847887711545990e-01,1.097705908441010646e-02
1.456000000000000000e+10,3.924684183545094386e-04,-2.871538349124253897e-04,-7.140911309181400268e-01,1.098856146153128800e-02
1.463999999999999809e+10,2.394205865375237721e-04,-2.988707846399232555e-04,-7.144974439759180784e-01,1.104369601033416970e-02
1.471999999999999809e+10,1.027155173780111965e-04,-2.617835015158239569e-04,-7.148985329790978893e-01,1.114168523278769377e-02
1.480000000000000000e+10,-1.873842879494363968e-06,-1.893559859595238422e-04,-7.152894670334997151e-01,1.128141874400985338e-02
1.488000000000000000e+10,-6.672390578797978236e-05,-9.937755887954447106e-05,-7.156653200128227921e-01,1.146158258576266027e-02
1.496000000000000191e+10,-9.287125561318536164e-05,-9.644147295203870512e-06,-7.160208432598401673e-01,1.168054409745671908e-02
1.504000000000000191e+10,-8.845675574575159153e-05,6.586073998256053409e-05,-7.163502264652676921e-01,1.193594980759930986e-02
1.511999999999999809e+10,-6.565904505311122817e-05,1.193826087529691927e-04,-7.166471457046792448e-01,1.222408152897915511e-02
1.519999999999999809e+10,-3.705950413551582963e-05,1.498800212116419212e-04,-7.169052907435208288e-01,1.253915916993632654e-02
1.527999999999999809e+10,-1.256030354989034418e-05,1.616222067924734363e-04,-7.171194349162931525e-01,1.287294256482064171e-02
1.536000000000000000e+10,2.218232225098930592e-06,1.616205567612685051e-04,-7.172868248024470983e-01,1.321504316760128278e-02
1.544000000000000000e+10,-8.808067613746376357e-06,1.519650965744013616e-04,-7.174083378053526250e-01,1.355414710648687737e-02
1.552000000000000191e+10,-3.682007270812718766e-07,1.537088929405299343e-04,-7.174887660266189293e-01,1.387986894265820156e-02
1.560000000000000191e+10,-1.333877733859911555e-05,1.555275148135292396e-04,-7.175359431836787483e-01,1.418450480664854019e-02
1.567999999999999809e+10,-2.935329188511359466e-05,1.648221299764014833e-04,-7.175590592850553673e-01,1.446394141973937272e-02
1.575999999999999809e+10,-4.419861983605528433e-05,1.822704853824607882e-04,-7.175669166974713020e-01,1.471746052178529891e-02
1.583999999999999809e+10,-5.365659119069844912e-05,2.066398037186755138e-04,-7.175667775328036235e-01,1.494675888986237398e-02
1.592000000000000000e+10,-5.603363374663796934e-05,2.375007778833208264e-04,-7.175411092300015836e-01,1.495031073612143602e-02
