# Frequency, Real(S21), Imag(S21), Real(S11), Imag(S11)
4.000000000000000000e+09,3.850488490672051385e-05,1.405670156499472646e-04,-7.188445048659226622e-01,6.804646250739512618e-03
4.080000000000000000e+09,1.330468477025561536e-05,1.448712913145841388e-04,-7.187540848352614864e-01,6.952689875533400732e-03
4.160000000000000477e+09,2.066527854617243140e-06,1.463877237371710976e-04,-7.187535052207616459e-01,7.111101456855293927e-03
4.240000000000000000e+09,1.122502610410954331e-06,1.459168212048691919e-04,-7.187034370344771439e-01,7.269378482921045985e-03
4.320000000000000000e+09,3.517076101481112368e-06,1.445708979164578008e-04,-7.187265786617441643e-01,7.431897988991826610e-03
4.400000000000000000e+09,3.749629039529452821e-06,1.428831302589449138e-04,-7.187204217422306085e-01,7.595882933282512017e-03
4.480000000000000000e+09,2.989181720329202443e-05,1.418232978705751164e-04,-7.187286817127268579e-01,7.763329647946724289e-03
4.560000000000000000e+09,3.809152060430999210e-06,1.409602044148536206e-04,-7.187068720532089339e-01,7.930488385469369392e-03
4.640000000000000000e+09,3.693876463985306173e-06,1.415593107025415803e-04,-7.186993915402174471e-01,8.101405507366604350e-03
4.720000000000000000e+09,3.484574448306038207e-06,1.434577067272327713e-04,-7.187048616649398536e-01,8.276370391055869885e-03
4.800000000000000000e+09,3.421491594911461217e-06,1.464554042801216203e-04,-7.186827439345613300e-01,8.451386823583388955e-03
4.880000000000000000e+09,3.399202715933666842e-06,1.504814655500507378e-04,-7.186852657878167738e-01,8.632336931051247386e-03
4.960000000000000000e+09,3.899804446009621184e-06,1.550250882628796852e-04,-7.186433717308641222e-01,8.814410070675571252e-03
5.040000000000000000e+09,3.543428327674373519e-06,1.599189764042498478e-04,-7.186524012336474865e-01,9.000327574891341803e-03
5.120000000000000000e+09,3.787912139798472409e-06,1.647719878154761165e-04,-7.186404306560564281e-01,9.190901828605314156e-03
5.200000000000000000e+09,4.113035888545861915e-06,1.693542449973541421e-04,-7.186272829494156911e-01,9.385899516556816050e-03
5.280000000000000000e+09,4.491033012412387065e-06,1.735103423463023862e-04,-7.186127513741367157e-01,9.585779473316825838e-03
5.360000000000000000e+09,5.712170735150253013e-06,1.771887926037940650e-04,-7.185743331193670258e-01,9.791840142125619872e-03
5.440000000000000000e+09,5.288837700812029355e-06,1.803336374982817260e-04,-7.185783938229987067e-01,1.000238923491318134e-02
5.520000000000000000e+09,5.659629730911110192e-06,1.830508439526412016e-04,-7.185577519919399414e-01,1.022044921912216957e-02
5.600000000000000000e+09,5.989062056212246521e-06,1.853956690192051435e-04,-7.185339952536166086e-01,1.044608134323102809e-02
5.680000000000000000e+09,6.267456128451401451e-06,1.874446874688077275e-04,-7.185061923273994289e-01,1.068022660037892466e-02
5.760000000000000000e+09,6.489151738282346264e-06,1.892597039472721356e-04,-7.184729804971989875e-01,1.092387406344062437e-02
5.840000000000000954e+09,6.650672911702163427e-06,1.908764273671325208e-04,-7.184323992340022613e-01,1.117785082153145704e-02
5.920000000000000000e+09,6.749396353107797568e-06,1.922983171511310758e-04,-7.183818956736331973e-01,1.144241020155371130e-02
6.000000000000000000e+09,6.782568821494394024e-06,1.934935025798074546e-04,-7.183187283406554657e-01,1.171687778416644239e-02
6.080000000000000000e+09,6.745288247163699135e-06,1.943923577985392148e-04,-7.182405107783624842e-01,1.199975571895476635e-02
6.160000000000000000e+09,6.625172013087686249e-06,1.948845717870608817e-04,-7.181454287985596929e-01,1.228911139616914797e-02
6.239999999999999046e+09,6.392098648553775248e-06,1.948160887672554544e-04,-7.180321749464027015e-01,1.258286325596944324e-02
6.320000000000000000e+09,5.982401853102858115e-06,1.939870355826103559e-04,-7.178998274678201064e-01,1.287890450617606118e-02
6.400000000000000954e+09,5.277604817549677889e-06,1.921522184996135433e-04,-7.177477593140242362e-01,1.317514389570032321e-02
6.480000000000000000e+09,4.078385783345953226e-06,1.890262640294458651e-04,-7.175755803806049826e-01,1.346951612622591075e-02
6.560000000000000000e+09,2.075128672574097412e-06,1.842956354185330131e-04,-7.173831017740387450e-01,1.375998289943646848e-02
6.640000000000000000e+09,-1.182818767220137008e-06,1.776402659648153434e-04,-7.171703134140295921e-01,1.404453174817919120e-02
6.720000000000000000e+09,-6.316288807515105870e-06,1.687667830728886134e-04,-7.169373697752031704e-01,1.432117489171508794e-02
6.799999999999999046e+09,-1.414026362839263169e-05,1.574545928758181422e-04,-7.166845809015586211e-01,1.458794872514110330e-02
6.880000000000000000e+09,-2.567847316222642094e-05,1.436155363275752194e-04,-7.164124071003025174e-01,1.484291409700502946e-02
6.960000000000000954e+09,-4.216408210045981091e-05,1.273659935461822544e-04,-7.161214564415931960e-01,1.508415746860884178e-02
7.039999999999999046e+09,-6.502182573324459753e-05,1.091085922318629287e-04,-7.158124845551956383e-01,1.530979308427347918e-02
7.120000000000000000e+09,-9.582720881441567171e-05,8.961964861193465279e-05,-7.154863963930047088e-01,1.551796637562771926e-02
7.200000000000000000e+09,-1.362390401760095405e-04,7.013636878571002584e-05,-7.151442496582240960e-01,1.570685889114774650e-02
7.280000000000000000e+09,-1.879027689751543769e-04,5.243680200353622494e-05,-7.147872596369383436e-01,1.587469507092499274e-02
7.359999999999999046e+09,-2.521070693754332449e-04,1.667982287313303827e-04,-7.143538497613585170e-01,1.631460221431810589e-02
7.440000000000000000e+09,-3.307098570953380563e-04,3.256832380423864805e-05,-7.140344344628275497e-01,1.614036711139575642e-02
7.520000000000000000e+09,-4.237915013128453704e-04,3.711096665271309061e-05,-7.136418728929191380e-01,1.623496020593672221e-02
7.599999999999999046e+09,-5.316168775264691875e-04,5.683346020020916059e-05,-7.132410277085795558e-01,1.630204327054233029e-02
7.680000000000000000e+09,-6.533388874087090684e-04,9.657196408244261582e-05,-7.128339933899716652e-01,1.634024496018337061e-02
7.760000000000000954e+09,-7.870000524698914351e-04,1.615579984503754361e-04,-7.124230541926847016e-01,1.634833374976415662e-02
7.840000000000000000e+09,-9.293305311174938649e-04,2.572177923282549950e-04,-7.120106839213299343e-01,1.632524492956731119e-02
7.919999999999999046e+09,-1.075574201585140222e-03,3.889097645605730548e-04,-7.115995418917167026e-01,1.627011034680538037e-02
8.000000000000000000e+09,-1.219360206320001510e-03,5.615986457393816293e-04,-7.111924641934627145e-01,1.618229045715289388e-02
8.080000000000000000e+09,-1.352637109985676232e-03,7.794727903903910697e-04,-7.107924493673193345e-01,1.606140781735544351e-02
8.159999999999999046e+09,-1.465687757310402345e-03,1.045511640665237277e-03,-7.104026377402945513e-01,1.590738112599170140e-02
8.240000000000000000e+09,-1.547241361190193620e-03,1.361016722129102874e-03,-7.100262837608223299e-01,1.572045853639469568e-02
8.320000000000000954e+09,-1.584697828798397028e-03,1.725123706125168601e-03,-7.096667209361381401e-01,1.550124881232918528e-02
8.400000000000000000e+09,-1.564476311824775177e-03,2.134318698837354804e-03,-7.093273192955324991e-01,1.525074864117664970e-02
8.480000000000000000e+09,-1.472497109853257696e-03,2.581982425046144142e-03,-7.090114355658735379e-01,1.497036435986764773e-02
8.560000000000000000e+09,-1.294798431749069655e-03,3.058005286115300647e-03,-7.087223568457776679e-01,1.466192623771069882e-02
8.640000000000000000e+09,-1.018289525569833660e-03,3.548491014392956416e-03,-7.084632389107069494e-01,1.432769351785664891e-02
8.720000000000000000e+09,-6.316276610926746917e-04,4.035606538952247156e-03,-7.082370408398002137e-01,1.397034874109907669e-02
8.800000000000000000e+09,-1.262038570689686366e-04,4.497608856694905281e-03,-7.080464581352071685e-01,1.359297995827649617e-02
8.880000000000000000e+09,5.027903090225569220e-04,4.909094996366289952e-03,-7.078938568621022664e-01,1.319905027303923568e-02
8.959999999999998093e+09,1.255253439596072012e-03,5.241517183721269325e-03,-7.077812116800699105e-01,1.279235445155225276e-02
9.040000000000000000e+09,2.125074948221855001e-03,5.464000059908317129e-03,-7.077100506803436497e-01,1.237696332762071826e-02
9.120000000000000000e+09,3.099113547990366320e-03,5.544492361725919874e-03,-7.076814098853272395e-01,1.195715727978049515e-02
9.200000000000000000e+09,4.156338657187897724e-03,5.451270945045785798e-03,-7.076957999414489331e-01,1.153735099141309402e-02
9.280000000000000000e+09,5.267237189066881209e-03,5.154797469863275916e-03,-7.077531869738492576e-01,1.112201223865439369e-02
9.360000000000000000e+09,6.393603885588950569e-03,4.629900998654814387e-03,-7.078529888755779043e-01,1.071557798773413450e-02
9.440000000000000000e+09,7.488844501063920966e-03,3.858223977287259399e-03,-7.079940874012333740e-01,1.032237139435353626e-02
9.520000000000000000e+09,8.498923240620646913e-03,2.830823919156817171e-03,-7.081748555145790380e-01,9.946523245182624720e-03
9.600000000000000000e+09,9.364073900258573085e-03,1.550769582352468350e-03,-7.083931985699268852e-01,9.591901192770964021e-03
9.680000000000000000e+09,1.002136227605543613e-02,3.551253183458019484e-05,-7.086466070401039596e-01,9.262049581192916339e-03
9.760000000000000000e+09,1.040813011748624450e-02,-1.681241291120058601e-03,-7.089322179141198665e-01,8.960142041801476276e-03
9.840000000000000000e+09,1.046626446571439183e-02,-3.548479232775103662e-03,-7.092468815652934744e-01,8.688948008433889161e-03
9.920000000000000000e+09,1.014712101770477715e-02,-5.497986473077084296e-03,-7.095872306113747419e-01,8.450813680637143596e-03
1.000000000000000000e+10,9.416792220641515693e-03,-7.445922028731715575e-03,-7.099497475594576112e-01,8.247656802577786259e-03
1.008000000000000000e+10,8.261265680083462043e-03,-9.296100689142852008e-03,-7.103308283075233653e-01,8.080974092432897590e-03
1.016000000000000000e+10,6.690889567122246945e-03,-1.094506896910474661e-02,-7.107268391362769888e-01,7.951859394990535429e-03
1.024000000000000000e+10,4.743481680784012409e-03,-1.228884988880092101e-02,-7.111341654478963159e-01,7.861030318381629842e-03
1.032000000000000000e+10,2.485422709814015443e-03,-1.323096884026583528e-02,-7.115492512196573971e-01,7.808860896638681638e-03
1.040000000000000000e+10,1.019083295271394629e-05,-1.369109557634592099e-02,-7.119686287544528813e-01,7.795417869185226195e-03
1.048000000000000000e+10,-2.565962832936350291e-03,-1.361340013223487008e-02,-7.123889389200986910e-01,7.820498328630871160e-03
1.056000000000000000e+10,-5.111146018501520200e-03,-1.297358204027151962e-02,-7.128069423572641616e-01,7.883666818906750681e-03
1.064000000000000000e+10,-7.487296570459420209e-03,-1.178354874129318962e-02,-7.132195225807528294e-01,7.984290363544654240e-03
1.072000000000000000e+10,-9.561121205600391429e-03,-1.009291633205344416e-02,-7.136236817549262978e-01,8.121570172254769307e-03
1.080000000000000000e+10,-1.121532346897537863e-02,-7.986874114868326366e-03,-7.140165300645860968e-01,8.294569086849475428e-03
1.088000000000000000e+10,-1.235880975282432209e-02,-5.580436161560143118e-03,-7.143952693632703577e-01,8.502233980884916359e-03
1.096000000000000000e+10,-1.293464252341120814e-02,-3.009610122325661555e-03,-7.147571717246314904e-01,8.743412298608116417e-03
1.104000000000000000e+10,-1.292479529547709872e-02,-4.204451957301616016e-04,-7.150995533827739781e-01,9.016861767058093405e-03
1.112000000000000191e+10,-1.235119726362784304e-02,2.042805213184003838e-03,-7.154197446013097483e-01,9.321252086740434636e-03
1.120000000000000000e+10,-1.127304989222736864e-02,4.249099268340307545e-03,-7.157150561746912221e-01,9.655157042351838331e-03
1.128000000000000000e+10,-9.780858321010093420e-03,6.090420804965000073e-03,-7.159827436705045178e-01,1.001703512233864841e-02
1.135999999999999809e+10,-7.987973077200723887e-03,7.489092100789471532e-03,-7.162199710708443412e-01,1.040519635861194420e-02
1.143999999999999809e+10,-6.020640010492455708e-03,8.402050149035089274e-03,-7.164237764156580202e-01,1.081775280653722755e-02
1.152000000000000000e+10,-4.007605143871358425e-03,8.821929761844668136e-03,-7.165910432286024534e-01,1.125255000447318923e-02
1.160000000000000000e+10,-2.070240724525461429e-03,8.775130198511817137e-03,-7.167184830766717418e-01,1.170707682448997138e-02
1.168000000000000191e+10,-3.139908955217304409e-04,8.317297351452233173e-03,-7.168026367040787328e-01,1.217835188416149794e-02
1.176000000000000000e+10,1.178276657301512501e-03,7.526818827483917548e-03,-7.168399035927918161e-01,1.266278602492226617e-02
1.184000000000000000e+10,2.354854611863664744e-03,6.452035841004603693e-03,-7.166707046358643529e-01,1.315861538999064419e-02
1.191999999999999809e+10,2.920780080657190986e-03,5.332121535978092200e-03,-7.167591487337457989e-01,1.365276643219584356e-02
1.200000000000000000e+10,3.655995130933842752e-03,4.116906524530901390e-03,-7.166341538187326332e-01,1.414660264227780330e-02
1.208000000000000000e+10,3.561213639953999654e-03,2.865062342295669924e-03,-7.164806115049540125e-01,1.466870026952781479e-02
1.216000000000000000e+10,3.708259212737369595e-03,1.908961862038047966e-03,-7.162012658998672121e-01,1.509345871425502028e-02
1.224000000000000191e+10,3.391253937493962992e-03,1.036585076720741763e-03,-7.158910648537004651e-01,1.552702873606258763e-02
1.232000000000000000e+10,2.972268197378269243e-03,-2.873172124169289226e-04,-7.155197886353937831e-01,1.591898014324812094e-02
1.239999999999999809e+10,2.407208285822060988e-03,-1.289308543719290805e-04,-7.150895023277167306e-01,1.631495243528409411e-02
1.247999999999999809e+10,1.933044837367380161e-03,-3.662109928287756323e-04,-7.144587765673007240e-01,1.642686617569661181e-02
1.256000000000000000e+10,1.370608602152477559e-03,-5.016996934052336040e-04,-7.139927954054282599e-01,1.656291266940163043e-02
1.264000000000000000e+10,9.955394543291026972e-04,-4.714047116852554615e-04,-7.135568825868224829e-01,1.682847065301075473e-02
1.272000000000000000e+10,6.813839800295868124e-04,-3.830896281470156078e-04,-7.130092043828816228e-01,1.684132954344824684e-02
1.280000000000000191e+10,4.588542990113629464e-04,-2.568265632828939447e-04,-7.124738103618682983e-01,1.675926498768339629e-02
1.288000000000000000e+10,3.153600006673690356e-04,-1.238404356710629266e-04,-7.119703396860971312e-01,1.658601595668138945e-02
1.295999999999999809e+10,2.317711487148010267e-04,-4.347661722596237246e-06,-7.115169576831850140e-01,1.633061315785834869e-02
1.303999999999999809e+10,1.876998451192993234e-04,9.233369315554982920e-05,-7.111285678245380382e-01,1.600664736153892612e-02
1.312000000000000000e+10,1.655878430517021506e-04,1.656215141988644961e-04,-7.108154462139888441e-01,1.563084439328372641e-02
1.320000000000000000e+10,1.529689283532743166e-04,2.204690416747959853e-04,-7.105825798525151615e-01,1.522121367761953246e-02
1.328000000000000000e+10,1.429563330887312301e-04,2.641991687921539287e-04,-7.104298138945587260e-01,1.479514111542612129e-02
1.335999999999999809e+10,1.335311902448787082e-04,3.040945103189457172e-04,-7.103527165794024656e-01,1.436778562850567209e-02
1.344000000000000000e+10,1.263650873304489981e-04,3.459179895941632893e-04,-7.103439233455284274e-01,1.395103011278261973e-02
1.351999999999999809e+10,1.256888626051677355e-04,3.930890987241216546e-04,-7.103946616664983393e-01,1.355308653429021862e-02
1.359999999999999809e+10,1.373028153877355289e-04,4.460969494186100203e-04,-7.104961779127215715e-01,1.317871715330326196e-02
1.368000000000000000e+10,1.674679029730362693e-04,5.019254008854354869e-04,-7.106408535517839686e-01,1.282993936154327129e-02
1.376000000000000000e+10,2.213366645330991042e-04,5.536611539357858816e-04,-7.108228771693104742e-01,1.250703053924475186e-02
1.384000000000000000e+10,3.055550011372140185e-04,5.847394498339761933e-04,-7.111844735593296774e-01,1.201036301303985525e-02
1.392000000000000000e+10,4.025811389396645153e-04,6.008521415969425312e-04,-7.112853118137527630e-01,1.193769820521897208e-02
1.400000000000000000e+10,5.163607469782875974e-04,5.722952413134707334e-04,-7.115624047732456159e-01,1.169222726904728046e-02
1.407999999999999809e+10,6.258502545994779542e-04,4.984626990924118616e-04,-7.118686873878817822e-01,1.147543405496757353e-02
1.415999999999999809e+10,7.113784209083480296e-04,3.808814050006043570e-04,-7.122025185654177193e-01,1.129056212303430028e-02
1.424000000000000000e+10,7.546101015773387308e-04,2.306793637009138054e-04,-7.125611176540038727e-01,1.114132457032054185e-02
1.432000000000000000e+10,7.435522801750886132e-04,6.713726481872282249e-05,-7.129404466542849095e-01,1.103122999445259843e-02
1.440000000000000000e+10,6.761251991244750150e-04,-8.638170442205937802e-05,-7.133354487991708792e-01,1.096301478727347047e-02
1.448000000000000000e+10,5.610376310727780346e-04,-2.078399287020597807e-04,-7.137404963342797171e-01,1.093833497342405064e-02
1.456000000000000000e+10,4.157399175200291223e-04,-2.815418186673038226e-04,-7.141498591239299198e-01,1.095775263997653820e-02
1.463999999999999809e+10,2.622318013807466782e-04,-3.013129405246477784e-04,-7.145580386702319320e-01,1.102094719510415301e-02
1.471999999999999809e+10,1.220605378524281567e-04,-2.711416527536097618e-04,-7.149598853053931169e-01,1.112702404968510944e-02
1.480000000000000000e+10,1.187154333499480254e-05,-2.033914931614866958e-04,-7.153504931014323942e-01,1.127478232362320865e-02
1.488000000000000000e+10,-5.947464294736373182e-05,-1.152895813207391860e-04,-7.157249295457890348e-01,1.146282233489283146e-02
1.496000000000000191e+10,-9.171183594909563413e-05,-2.470026116345660784e-05,-7.160779085114954423e-01,1.168940256552560876e-02
1.504000000000000191e+10,-9.191508425149283001e-05,5.375527151360594665e-05,-7.164035664672134818e-01,1.195200952150623185e-02
1.511999999999999809e+10,-7.166706299454649943e-05,1.113169814081341788e-04,-7.166955434990305296e-01,1.224669211919615988e-02
1.519999999999999809e+10,-4.351906975728288453e-05,1.458598404893530565e-04,-7.169475601689035971e-01,1.256736118586971804e-02
1.527999999999999809e+10,-1.783622191762424740e-05,1.607819491073719635e-04,-7.171545430272521227e-01,1.290541970773204788e-02
1.536000000000000000e+10,-9.815499668943143598e-07,1.626277332584534540e-04,-7.173140533140722752e-01,1.325014081700778834e-02
1.544000000000000000e+10,4.816082668632047257e-06,1.585485539925791877e-04,-7.174274391909712945e-01,1.358998180263137380e-02
1.552000000000000191e+10,4.042054249108920994e-07,1.546038323552188852e-04,-7.175000559998301330e-01,1.391451816104828654e-02
1.560000000000000191e+10,-1.156540530940936842e-05,1.551840241107795861e-04,-7.175402892719623393e-01,1.421622646161617085e-02
1.567999999999999809e+10,-2.742948829228854517e-05,1.630405152396249293e-04,-7.175577692842718402e-01,1.449135747580603678e-02
1.575999999999999809e+10,-4.289323625321136827e-05,1.792369066161786590e-04,-7.175615712321582462e-01,1.473966117094505958e-02
1.583999999999999809e+10,-5.353152847089914833e-05,2.028401632460720991e-04,-7.175590611280173725e-01,1.496332486433291260e-02
1.592000000000000000e+10,-5.758933413577507245e-05,2.334562113849557047e-04,-7.175319207888030126e-01,1.495880148040229334e-02
