# Frequency, Real(S21), Imag(S21), Real(S11), Imag(S11)
4.000000000000000000e+09,3.793166776779836603e-05,1.405030602221274893e-04,-7.188499053543297990e-01,6.802506728134810089e-03
4.080000000000000000e+09,2.196559582849407593e-06,1.453682834006294559e-04,-7.187430602321311923e-01,6.950173518836776088e-03
4.160000000000000477e+09,2.087644288194396459e-06,1.463733110008796608e-04,-7.187535842178189860e-01,7.109359075075362584e-03
4.240000000000000000e+09,1.140363997715720681e-06,1.459018303440450795e-04,-7.187035066793628912e-01,7.267580817106200457e-03
4.320000000000000000e+09,3.532799279812915209e-06,1.445528127791309125e-04,-7.187266636736631131e-01,7.430023239951431997e-03
4.400000000000000000e+09,3.764001892869406862e-06,1.428628958088371047e-04,-7.187205135188575733e-01,7.593933467426530401e-03
4.480000000000000000e+09,2.990605515984437869e-05,1.417945612522270038e-04,-7.187287850912009723e-01,7.761292231953342315e-03
4.560000000000000000e+09,3.824338363690609992e-06,1.409353976601247641e-04,-7.187069793083896707e-01,7.928378053196849518e-03
4.640000000000000000e+09,3.710768499029672711e-06,1.415323166030897325e-04,-7.186995076738528221e-01,8.099208375573933166e-03
4.720000000000000000e+09,3.503381279864578125e-06,1.434283537704398323e-04,-7.187049894268544570e-01,8.274069851753343419e-03
4.800000000000000000e+09,3.442065855457487533e-06,1.464246158801212408e-04,-7.186828806242295808e-01,8.449001472731611923e-03
4.880000000000000000e+09,3.420697053005190117e-06,1.504486875236689847e-04,-7.186854142013232583e-01,8.629835482176873712e-03
4.960000000000000000e+09,3.420837885982002594e-06,1.550026725820840526e-04,-7.186635209745545483e-01,8.811180720812362976e-03
5.040000000000000000e+09,3.563230649370220039e-06,1.598838277253514901e-04,-7.186525779653485380e-01,8.997616298077203492e-03
5.120000000000000000e+09,3.804751193490396355e-06,1.647355232436379800e-04,-7.186406240094859177e-01,9.188067960074930429e-03
5.200000000000000000e+09,4.125547326274585716e-06,1.693164313337974856e-04,-7.186274950463219513e-01,9.382934864391062960e-03
5.280000000000000000e+09,4.497995529698146734e-06,1.734711121405175410e-04,-7.186129847404141291e-01,9.582674942475683660e-03
5.360000000000000000e+09,4.892409148916726493e-06,1.771292283245331535e-04,-7.185968285551966872e-01,9.787816640410066521e-03
5.440000000000000000e+09,5.281692446030235365e-06,1.802913410637443437e-04,-7.185786795476832856e-01,9.998973257815936544e-03
5.520000000000000000e+09,5.644182871169159586e-06,1.830069243178520104e-04,-7.185580704057696888e-01,1.021685897555147868e-02
5.600000000000000000e+09,5.964562501454427096e-06,1.853500838300594907e-04,-7.185343522747943412e-01,1.044230226706747457e-02
5.680000000000000000e+09,6.233143480421368238e-06,1.873973921822026558e-04,-7.185065956894927108e-01,1.067624214677216458e-02
5.760000000000000000e+09,6.444218401961684157e-06,1.892106164693857788e-04,-7.184734405810258018e-01,1.091966553279606622e-02
5.840000000000000954e+09,6.594254659587223031e-06,1.908253557318741775e-04,-7.184329302411798235e-01,1.117339752799937497e-02
5.920000000000000000e+09,6.680574564267810315e-06,1.922448499071225964e-04,-7.183825168979489639e-01,1.143769034614137460e-02
6.000000000000000000e+09,6.700378353100397945e-06,1.934368336934018937e-04,-7.183194648934245752e-01,1.171187004381406445e-02
6.080000000000000000e+09,6.648679486706488043e-06,1.943310316767163782e-04,-7.182413934248202958e-01,1.199444088731730154e-02
6.160000000000000000e+09,6.512874210909643271e-06,1.948161319404589106e-04,-7.181464932918142363e-01,1.228347356298527954e-02
6.239999999999999046e+09,6.262315357479822004e-06,1.947366539348931473e-04,-7.180334612890788559e-01,1.257689056554660983e-02
6.320000000000000000e+09,5.832262342219370548e-06,1.938908388801130814e-04,-7.179013792346911060e-01,1.287258969829239812e-02
6.400000000000000954e+09,5.102303776131947809e-06,1.920311901680315549e-04,-7.177496230218061157e-01,1.316848473559388034e-02
6.480000000000000000e+09,3.869955679794374664e-06,1.888697187504430981e-04,-7.175778048766202621e-01,1.346251577821639366e-02
6.560000000000000000e+09,1.820823403644793539e-06,1.840903417933925331e-04,-7.173857376238534922e-01,1.375265024163480933e-02
6.640000000000000000e+09,-1.502515171700248586e-06,1.773709223125463142e-04,-7.171734122736987960e-01,1.403688164790727402e-02
6.720000000000000000e+09,-6.729955874469213651e-06,1.684170925069868768e-04,-7.169409837466492741e-01,1.431322842831716548e-02
6.799999999999999046e+09,-1.468798765807356114e-05,1.570093874651002611e-04,-7.166887618703046137e-01,1.457973335918268804e-02
6.880000000000000000e+09,-2.641421995631677280e-05,1.430638657805165562e-04,-7.164172060511435625e-01,1.483446379040479976e-02
6.960000000000000954e+09,-4.315769158923723364e-05,1.267053949470837591e-04,-7.161269227599328380e-01,1.507551274266819355e-02
7.039999999999999046e+09,-6.636022145032539790e-05,1.083506987691082273e-04,-7.158186653139662070e-01,1.530100102660976458e-02
7.120000000000000000e+09,-9.761435711142372909e-05,8.879708982922342956e-05,-7.154933356231865105e-01,1.550908057840004808e-02
7.200000000000000000e+09,-1.385941149284591867e-04,6.931088211564864548e-05,-7.151519876121147368e-01,1.569793932960316177e-02
7.280000000000000000e+09,-1.909559862408972486e-04,5.170793453197007725e-05,-7.147958320436785806e-01,1.586580791670399657e-02
7.359999999999999046e+09,-2.514513136327136333e-04,3.270008147111764856e-05,-7.143009267713772426e-01,1.638752736421850500e-02
7.440000000000000000e+09,-3.355555223414100020e-04,3.252837500534604175e-05,-7.140447611275709816e-01,1.613176669803940283e-02
7.520000000000000000e+09,-4.297045097473835631e-04,3.778239633189046844e-05,-7.136531065813921382e-01,1.622662492306812046e-02
7.599999999999999046e+09,-5.386659947022337958e-04,5.855025956704037419e-05,-7.132531786049252087e-01,1.629406072451347956e-02
7.680000000000000000e+09,-7.141992710536836184e-04,-3.010190663656284052e-04,-7.128470634711113751e-01,1.633270688891064540e-02
7.760000000000000954e+09,-7.962625108762287456e-04,1.666420272201396026e-04,-7.124370365401568872e-01,1.634133536560731376e-02
7.840000000000000000e+09,-9.394732483919347558e-04,2.647450338507271669e-04,-7.120255620663821228e-01,1.631888416254089619e-02
7.919999999999999046e+09,-1.086268819366039686e-03,3.994421789941080166e-04,-7.116152891934722780e-01,1.626448701270560154e-02
8.000000000000000000e+09,-1.230111111555178818e-03,5.757081686130930765e-04,-7.112090432775731719e-01,1.617750532527452087e-02
8.080000000000000000e+09,-1.362757560276710907e-03,7.977041149948717975e-04,-7.108098116180443515e-01,1.605756158171946224e-02
8.159999999999999046e+09,-1.474282057069514415e-03,1.068334865657285431e-03,-7.104207228607331004e-01,1.590457328408257515e-02
8.240000000000000000e+09,-1.553196284922249166e-03,1.388770145995696977e-03,-7.100450194199233733e-01,1.571878617007660406e-02
8.320000000000000954e+09,-1.586686754135357806e-03,1.757947978277534656e-03,-7.096860225188573734e-01,1.550080526662223242e-02
8.400000000000000000e+09,-1.560979701096944054e-03,2.172083925750712633e-03,-7.093470897548340703e-01,1.525162212142162563e-02
8.480000000000000000e+09,-1.461842121658460739e-03,2.624214713632908123e-03,-7.090315654261128975e-01,1.497263642480410085e-02
8.560000000000000000e+09,-1.275222158051657817e-03,3.103809375243249576e-03,-7.087427243476575045e-01,1.466567020736139759e-02
8.640000000000000000e+09,-9.880259640045188033e-04,3.596485202641155551e-03,-7.084837103345206222e-01,1.433297283402417722e-02
8.720000000000000000e+09,-5.890209031694292139e-04,4.083869047196948994e-03,-7.082574710343652047e-01,1.397721523160622148e-02
8.800000000000000000e+09,-6.984617906933884694e-05,4.543646686661632211e-03,-7.080666912595222628e-01,1.360147209741079458e-02
8.880000000000000000e+09,5.738982126397531225e-04,4.949843716168476730e-03,-7.079137273695098598e-01,1.320919141941951508e-02
8.959999999999998093e+09,1.341525510865754743e-03,5.273380030348595419e-03,-7.078005455600867579e-01,1.280415110652564567e-02
9.040000000000000000e+09,2.226154557568969447e-03,5.482935686619363341e-03,-7.077286669660406426e-01,1.239040345227162415e-02
9.120000000000000000e+09,3.213691725135759455e-03,5.546157930451423718e-03,-7.076991224480684295e-01,1.197220870254491094e-02
9.200000000000000000e+09,4.281990793190763346e-03,5.431225762677138920e-03,-7.077124195601062207e-01,1.155395995321086174e-02
9.280000000000000000e+09,5.400296344689805954e-03,5.108768471245546568e-03,-7.077685236889110776e-01,1.114010211790993597e-02
9.360000000000000000e+09,6.529091341543656092e-03,4.554106422584617078e-03,-7.078668546180939547e-01,1.073504824794961447e-02
9.440000000000000000e+09,7.620479497115201749e-03,3.749745770317473512e-03,-7.080062988835645887e-01,1.034309680665739493e-02
9.520000000000000000e+09,8.619233447541767984e-03,2.688010802560908147e-03,-7.081852373642206766e-01,9.968353437825646507e-03
9.600000000000000000e+09,9.464625369979079439e-03,1.373645619177182127e-03,-7.084015866914802340e-01,9.614660581757483032e-03
9.680000000000000000e+09,1.009312184606806460e-02,-1.738433984638152699e-04,-7.086528521485236931e-01,9.285537729681913807e-03
9.760000000000000000e+09,1.044196379827625615e-02,-1.918386883367660927e-03,-7.089361892159156131e-01,8.984134527178467070e-03
9.840000000000000000e+09,1.050074413143123678e-02,-4.142750414069204870e-03,-7.092484705006623091e-01,8.713197851900784940e-03
9.920000000000000000e+09,1.008052298706702682e-02,-5.767146622366349333e-03,-7.095863545653227078e-01,8.475053385704488934e-03
1.000000000000000000e+10,9.107844916284895537e-03,-7.681319307339373390e-03,-7.099463534600206627e-01,8.271601069193643824e-03
1.008000000000000000e+10,8.073694399628312396e-03,-9.549863341701405467e-03,-7.103248959335448642e-01,8.104323205711676942e-03
1.016000000000000000e+10,6.442538126223510200e-03,-1.116899391613108972e-02,-7.107183839900372835e-01,7.974303295357110591e-03
1.024000000000000000e+10,4.439319077255874171e-03,-1.246742750976398417e-02,-7.111232410243011337e-01,7.882253279969940116e-03
1.032000000000000000e+10,2.134660010399671171e-03,-1.334949202616384986e-02,-7.115359504861916706e-01,7.828546715079879453e-03
1.040000000000000000e+10,-3.738218225009272682e-04,-1.373690523972995875e-02,-7.119530847143439312e-01,7.813255372866242943e-03
1.048000000000000000e+10,-2.966232676268562487e-03,-1.357713113898092322e-02,-7.123713241181007794e-01,7.836186988437838716e-03
1.056000000000000000e+10,-5.507935619995999246e-03,-1.285027540856661932e-02,-7.127874673667269345e-01,7.896922207891812068e-03
1.064000000000000000e+10,-7.859381626055348541e-03,-1.157349157061171932e-02,-7.131984334310342843e-01,7.994849132301034764e-03
1.072000000000000000e+10,-9.887315428988402780e-03,-9.802086622276513089e-03,-7.136012565074643099e-01,8.129194313730568611e-03
1.080000000000000000e+10,-1.147613402781813910e-02,-7.626903671155956313e-03,-7.139930747660073740e-01,8.299049249350050339e-03
1.088000000000000000e+10,-1.253805841340465549e-02,-5.168056582778891850e-03,-7.143711136517115756e-01,8.503391653566221009e-03
1.096000000000000000e+10,-1.302088128498353828e-02,-2.565607390023554382e-03,-7.147326644699614207e-01,8.741100841603472588e-03
1.104000000000000000e+10,-1.291236213444194036e-02,3.179253483699521782e-05,-7.150750587152453486e-01,9.010966335477170810e-03
1.112000000000000191e+10,-1.224079523956137297e-02,2.479013143381038342e-03,-7.153956386690756286e-01,9.311688603452359519e-03
1.120000000000000000e+10,-1.107178514841763647e-02,4.645970230354123931e-03,-7.156917249303855755e-01,9.641870499125468688e-03
1.128000000000000000e+10,-9.501730904822380114e-03,6.427373846119361321e-03,-7.159605818909868802e-01,9.999997521912952145e-03
1.135999999999999809e+10,-7.648870592761662993e-03,7.749811072570104119e-03,-7.161993827709165483e-01,1.038440471449859730e-02
1.143999999999999809e+10,-5.642931391898718674e-03,8.575655974566498418e-03,-7.164051766827927992e-01,1.079322760974175434e-02
1.152000000000000000e+10,-3.614465641058943208e-03,8.903688854275828776e-03,-7.165748614623306256e-01,1.122433464721530293e-02
1.160000000000000000e+10,-1.684858274053073002e-03,8.766647120582992184e-03,-7.167051675076251405e-01,1.167523842338270487e-02
1.168000000000000191e+10,4.219133366614377656e-05,8.226185513128014479e-03,-7.167926599776666130e-01,1.214298406318532753e-02
1.176000000000000000e+10,1.487134407245440694e-03,7.365886526385926475e-03,-7.168337690979493804e-01,1.262401419189972986e-02
1.184000000000000000e+10,2.598635685330960565e-03,6.283039907146259831e-03,-7.168248610097631701e-01,1.311401293386423549e-02
1.191999999999999809e+10,3.355096130851541528e-03,5.079922539704621876e-03,-7.167623642335692047e-01,1.360773567524376469e-02
1.200000000000000000e+10,3.519397568785144915e-03,3.860389705901087244e-03,-7.166429685373314484e-01,1.409883822563940542e-02
1.208000000000000000e+10,3.857046149245031523e-03,2.696654773612233887e-03,-7.164639124029340556e-01,1.457972854262475949e-02
1.216000000000000000e+10,3.688120453395453153e-03,1.674134935189804585e-03,-7.162233705598134437e-01,1.504147621283025496e-02
1.224000000000000191e+10,3.323377165464967004e-03,8.360137234814915465e-04,-7.159209413623738305e-01,1.547382803803203956e-02
1.232000000000000000e+10,2.873524314448590560e-03,-4.430108020693586043e-04,-7.155582126713339042e-01,1.586538892387688235e-02
1.239999999999999809e+10,2.341524192254048394e-03,-2.411592105255419994e-04,-7.150676516889464818e-01,1.609741708713563826e-02
1.247999999999999809e+10,1.762086303260378562e-03,-4.414635062535211037e-04,-7.146716369082871667e-01,1.647756911153856405e-02
1.256000000000000000e+10,1.196044713432576744e-03,-5.406259070516327868e-04,-7.141657683793536382e-01,1.667473846836390466e-02
1.264000000000000000e+10,8.951222061507866940e-04,-4.744977080464675336e-04,-7.136358576103950524e-01,1.678636820081074593e-02
1.272000000000000000e+10,6.010943075554788483e-04,-3.663895300130028923e-04,-7.130989082267372714e-01,1.680664901659532570e-02
1.280000000000000191e+10,3.994105993518738489e-04,-2.294178558470139615e-04,-7.125737581632795026e-01,1.673423555989911327e-02
1.288000000000000000e+10,2.745508425120843279e-04,-9.321126075892091113e-05,-7.120795382122216965e-01,1.657292137905005611e-02
1.295999999999999809e+10,2.055499010226119830e-04,2.435715526263973777e-05,-7.116338644167724548e-01,1.633165383360878770e-02
1.303999999999999809e+10,1.713820490576294390e-04,1.165108137009663691e-04,-7.112510968590011196e-01,1.602378812299574615e-02
1.312000000000000000e+10,1.549058702623680233e-04,1.849130830830110483e-04,-7.109410237436519786e-01,1.566566788365687107e-02
1.320000000000000000e+10,1.448137303160164943e-04,2.361262451518473583e-04,-7.107082420646010368e-01,1.527479784587123211e-02
1.328000000000000000e+10,1.357426610838678531e-04,2.782955079935877513e-04,-7.105523328154164098e-01,1.486797267530640468e-02
1.335999999999999809e+10,1.272151737804181368e-04,3.187528421707820051e-04,-7.104687374804350419e-01,1.445971210892826007e-02
1.344000000000000000e+10,1.221899477740359620e-04,3.626550732199660364e-04,-7.104501010498418534e-01,1.406124536296013416e-02
1.351999999999999809e+10,1.257349322390325915e-04,4.123279602825736037e-04,-7.104877899657654483e-01,1.368014130532136351e-02
1.359999999999999809e+10,1.438953418922243876e-04,4.668761810685440224e-04,-7.105733128911236873e-01,1.332054824525586920e-02
1.368000000000000000e+10,1.824859402684050999e-04,5.218465164120801624e-04,-7.106994347401143219e-01,1.298391642881696964e-02
1.376000000000000000e+10,2.454933269907519150e-04,5.691354461902849333e-04,-7.108608484034194541e-01,1.267002607569941118e-02
1.384000000000000000e+10,3.330801755185656943e-04,5.976497514270887480e-04,-7.110543415712101689e-01,1.237811728521545813e-02
1.392000000000000000e+10,4.397019152593162773e-04,5.952112061131755762e-04,-7.112784727907812687e-01,1.210790824697113334e-02
1.400000000000000000e+10,5.532690139978218950e-04,5.517336790973146211e-04,-7.115328597695402824e-01,1.186030203388362125e-02
1.407999999999999809e+10,6.562665744601862017e-04,4.629445991252799505e-04,-7.118172726017736318e-01,1.163764206610586396e-02
1.415999999999999809e+10,7.291136187562232166e-04,3.332905637810544769e-04,-7.121307805388139567e-01,1.144348912014165123e-02
1.424000000000000000e+10,7.550266094626973280e-04,1.766263491545295473e-04,-7.124711822451157417e-01,1.128203224663517842e-02
1.432000000000000000e+10,7.247996537231211379e-04,1.400989309439975216e-05,-7.128348461812461512e-01,1.115735326319340637e-02
1.440000000000000000e+10,6.397614663977986126e-04,-1.309088387367127334e-04,-7.132169394305365451e-01,1.107278663658327160e-02
1.448000000000000000e+10,5.118325858667259433e-04,-2.374376522509910213e-04,-7.136118982867175609e-01,1.103054536531563115e-02
1.456000000000000000e+10,3.607067597349740678e-04,-2.925614305850763219e-04,-7.140139437580304005e-01,1.103166189381630906e-02
1.463999999999999809e+10,2.091484638519910890e-04,-2.934875727251026853e-04,-7.144174736077790744e-01,1.107618115972166563e-02
1.471999999999999809e+10,7.786134489925526582e-05,-2.475043695153354923e-04,-7.148172361391548213e-01,1.116347849355588465e-02
1.480000000000000000e+10,-1.870596246087149008e-05,-1.694627448682627167e-04,-7.152082702622643007e-01,1.129256049266347608e-02
1.488000000000000000e+10,-7.468314136626632519e-05,-7.775475389727921384e-05,-7.155856611788324884e-01,1.146222315171181207e-02
1.496000000000000191e+10,-9.286549628795010697e-05,1.009314165019236211e-05,-7.159442134344375930e-01,1.167097230501746782e-02
1.504000000000000191e+10,-8.274687885472576689e-05,8.111265764065549318e-05,-7.162781931482975484e-01,1.191665855236441994e-02
1.511999999999999809e+10,-5.716161281868855959e-05,1.289978079335224372e-04,-7.165813346867918598e-01,1.219586257924097465e-02
1.519999999999999809e+10,-2.856114521754255344e-05,1.541730202675463922e-04,-7.168473049399322061e-01,1.250320467528398712e-02
1.527999999999999809e+10,-6.081001550061075948e-06,1.620005958877329905e-04,-7.170707009799774934e-01,1.283091367008757852e-02
1.536000000000000000e+10,5.733405614617462730e-06,1.599847379577267511e-04,-7.172483860568914515e-01,1.316905729103420332e-02
1.544000000000000000e+10,6.427554570013891593e-06,1.552106711157223479e-04,-7.173806474550489254e-01,1.350664998580304588e-02
1.552000000000000191e+10,-1.872778295591398219e-06,1.529622279000342970e-04,-7.174715541839011834e-01,1.383340039965140836e-02
1.560000000000000191e+10,-1.587058866092181503e-05,1.565712472007466235e-04,-7.175282124099682246e-01,1.414141799579991116e-02
1.567999999999999809e+10,-3.178759627042580154e-05,1.677624321349955499e-04,-7.175592099150587266e-01,1.442615804932875605e-02
1.575999999999999809e+10,-4.558007195784904281e-05,1.867409037645359374e-04,-7.175729507944830221e-01,1.468632097347790169e-02
1.583999999999999809e+10,-5.333519370016356475e-05,2.119265328260869934e-04,-7.175765133701618170e-01,1.492297597903406194e-02
1.592000000000000000e+10,-1.490860527283362528e-04,2.618821287545183970e-04,-7.175752647314868060e-01,1.513845044213573722e-02
