# Frequency, Real(S21), Imag(S21), Real(S11), Imag(S11)
4.000000000000000000e+09,3.695457634789008685e-05,1.409020517803138560e-04,-7.188140843660885126e-01,6.799191713609206884e-03
4.080000000000000000e+09,2.360751170125116106e-06,1.455501785197160867e-04,-7.187358296492670773e-01,6.955808551013751076e-03
4.160000000000000477e+09,2.344120015080100522e-06,1.466633494402770903e-04,-7.187453310438947085e-01,7.121474092724565039e-03
4.240000000000000000e+09,3.519598319753718379e-06,1.463357375701332386e-04,-7.187229877961913704e-01,7.287267041368185837e-03
4.320000000000000000e+09,3.967520947788937910e-06,1.450675104372843441e-04,-7.187158254231220678e-01,7.457114951864273096e-03
4.400000000000000000e+09,3.772285483779383217e-06,1.434878505874276713e-04,-7.187226458329138978e-01,7.631361141248832643e-03
4.480000000000000000e+09,4.412861658382119607e-06,1.422145189168290392e-04,-7.186996981069477819e-01,7.806076107765290081e-03
4.560000000000000000e+09,4.197844678740214823e-06,1.417808262860927580e-04,-7.187036157269310888e-01,7.987164001401281591e-03
4.640000000000000000e+09,4.327203326333911655e-06,1.424352017316289610e-04,-7.186805874349290191e-01,8.169183605837543327e-03
4.720000000000000000e+09,4.197741865702457330e-06,1.443574755613493202e-04,-7.186696235972984681e-01,8.356888712677389142e-03
4.800000000000000000e+09,4.088765907265781813e-06,1.474352228118480331e-04,-7.186575107233456050e-01,8.549262109497803366e-03
4.880000000000000000e+09,4.174630906243365170e-06,1.514757209614376134e-04,-7.186517609123534989e-01,8.748283433561383771e-03
4.960000000000000000e+09,4.113469697074748289e-06,1.560102806602627090e-04,-7.186289424816816318e-01,8.950173453308377450e-03
5.040000000000000000e+09,4.289412728922156692e-06,1.608260558432945150e-04,-7.186118648568494693e-01,9.160039728118600164e-03
5.120000000000000000e+09,4.566971216150703515e-06,1.655513424698203259e-04,-7.185923287083862965e-01,9.377276826545858160e-03
5.200000000000000000e+09,4.918156234849562226e-06,1.699259112733836536e-04,-7.185696651057410511e-01,9.602909229766554491e-03
5.280000000000000000e+09,5.303929103672544540e-06,1.737709516670675090e-04,-7.185429016325206586e-01,9.838155483049516523e-03
5.360000000000000000e+09,5.680684479694995415e-06,1.769878792847477461e-04,-7.185105671901891311e-01,1.008441800980458374e-02
5.440000000000000000e+09,6.006015863346038600e-06,1.795432743887326538e-04,-7.184703869042537994e-01,1.034312716468513763e-02
5.520000000000000000e+09,6.243174758298804339e-06,1.814445656028653851e-04,-7.184190069118143729e-01,1.061521772875565102e-02
5.600000000000000000e+09,6.363692709077710478e-06,1.827098680939179319e-04,-7.183522954281073014e-01,1.090028028559686737e-02
5.680000000000000000e+09,6.345584575765901081e-06,1.833337971527451682e-04,-7.182663870197921741e-01,1.119628206839748223e-02
5.760000000000000000e+09,6.161852673404309140e-06,1.832523353068541002e-04,-7.181584073621309905e-01,1.150021237670999404e-02
5.840000000000000954e+09,5.754932349018088475e-06,1.823131675179725305e-04,-7.180264511007847794e-01,1.180874862606365143e-02
5.920000000000000000e+09,4.996441816782091138e-06,1.802586385174267112e-04,-7.178693338229693577e-01,1.211854956023467912e-02
6.000000000000000000e+09,3.634308202277805610e-06,1.767271806570371040e-04,-7.176864011485788453e-01,1.242634085318092621e-02
6.080000000000000000e+09,1.231267040789812744e-06,1.712779902549262968e-04,-7.174774137167396759e-01,1.272893209467387821e-02
6.160000000000000000e+09,-2.899303775216651715e-06,1.634429263920071846e-04,-7.172424798871089857e-01,1.302321609973192823e-02
6.239999999999999046e+09,-9.751947617905526509e-06,1.528082501848840855e-04,-7.169820156199736561e-01,1.330616553388020741e-02
6.320000000000000000e+09,-2.067167498592958224e-05,1.391269732515702058e-04,-7.166967203020694344e-01,1.357483081237623006e-02
6.400000000000000954e+09,-3.736835734166306724e-05,1.224596888925444100e-04,-7.163875626207205638e-01,1.382634017960081112e-02
6.480000000000000000e+09,-6.189003006703096949e-05,1.033377118286789715e-04,-7.160557734027755972e-01,1.405790225140958298e-02
6.560000000000000000e+09,-9.654294340258459325e-05,8.294129095266807700e-05,-7.157028436453367615e-01,1.426681129831527776e-02
6.640000000000000000e+09,-1.437472226261794588e-04,6.326958442739484545e-05,-7.153305266426744913e-01,1.445045579653215367e-02
6.720000000000000000e+09,-2.058230542153498179e-04,4.729751764334433123e-05,-7.149408432736242824e-01,1.460633094465487412e-02
6.799999999999999046e+09,-2.800232330994460077e-04,2.944291452152581357e-04,-7.144991020414183103e-01,1.477039009472139175e-02
6.880000000000000000e+09,-3.815918916870376021e-04,4.380305979510281614e-05,-7.141188448353997797e-01,1.482539715494796302e-02
6.960000000000000954e+09,-4.965452612748903240e-04,6.770475394528253574e-05,-7.136919805545769435e-01,1.488429723584101284e-02
7.039999999999999046e+09,-6.280613841169609655e-04,1.179235948652999520e-04,-7.132586655057082670e-01,1.490691194550037429e-02
7.120000000000000000e+09,-7.726468244499962168e-04,2.021750360281244618e-04,-7.128223677831989624e-01,1.489165370292873554e-02
7.200000000000000000e+09,-9.244375179806075832e-04,3.282931895634744104e-04,-7.123868497315327675e-01,1.483724229341775759e-02
7.280000000000000000e+09,-1.074906026672929745e-03,5.036212747581514469e-04,-7.119561538463931027e-01,1.474276155204022436e-02
7.359999999999999046e+09,-1.212704908834231392e-03,7.342640243585864257e-04,-7.115345771351576643e-01,1.460772041295445994e-02
7.440000000000000000e+09,-1.323693761467070740e-03,1.024228656603684041e-03,-7.111266316782992591e-01,1.443211586603759637e-02
7.520000000000000000e+09,-1.391194730530740178e-03,1.374493171272670811e-03,-7.107369897081412535e-01,1.421649456023882895e-02
7.599999999999999046e+09,-1.396513947324401050e-03,1.782056666188649345e-03,-7.103704121916547543e-01,1.396200907251981052e-02
7.680000000000000000e+09,-1.319756243166064812e-03,2.239038866224128503e-03,-7.100316609961027092e-01,1.367046431375846735e-02
7.760000000000000954e+09,-1.140946924313804203e-03,2.731907837990510315e-03,-7.097253959866366424e-01,1.334434928067215753e-02
7.840000000000000000e+09,-8.414567863527097017e-04,3.240925335086504953e-03,-7.094560598238178750e-01,1.298684945470847917e-02
7.919999999999999046e+09,-4.057062369000824856e-04,3.739906516291904501e-03,-7.092277547535331683e-01,1.260183570458979843e-02
8.000000000000000000e+09,1.769017000975650232e-04,4.196395920048150846e-03,-7.090441169770826946e-01,1.219382671522920535e-02
8.080000000000000000e+09,9.099001231725049096e-04,4.572362125461373883e-03,-7.089081953572122785e-01,1.176792335023267057e-02
8.159999999999999046e+09,1.787645897685984173e-03,4.825507752018447227e-03,-7.088223417425199013e-01,1.132971548714868486e-02
8.240000000000000000e+09,2.793336098653026282e-03,4.911275473063224546e-03,-7.087881201752991300e-01,1.088516387881280703e-02
8.320000000000000954e+09,3.897360147386895110e-03,4.785600747725269818e-03,-7.088062415384650539e-01,1.044046185687560330e-02
8.400000000000000000e+09,5.056242567286485870e-03,4.408411230059992858e-03,-7.088765286659677312e-01,1.000188361642006737e-02
8.480000000000000000e+09,6.212472825332118753e-03,3.747796852433693364e-03,-7.089979149768563804e-01,9.575627145887947306e-03
8.560000000000000000e+09,7.295542812748793959e-03,2.784668398303674457e-03,-7.091684770988283537e-01,9.167660677064997168e-03
8.640000000000000000e+09,8.224502167429103422e-03,1.517586992264791622e-03,-7.093854994299386707e-01,8.783581322201864522e-03
8.720000000000000000e+09,8.912278306344001422e-03,-3.271108124420964852e-05,-7.096455660863503212e-01,8.428493593364916672e-03
8.800000000000000000e+09,9.281420871639405046e-03,-1.816136990353664406e-03,-7.100515584577546946e-01,8.112961127468322486e-03
8.880000000000000000e+09,9.224290300712919416e-03,-3.769339723974541798e-03,-7.102783569945757547e-01,7.822704030655104959e-03
8.959999999999998093e+09,8.762156375849481857e-03,-5.787426210565588432e-03,-7.106418193857730881e-01,7.579037094647071704e-03
9.040000000000000000e+09,7.687798230075649532e-03,-7.728802011073010458e-03,-7.110300594317499057e-01,7.378390941014279815e-03
9.120000000000000000e+09,6.165512501497073632e-03,-9.474861390366105113e-03,-7.114379872033523844e-01,7.222569430046681289e-03
9.200000000000000000e+09,4.185025476318302712e-03,-1.087490485853829549e-02,-7.118605244645812569e-01,7.112744329545350047e-03
9.280000000000000000e+09,1.835924403555667678e-03,-1.179546999808554417e-02,-7.122926853855451323e-01,7.049512681840012368e-03
9.360000000000000000e+09,-7.491684553734795186e-04,-1.212915073631885485e-02,-7.127296362144810438e-01,7.032963412855686852e-03
9.440000000000000000e+09,-3.403157500984440101e-03,-1.180974212716859838e-02,-7.131667340603492500e-01,7.062747464701068720e-03
9.520000000000000000e+09,-5.938857766608376249e-03,-1.082416545441985609e-02,-7.135995462151376589e-01,7.138146651303652231e-03
9.600000000000000000e+09,-8.167788611396819068e-03,-9.218760799975918296e-03,-7.140238522553461475e-01,7.258137482309996204e-03
9.680000000000000000e+09,-9.920897880075697783e-03,-7.098258688893272807e-03,-7.144356311760463596e-01,7.421447172467394819e-03
9.760000000000000000e+09,-1.106809300768849848e-02,-4.616953134812367895e-03,-7.148310357899397838e-01,7.626599916934379518e-03
9.840000000000000000e+09,-1.153345825029373009e-02,-1.963029755939068102e-03,-7.152063559667686254e-01,7.871951451548883649e-03
9.920000000000000000e+09,-1.130372696817136605e-02,6.617147266265344281e-04,-7.155579721521152514e-01,8.155710036227467249e-03
1.000000000000000000e+10,-1.042878317334687555e-02,3.063717952805701181e-03,-7.158823003989958078e-01,8.475940996496502886e-03
1.008000000000000000e+10,-9.014368404613049696e-03,5.077869987594094657e-03,-7.161757307245434356e-01,8.830551203375981706e-03
1.016000000000000000e+10,-7.208421689626161311e-03,6.583391246300725544e-03,-7.164345617196838933e-01,9.217248783071710708e-03
1.024000000000000000e+10,-5.183323531308030654e-03,7.513577720108274675e-03,-7.166549362080587571e-01,9.633472447347479067e-03
1.032000000000000000e+10,-3.116645964826410091e-03,7.858709934759419355e-03,-7.168327856132640230e-01,1.007628433066939423e-02
1.040000000000000000e+10,-1.172874399952424877e-03,7.662432143364261705e-03,-7.169637945304572213e-01,1.054222044245805082e-02
1.048000000000000000e+10,5.118959077987693743e-04,7.012678096339096043e-03,-7.170434021331733021e-01,1.102709445380151837e-02
1.056000000000000000e+10,1.840908488203056147e-03,6.028690867805270963e-03,-7.170668632962319267e-01,1.152575447588256342e-02
1.064000000000000000e+10,2.755505001464931582e-03,4.856031729202070490e-03,-7.170293993398332288e-01,1.203180028470885246e-02
1.072000000000000000e+10,3.271272555654565310e-03,3.600709958518729346e-03,-7.169264744208619922e-01,1.253728174887791015e-02
1.080000000000000000e+10,3.402375043057856777e-03,2.414123743714442251e-03,-7.167542356858663810e-01,1.303242021577786548e-02
1.088000000000000000e+10,3.189401203230060513e-03,1.400518037830425543e-03,-7.165101478408355540e-01,1.350542297415137025e-02
1.096000000000000000e+10,2.827690852241752754e-03,5.736876314385590172e-04,-7.161938275252999198e-01,1.394249464203726856e-02
1.104000000000000000e+10,2.308692758498667730e-03,9.122471909569660961e-06,-7.158080313762223978e-01,1.432817781227456455e-02
1.112000000000000191e+10,1.758906068034562543e-03,-3.180378743273535366e-04,-7.153596696823030232e-01,1.464615956792968826e-02
1.120000000000000000e+10,1.270667835423517755e-03,-4.596316020236310921e-04,-7.148606150216204602e-01,1.488063326731749007e-02
1.128000000000000000e+10,8.091890091670708371e-04,-4.344782861743516546e-04,-7.142383981241107183e-01,1.487603289615596451e-02
1.135999999999999809e+10,5.313845010878098969e-04,-3.187680629122082473e-04,-7.137835800837198930e-01,1.504993831685645482e-02
1.143999999999999809e+10,3.337249246487237770e-04,-1.791407229320760692e-04,-7.132522333786331936e-01,1.497358833067631394e-02
1.152000000000000000e+10,2.217624465549943935e-04,-4.435910472610940340e-05,-7.127592247249711077e-01,1.479457625846294054e-02
1.160000000000000000e+10,1.672022737080191158e-04,6.517722534118074954e-05,-7.123271561867319246e-01,1.452603637259554728e-02
1.168000000000000191e+10,1.436074035137933111e-04,1.449573740588440136e-04,-7.119730780755365585e-01,1.418723525812113154e-02
1.176000000000000000e+10,1.320202845576013047e-04,2.010115268996325033e-04,-7.117066226645966109e-01,1.380082403166194190e-02
1.184000000000000000e+10,1.226583258643107043e-04,2.438062454409981494e-04,-7.115296226880991615e-01,1.338959068453441335e-02
1.191999999999999809e+10,1.136750142214714516e-04,2.834624889002850066e-04,-7.114372150688138552e-01,1.297353197937338096e-02
1.200000000000000000e+10,1.087128902464224367e-04,3.270265407541457351e-04,-7.114200053242865085e-01,1.256788582858589347e-02
1.208000000000000000e+10,1.145591375401374811e-04,3.772629157695790996e-04,-7.114666585889216632e-01,1.218241256378049288e-02
1.216000000000000000e+10,1.391656422511609588e-04,4.320225504060632880e-04,-7.115663032620541673e-01,1.182186724273742370e-02
1.224000000000000191e+10,1.894601564756147381e-04,4.837784284497093881e-04,-7.117102886321299282e-01,1.148737043740300293e-02
1.232000000000000000e+10,2.683911462589832087e-04,5.198939882295136334e-04,-7.118930285011549897e-01,1.117826292993226098e-02
1.239999999999999809e+10,3.715803592993264463e-04,5.247573292934645025e-04,-7.121118546343595535e-01,1.089397598212585305e-02
1.247999999999999809e+10,4.851824959107201669e-04,4.843952708582652191e-04,-7.123660143895678143e-01,1.063545076940962918e-02
1.256000000000000000e+10,5.870041172304125716e-04,3.925897596317171122e-04,-7.126551753742280670e-01,1.040574501519417848e-02
1.264000000000000000e+10,6.518173901364286531e-04,2.558401677926926262e-04,-7.129779647530117836e-01,1.020971356925085352e-02
1.272000000000000000e+10,6.594669410699338305e-04,9.419700988997948025e-05,-7.133310485084904951e-01,1.005298810524919706e-02
1.280000000000000191e+10,6.023664754541279039e-04,-6.330090758018203567e-05,-7.137090033145198076e-01,9.940739097449956610e-03
1.288000000000000000e+10,4.888892371881590343e-04,-1.870794336521762772e-04,-7.141048724070965248e-01,9.876723801365599326e-03
1.295999999999999809e+10,3.411113443972222281e-04,-2.558952427078269422e-04,-7.145110345484473324e-01,9.862906067990671530e-03
1.303999999999999809e+10,1.880015251634250129e-04,-2.626425431274968044e-04,-7.149199734147141383e-01,9.899632532854876765e-03
1.312000000000000000e+10,5.688371404530823670e-05,-2.152640044426713329e-04,-7.153246739370124896e-01,9.986131855103720992e-03
1.320000000000000000e+10,-3.378248326104895836e-05,-1.329975728305406114e-04,-7.157185708569593352e-01,1.012102899630064508e-02
1.328000000000000000e+10,-7.817844982251943853e-05,-3.970408053855097822e-05,-7.160951455491294526e-01,1.030259601225437700e-02
1.335999999999999809e+10,-8.269953872200427793e-05,4.333312021240921374e-05,-7.164474002864336111e-01,1.052854093964446236e-02
1.344000000000000000e+10,-6.190103011297486027e-05,1.028409977302336618e-04,-7.167675569587308448e-01,1.079526947580411109e-02
1.351999999999999809e+10,-3.250569228388322876e-05,1.356084060971333852e-04,-7.170473998041376751e-01,1.109679393968257717e-02
1.359999999999999809e+10,-7.837787669945286018e-06,1.467805744573998897e-04,-7.172795652703315428e-01,1.142382081161525190e-02
1.368000000000000000e+10,5.155879308569886262e-06,1.456302201123075581e-04,-7.174596042202803226e-01,1.176381959893504046e-02
1.376000000000000000e+10,-1.331568583329415033e-04,1.634672833309094191e-04,-7.175879153650256415e-01,1.210263828722335337e-02
1.384000000000000000e+10,-3.802456483153917981e-06,1.401362481389172520e-04,-7.176703038070002538e-01,1.242730083394989402e-02
1.392000000000000000e+10,-1.863507825840834633e-05,1.461764585407175805e-04,-7.177165810135147650e-01,1.272863649520191223e-02
1.400000000000000000e+10,-3.395677670324613736e-05,1.609606586488836471e-04,-7.177379228209989082e-01,1.300238541005963380e-02
1.407999999999999809e+10,-4.526587831784275348e-05,1.879906170963595205e-04,-7.178031327277045737e-01,1.329734362993543854e-02
1.415999999999999809e+10,-4.606292963159473351e-05,2.110422886445823465e-04,-7.177438707182167699e-01,1.346945861192019693e-02
1.424000000000000000e+10,-3.668320701011573557e-05,2.371427384952160976e-04,-7.177417502965576235e-01,1.366865536540465796e-02
1.432000000000000000e+10,-1.846327742575447730e-05,2.561183603695636204e-04,-7.177420056388361669e-01,1.384950752701352879e-02
1.440000000000000000e+10,3.266080945485163288e-06,2.644903737945638071e-04,-7.177478045314968913e-01,1.401535858602936599e-02
1.448000000000000000e+10,2.234241653949832528e-05,2.628709091608755536e-04,-7.177618891024173386e-01,1.416989854552516172e-02
1.456000000000000000e+10,3.474166448421419186e-05,2.553079046423512911e-04,-7.177863060508853366e-01,1.431762987337382477e-02
1.463999999999999809e+10,4.004960515357692998e-05,2.467023136187270816e-04,-7.178216822745090431e-01,1.446390044534826176e-02
1.471999999999999809e+10,4.122715186140176672e-05,2.428257587270929061e-04,-7.179113233932855609e-01,1.440306278266805656e-02
1.480000000000000000e+10,4.077113742832421355e-05,2.379115136473440519e-04,-7.179590564541431519e-01,1.455665653234519338e-02
1.488000000000000000e+10,3.677804200209814207e-05,2.352159832455833583e-04,-7.179676292224745904e-01,1.494371162496829601e-02
1.496000000000000191e+10,3.817893950415455909e-04,2.048766742531301570e-04,-7.180122342180380590e-01,1.512528218219010186e-02
1.504000000000000191e+10,3.459032818133672639e-05,2.344975209107223138e-04,-7.180911647803046582e-01,1.507531345085829852e-02
1.511999999999999809e+10,3.237927745306879644e-05,2.366820892951517798e-04,-7.180630848338936945e-01,1.550876926566566866e-02
1.519999999999999809e+10,3.144497470727325992e-05,2.368000532464785521e-04,-7.180641984930046240e-01,1.569966780138385212e-02
1.527999999999999809e+10,2.937271097298143209e-05,2.360790464381450646e-04,-7.180500305426934515e-01,1.588183536856814168e-02
1.536000000000000000e+10,2.499477095601611401e-05,2.355201723531020271e-04,-7.180243701184941818e-01,1.605028851879337914e-02
1.544000000000000000e+10,1.813971742567727668e-05,2.370416400654398140e-04,-7.179926111241867748e-01,1.620206638589350226e-02
1.552000000000000191e+10,-2.906061364429915646e-04,2.359708672670388432e-04,-7.179606863216897450e-01,1.633657214261291166e-02
1.560000000000000191e+10,3.442152222883788627e-06,2.529081575102523844e-04,-7.179340956687760844e-01,1.645538679077321320e-02
1.567999999999999809e+10,1.135949302695386852e-06,2.674308023692132047e-04,-7.179172461035271402e-01,1.656177893854834937e-02
1.575999999999999809e+10,5.738903187676671789e-06,2.834787970724835220e-04,-7.179130884251114786e-01,1.666015555711089502e-02
1.583999999999999809e+10,1.802186163259715562e-05,2.967822180447107511e-04,-7.179229133782784045e-01,1.675554551034984241e-02
1.592000000000000000e+10,3.578513780111297897e-05,3.027653911790509898e-04,-7.179462297817884586e-01,1.685305696204592377e-02
