# Frequency, Real(S21), Imag(S21), Real(S11), Imag(S11)
4.000000000000000000e+09,1.239172825545727369e-06,1.430316583574016420e-04,-7.187694328120947107e-01,6.819446270392750566e-03
4.080000000000000000e+09,1.540368385091558425e-06,1.456427448450135472e-04,-7.187657188074568770e-01,6.970583964396644822e-03
4.160000000000000477e+09,4.784114338330135104e-07,1.465106700136784685e-04,-7.187176183863783763e-01,7.121578034578349668e-03
4.240000000000000000e+09,8.248237170566072983e-07,1.459492561896050201e-04,-7.187126142024896636e-01,7.275006898101899801e-03
4.320000000000000000e+09,3.140522112064376620e-06,1.444619462057200837e-04,-7.187370794181831002e-01,7.430108658155588561e-03
4.400000000000000000e+09,3.305686844691110794e-06,1.426442038206669803e-04,-7.187322418275009506e-01,7.586069650353530550e-03
4.480000000000000000e+09,2.999347264130610016e-05,1.413541263388869726e-04,-7.187271752361503729e-01,7.743331511003770547e-03
4.560000000000000000e+09,2.992861577851017843e-06,1.404712868167818903e-04,-7.187369487266924706e-01,7.903079611368952345e-03
4.640000000000000000e+09,3.175723286289148586e-06,1.409303624207237698e-04,-7.187162906557460484e-01,8.061975325320240235e-03
4.720000000000000000e+09,3.028660215071897535e-06,1.426668890513861187e-04,-7.187104359579832291e-01,8.223493077727055817e-03
4.800000000000000000e+09,2.900666187122151765e-06,1.455862812006821091e-04,-7.187042782826764675e-01,8.386583749037048938e-03
4.880000000000000000e+09,2.811609034911824037e-06,1.494958021249262990e-04,-7.187117451000186730e-01,8.552589344309861202e-03
4.960000000000000000e+09,2.834347086025245853e-06,1.539615741664374158e-04,-7.186909540667205665e-01,8.717877448560481038e-03
5.040000000000000000e+09,3.113406210276415813e-05,1.590941190272669975e-04,-7.186837293887691214e-01,8.886304853611795215e-03
5.120000000000000000e+09,3.103542161952961154e-06,1.635554717378701365e-04,-7.186760842908188618e-01,9.056754145078652410e-03
5.200000000000000000e+09,3.900663701302741561e-06,1.681083518465987148e-04,-7.186471409676269406e-01,9.229921433244326137e-03
5.280000000000000000e+09,3.495683623013895826e-06,1.722911780934282503e-04,-7.186699613966949229e-01,9.405579444834822472e-03
5.360000000000000000e+09,3.941225263828130888e-06,1.759939484723650131e-04,-7.186501942576702939e-01,9.581703836307979907e-03
5.440000000000000000e+09,4.134684412545644417e-06,1.792995538242942105e-04,-7.186490730025980600e-01,9.763037915403701208e-03
5.520000000000000000e+09,4.557253294314214236e-06,1.822056995122191530e-04,-7.186299106427104233e-01,9.944720000499458756e-03
5.600000000000000000e+09,4.842614404312767939e-06,1.848511675278559905e-04,-7.186186396919024277e-01,1.013074673005345296e-02
5.680000000000000000e+09,5.108040369761802223e-06,1.873146451224683335e-04,-7.186064834973784343e-01,1.032010413876135145e-02
5.760000000000000000e+09,5.355051987916323829e-06,1.896791355729613023e-04,-7.185933164189284295e-01,1.051306509562927906e-02
5.840000000000000954e+09,5.587090620818696846e-06,1.920058886337619008e-04,-7.185789840375227389e-01,1.070993560685548629e-02
5.920000000000000000e+09,5.807791260160575172e-06,1.943307813726230081e-04,-7.185632935165761070e-01,1.091106048716487462e-02
6.000000000000000000e+09,6.019701253710821933e-06,1.966656840950672166e-04,-7.185459996284188078e-01,1.111682943717412497e-02
6.080000000000000000e+09,6.223587209129066314e-06,1.990031280727004538e-04,-7.185267840953363239e-01,1.132768248508844375e-02
6.160000000000000000e+09,6.418279339037788404e-06,2.013223813583932503e-04,-7.185052247848803253e-01,1.154411191257943142e-02
6.239999999999999046e+09,6.600917824532233203e-06,2.035954004276380332e-04,-7.184807506642589825e-01,1.176665349509672248e-02
6.320000000000000000e+09,6.767462162674726718e-06,2.057915088773336722e-04,-7.184525817412925619e-01,1.199585123873019368e-02
6.400000000000000954e+09,6.913295002562949770e-06,2.078801930239561075e-04,-7.184196706894488971e-01,1.223216984940459634e-02
6.480000000000000000e+09,7.033863170926670693e-06,2.098317921221720314e-04,-7.183807022711966583e-01,1.247584395224537838e-02
6.560000000000000000e+09,7.125204138332191458e-06,2.116162310682490901e-04,-7.183342175269586960e-01,1.272673143233198252e-02
6.640000000000000000e+09,7.184090040244257875e-06,2.132001060888751031e-04,-7.182788190813828022e-01,1.298429494207671044e-02
6.720000000000000000e+09,7.207420715518400774e-06,2.145427146525718414e-04,-7.182133123716151202e-01,1.324771713575271549e-02
6.799999999999999046e+09,7.190459995429249890e-06,2.155917538828693014e-04,-7.181367315577206201e-01,1.351603401871732772e-02
6.880000000000000000e+09,7.123736885850557397e-06,2.162794133320948087e-04,-7.180483066259761848e-01,1.378821893951857717e-02
6.960000000000000954e+09,6.988521374785341752e-06,2.165192908412742192e-04,-7.179474226305835316e-01,1.406322225167490336e-02
7.039999999999999046e+09,6.750851240817754587e-06,2.162044010120448652e-04,-7.178335878521310276e-01,1.433998733229092416e-02
7.120000000000000000e+09,6.354135849658037652e-06,2.152064090922845290e-04,-7.177064118272428184e-01,1.461745627362369231e-02
7.200000000000000000e+09,5.710445198816612019e-06,2.133763254145753434e-04,-7.175655906598568112e-01,1.489457150518655806e-02
7.280000000000000000e+09,4.690697007059251315e-06,2.105466364548940091e-04,-7.174108972310205834e-01,1.517027596110931929e-02
7.359999999999999046e+09,3.114079189364874867e-06,2.065355897639387084e-04,-7.172421746444758162e-01,1.544351285277085692e-02
7.440000000000000000e+09,-3.560543674482482233e-04,2.238576024796912938e-04,-7.170593318979174846e-01,1.571322540587124714e-02
7.520000000000000000e+09,-2.756350535501855391e-06,1.942166670647781828e-04,-7.168623411249285260e-01,1.597835672367679816e-02
7.599999999999999046e+09,-7.765532915293671921e-06,1.855544743151404876e-04,-7.166512360403330950e-01,1.623784980565422253e-02
7.680000000000000000e+09,-1.477916665073176344e-05,1.750358915094217126e-04,-7.164261113491336985e-01,1.649064773714985568e-02
7.760000000000000954e+09,-2.438056009915453627e-05,1.625898542134471671e-04,-7.161871229505187841e-01,1.673569411676549545e-02
7.840000000000000000e+09,-3.724823264791160288e-05,1.482346935054298042e-04,-7.159344888429693965e-01,1.697193368250015169e-02
7.919999999999999046e+09,-5.415176767869028730e-05,1.321106605041297234e-04,-7.156684906400850865e-01,1.719831325598615915e-02
8.000000000000000000e+09,-7.594193235135356232e-05,1.145148149517520998e-04,-7.153894756292962231e-01,1.741378300351973871e-02
8.080000000000000000e+09,-1.035341052146853953e-04,9.593632935834632547e-05,-7.150978592891855667e-01,1.761729810407486677e-02
8.159999999999999046e+09,-1.378843404816145922e-04,7.708995781408063263e-05,-7.147941281988258178e-01,1.780782088278945116e-02
8.240000000000000000e+09,-1.799574472623346024e-04,5.894525783603257979e-05,-7.144788432541732126e-01,1.798432345484854075e-02
8.320000000000000954e+09,-2.306867534245966573e-04,4.274930942323572499e-05,-7.141526430907608747e-01,1.814579099221141911e-02
8.400000000000000000e+09,-2.909254292533417852e-04,3.004100721189876806e-05,-7.138162476270448753e-01,1.829122562519809245e-02
8.480000000000000000e+09,-3.613896045833343428e-04,2.265537917801597719e-05,-7.134704615779768888e-01,1.841965108430001358e-02
8.560000000000000000e+09,-4.425938150491051616e-04,2.271700906610247574e-05,-7.131161778595690448e-01,1.853011811909641496e-02
8.640000000000000000e+09,-5.347797443860113648e-04,3.262193497202377831e-05,-7.127543806938874127e-01,1.862171075437413920e-02
8.720000000000000000e+09,-6.378396898412868124e-04,5.500779446905600979e-05,-7.123861483148775653e-01,1.869355341712269913e-02
8.800000000000000000e+09,-7.512365912131786349e-04,9.271209023552977151e-05,-7.120126550431958856e-01,1.874481895756081179e-02
8.880000000000000000e+09,-8.739231231345032189e-04,1.487182871970774752e-04,-7.116351726245024878e-01,1.877473759751013480e-02
8.959999999999998093e+09,-1.004262761686874721e-03,2.260893964405120472e-04,-7.112550705998766931e-01,1.878260674589541518e-02
9.040000000000000000e+09,-1.139956351627978166e-03,3.278882670054417657e-04,-7.108738155148270899e-01,1.876780168771915655e-02
9.120000000000000000e+09,-1.277978163330515272e-03,4.570835933657153415e-04,-7.104929688083182482e-01,1.872978702913852961e-02
9.200000000000000000e+09,-1.414525792783488840e-03,6.164406599677029917e-04,-7.101141831350828992e-01,1.866812881325580903e-02
9.280000000000000000e+09,-1.544988722335310666e-03,8.083958560429029602e-04,-7.097391969771583708e-01,1.858250713078507185e-02
9.360000000000000000e+09,-1.663940107361664951e-03,1.034914574585764227e-03,-7.093698273480436578e-01,1.847272902135971631e-02
9.440000000000000000e+09,-1.765156744631614111e-03,1.297332822598345776e-03,-7.090079604506955846e-01,1.833874142640533333e-02
9.520000000000000000e+09,-1.841671573566774174e-03,1.596184658684266259e-03,-7.086555401757304029e-01,1.818064388341649948e-02
9.600000000000000000e+09,-1.885862754418923901e-03,1.931017741227871332e-03,-7.083145543666043986e-01,1.799870061110532896e-02
9.680000000000000000e+09,-1.889582594329159348e-03,2.300202747789176824e-03,-7.079870188524209906e-01,1.779335160157177742e-02
9.760000000000000000e+09,-1.844328972008219252e-03,2.700742614589370615e-03,-7.076749592794802091e-01,1.756522235272756430e-02
9.840000000000000000e+09,-1.741460665335364290e-03,3.128091079032088544e-03,-7.073803909003322232e-01,1.731513169208227787e-02
9.920000000000000000e+09,-1.572456815698149938e-03,3.575987950635215601e-03,-7.071052965080484309e-01,1.704409739958375955e-02
1.000000000000000000e+10,-1.329220126494836188e-03,4.036326306952284573e-03,-7.068516028409669305e-01,1.675333911134329820e-02
1.008000000000000000e+10,-1.004420783086060198e-03,4.499061118607428945e-03,-7.066211558401528370e-01,1.644427815209648439e-02
1.016000000000000000e+10,-5.918777061658474616e-04,4.952172335828928379e-03,-7.064156952468808592e-01,1.611853397238351485e-02
1.024000000000000000e+10,-8.697087134892364036e-05,5.381697188524585222e-03,-7.062368290696598994e-01,1.577791695524598248e-02
1.032000000000000000e+10,5.129232036195720311e-04,5.771843075667015648e-03,-7.060860085811470066e-01,1.542441741570465402e-02
1.040000000000000000e+10,1.207983547666822630e-03,6.105193556095258461e-03,-7.059645044712458128e-01,1.506019079873466802e-02
1.048000000000000000e+10,1.995498032516208539e-03,6.363017867785342174e-03,-7.058733848586010717e-01,1.468753916273842636e-02
1.056000000000000000e+10,2.869434905028634200e-03,6.525692699110650918e-03,-7.058134958224394628e-01,1.430888916630829871e-02
1.064000000000000000e+10,3.820053419210120947e-03,6.573241711175132306e-03,-7.057854450755290943e-01,1.392676700492330791e-02
1.072000000000000000e+10,4.833578159417871965e-03,6.485995316510902164e-03,-7.057895893677912369e-01,1.354377074607103493e-02
1.080000000000000000e+10,5.891965734692142936e-03,6.245367511125517711e-03,-7.058260260453566026e-01,1.316254069475085962e-02
1.088000000000000000e+10,6.972795881865789108e-03,5.834741423729476045e-03,-7.058945891255214988e-01,1.278572855620420043e-02
1.096000000000000000e+10,8.049321692147580476e-03,5.240446916386799076e-03,-7.059948500359064516e-01,1.241596617086920297e-02
1.104000000000000000e+10,9.090714722830680466e-03,4.452805002066020749e-03,-7.061261230617471574e-01,1.205583462366887487e-02
1.112000000000000191e+10,1.006253978897627376e-02,3.467203258411011638e-03,-7.062874753578896048e-01,1.170783458130731335e-02
1.120000000000000000e+10,1.092749007488802784e-02,2.285154511864028772e-03,-7.064777411753981884e-01,1.137435861628719944e-02
1.128000000000000000e+10,1.164640534268247124e-02,9.152792246087295813e-04,-7.066955398778053121e-01,1.105766622769228588e-02
1.135999999999999809e+10,1.217958372203894676e-02,-6.258602208528025188e-04,-7.069392971275059168e-01,1.075986216559897575e-02
1.143999999999999809e+10,1.248837999130557666e-02,-2.313154995332134846e-03,-7.072072685401250558e-01,1.048287850275019840e-02
1.152000000000000000e+10,1.253706077927502910e-02,-4.112663467937195845e-03,-7.074975650696485596e-01,1.022846077123733093e-02
1.160000000000000000e+10,1.229485978336844997e-02,-5.981732387465158937e-03,-7.078081792753548873e-01,9.998158310617870012e-03
1.168000000000000191e+10,1.173814552004715135e-02,-7.869607962460662201e-03,-7.081370117229510708e-01,9.793318833301306939e-03
1.176000000000000000e+10,1.085258239665611371e-02,-9.718602370430352855e-03,-7.084818967334536310e-01,9.615086977582228828e-03
1.184000000000000000e+10,9.635136639031427475e-03,-1.146585270027193626e-02,-7.088406268024419754e-01,9.464406638485259315e-03
1.191999999999999809e+10,8.095755874217222536e-03,-1.304566870690864258e-02,-7.092109751152363417e-01,9.342026583979028131e-03
1.200000000000000000e+10,6.258540091444211514e-03,-1.439241473726396957e-02,-7.095907156602775379e-01,9.248508899265773728e-03
1.208000000000000000e+10,4.162227217231260004e-03,-1.544381226709925885e-02,-7.099776406150501984e-01,9.184239683106691296e-03
1.216000000000000000e+10,1.859842365587228465e-03,-1.614448890218515148e-02,-7.103695747707745589e-01,9.149441432216728898e-03
1.224000000000000191e+10,-5.825919597368957835e-04,-1.644954473559236824e-02,-7.107643868804568443e-01,9.144186547213693089e-03
1.232000000000000000e+10,-3.088318243580435388e-03,-1.632786636127796925e-02,-7.111599979561592511e-01,9.168411392258034656e-03
1.239999999999999809e+10,-5.573026640377554825e-03,-1.576490118769328930e-02,-7.115543865610410856e-01,9.221930437020121191e-03
1.247999999999999809e+10,-7.948812863203143925e-03,-1.476461685358963251e-02,-7.119455912828411837e-01,9.304450044775130352e-03
1.256000000000000000e+10,-1.012867618438866545e-02,-1.335041515910678246e-02,-7.123317105249125092e-01,9.415581475658076419e-03
1.264000000000000000e+10,-1.203125000766662976e-02,-1.156484646040308734e-02,-7.127108998492912573e-01,9.554852836869664676e-03
1.272000000000000000e+10,-1.358541224818672795e-02,-9.468070296434824909e-03,-7.130813670600927301e-01,9.721719648162869057e-03
1.280000000000000191e+10,-1.473441418570740208e-02,-7.135120996676382055e-03,-7.134413652077514767e-01,9.915573744662174380e-03
1.288000000000000000e+10,-1.543919722530320317e-02,-4.652148531881993357e-03,-7.137891837131107309e-01,1.013575025842132146e-02
1.295999999999999809e+10,-1.568063392245034812e-02,-2.111899452048278999e-03,-7.141231377503393096e-01,1.038153236276375714e-02
1.303999999999999809e+10,-1.546052416559386827e-02,3.912297400373773433e-04,-7.144415561057675390e-01,1.065215347745839675e-02
1.312000000000000000e+10,-1.480128709065271428e-02,2.766204037605631688e-03,-7.147427677103920240e-01,1.094679641043437915e-02
1.320000000000000000e+10,-1.374440011693259245e-02,4.930069024242103581e-03,-7.150250870822454363e-01,1.126458921092046706e-02
1.328000000000000000e+10,-1.234773489296560160e-02,6.812061864226667124e-03,-7.152867990775200191e-01,1.160459688317055579e-02
1.335999999999999809e+10,-1.068201711959562358e-02,8.356863756918436748e-03,-7.155261434314486024e-01,1.196580854999776573e-02
1.344000000000000000e+10,-8.826686006011177921e-03,9.526826323204775834e-03,-7.157412997455867565e-01,1.234711932809837327e-02
1.351999999999999809e+10,-6.865449854274282421e-03,1.030309019588799418e-02,-7.159303738656432881e-01,1.274730616487548818e-02
1.359999999999999809e+10,-4.881828467432402195e-03,1.068559766367328454e-02,-7.160913868740815813e-01,1.316499685830513182e-02
1.368000000000000000e+10,-2.954946703764508437e-03,1.069207094421960672e-02,-7.162222683142284163e-01,1.359863167478188653e-02
1.376000000000000000e+10,-1.155802613228996490e-03,1.035608454210994178e-02,-7.163208557635926121e-01,1.404641701806472014e-02
1.384000000000000000e+10,4.558150174758788566e-04,9.724398713001264349e-03,-7.163849033635866226e-01,1.450627092172445363e-02
1.392000000000000000e+10,1.833636074366320427e-03,8.853745043127815226e-03,-7.164121026384643320e-01,1.497576075714355734e-02
1.400000000000000000e+10,2.946371203920802699e-03,7.807265679626284802e-03,-7.164001194600081446e-01,1.545203430969828255e-02
1.407999999999999809e+10,3.778297571805126591e-03,6.650808474190575068e-03,-7.163466516607697177e-01,1.593174661339785692e-02
1.415999999999999809e+10,4.328979669654350361e-03,5.449273655870607094e-03,-7.162495120986304142e-01,1.641098665578632348e-02
1.424000000000000000e+10,4.612172248591148854e-03,4.263196862868847033e-03,-7.161067419048471328e-01,1.688521024750236701e-02
1.432000000000000000e+10,4.653985091298519332e-03,3.145739327756515331e-03,-7.159167577770462199e-01,1.734918811580460699e-02
1.440000000000000000e+10,4.490420225736402836e-03,2.140239554757651652e-03,-7.156785351448717858e-01,1.779698132538898997e-02
1.448000000000000000e+10,4.164423522701922106e-03,1.278460656508602182e-03,-7.153918254523233822e-01,1.822195919136979439e-02
1.456000000000000000e+10,3.722624566920005196e-03,5.796411567498848706e-04,-7.150574002251051109e-01,1.861687707692293720e-02
1.463999999999999809e+10,3.211970814769054064e-03,5.042106685719050310e-05,-7.146773069427599934e-01,1.897403199028296558e-02
1.471999999999999809e+10,2.696388300949659374e-03,-3.387029838404420276e-04,-7.141601297866182474e-01,1.928247825434126900e-02
1.480000000000000000e+10,2.154437554008460567e-03,-5.298599626279705370e-04,-7.137961001916248716e-01,1.954354177073735696e-02
1.488000000000000000e+10,1.676067419333246346e-03,-6.190800801351746888e-04,-7.133073789025228262e-01,1.974093644574093434e-02
1.496000000000000191e+10,1.262264548119949523e-03,-6.096930105120966373e-04,-7.127978591802394126e-01,1.987161248973360120e-02
1.504000000000000191e+10,9.241628052285314962e-04,-5.310320373116205568e-04,-7.122780580836243214e-01,1.993113940853281918e-02
1.511999999999999809e+10,6.637911626656201785e-04,-4.110674173061390664e-04,-7.117597103395133518e-01,1.991725043601571057e-02
1.519999999999999809e+10,4.756316799250178860e-04,-2.739058554427202009e-04,-7.112551919662151168e-01,1.983023991331053781e-02
1.527999999999999809e+10,3.488327564653299212e-04,-1.380856374754188369e-04,-7.107767977498027356e-01,1.967316942388697143e-02
1.536000000000000000e+10,2.697118717373466487e-04,-1.583458780480791802e-05,-7.103359489037756047e-01,1.945182427287306740e-02
1.544000000000000000e+10,2.241445746022680430e-04,8.671620782931698966e-05,-7.099424317017057895e-01,1.917439782339726978e-02
1.552000000000000191e+10,1.994899184268685336e-04,1.685457766487252914e-04,-7.096037729973980746e-01,1.885092705588333958e-02
1.560000000000000191e+10,1.858358740550375475e-04,2.322921504654986672e-04,-7.093248408140095940e-01,1.849254744360350269e-02
1.567999999999999809e+10,1.765227615550896351e-04,2.826843556836611867e-04,-7.091077210981810985e-01,1.811066646677659056e-02
1.575999999999999809e+10,1.680632493740054747e-04,3.251502274933942556e-04,-7.089518751615924153e-01,1.771616520058615085e-02
1.583999999999999809e+10,1.596767505129317844e-04,3.647694504686584994e-04,-7.088545384334851152e-01,1.731872532071165177e-02
1.592000000000000000e+10,1.526688709502146274e-04,4.055988279211851294e-04,-7.088112899886732654e-01,1.692635053038936410e-02
