# Frequency, Real(S21), Imag(S21), Real(S11), Imag(S11), Amp(S21), Amp(S11)
2.000000000000000000e+09,4.616169244248820270e-05,5.609497488023249814e-05,-7.197407352649233259e-01,-3.187629209978961285e-03,7.264673465455131335e-05,7.197477940082016579e-01
2.106666666666666746e+09,3.641345759917820687e-05,6.076758906712377030e-05,-7.197486700345387955e-01,-3.371548517593628367e-03,7.084235862362269788e-05,7.197565667334295814e-01
2.213333333333333492e+09,4.384796688579621540e-05,6.729195302633391915e-05,-7.197973734113424227e-01,-3.546677834414909813e-03,8.031719082560227849e-05,7.198061111810101220e-01
2.320000000000000000e+09,4.408533072345957311e-05,7.093112920490597260e-05,-7.199019411648579503e-01,-3.707574216676052040e-03,8.351491768109379436e-05,7.199114883091550787e-01
2.426666666666666508e+09,2.785115204114844447e-05,7.209868145702720045e-05,-7.199899639992822786e-01,-3.861376302719887049e-03,7.729105082647696795e-05,7.200003183934289286e-01
2.533333333333333492e+09,1.669777292850543269e-05,7.456472688232340163e-05,-7.200329504967106775e-01,-4.035409947734060719e-03,7.641147895314820318e-05,7.200442585941817519e-01
2.640000000000000477e+09,9.529388086429128874e-06,8.700720449616333209e-05,-7.189192094036513936e-01,-4.192735833818905800e-03,8.752749780234187307e-05,7.189314353144834469e-01
2.746666666666666985e+09,8.104714733114819195e-06,8.052769170544291999e-05,-7.187112892057373470e-01,-4.333520901812165302e-03,8.093451385108845083e-05,7.187243537234420110e-01
2.853333333333333015e+09,1.622415223102829902e-05,8.380021592103969184e-05,-7.187809483163295488e-01,-4.500998636491995372e-03,8.535630793344130621e-05,7.187950407809222675e-01
2.960000000000000000e+09,4.826419629815132012e-06,8.663230189360183954e-05,-7.188088217034134253e-01,-4.676615645483989461e-03,8.676664138842319642e-05,7.188240347209775560e-01
3.066666666666666985e+09,6.896699515069126792e-07,9.046530492335462764e-05,-7.188252654097485594e-01,-4.855919930727805797e-03,9.046793376394501743e-05,7.188416669543920001e-01
3.173333333333333015e+09,1.696253279590215729e-06,9.379305816402145213e-05,-7.188470182571227163e-01,-5.038379154019241753e-03,9.380839533297663491e-05,7.188646749713438755e-01
3.280000000000000000e+09,-4.547608109969719706e-07,9.703717260534208732e-05,-7.188315274953430700e-01,-5.224983994360071597e-03,9.703823820862666723e-05,7.188505167133355522e-01
3.386666666666666508e+09,-3.371932107047493732e-07,1.007032188394073444e-04,-7.188416865221389784e-01,-5.412040226981774428e-03,1.007037833642754126e-04,7.188620594115477935e-01
3.493333333333333492e+09,-8.675622295263365923e-07,1.056109098624043727e-04,-7.188715919255140863e-01,-5.600862037412064620e-03,1.056144731851984441e-04,7.188934102724026109e-01
3.600000000000000000e+09,9.103485115112842219e-08,1.123712282821138868e-04,-7.188361287633552310e-01,-5.795797558094532495e-03,1.123712651569567199e-04,7.188594934233125677e-01
3.706666666666666985e+09,-4.647108524522735107e-07,1.207805318022412333e-04,-7.188779772891304987e-01,-5.990198272826725151e-03,1.207814258013565299e-04,7.189029341341287571e-01
3.813333333333333969e+09,9.597657248718714608e-06,1.295098506479599315e-04,-7.188824286069257496e-01,-6.190014400464226643e-03,1.298649931256332601e-04,7.189090780050491070e-01
3.920000000000000000e+09,-2.762335130156411371e-06,1.377011701708960123e-04,-7.189027619824165383e-01,-6.393967326859888514e-03,1.377288741034550024e-04,7.189311955981072533e-01
4.026666666666666985e+09,-1.629145927695050297e-07,1.434625942925930181e-04,-7.188975043365348760e-01,-6.601336228127105930e-03,1.434626867946006451e-04,7.189278123576072765e-01
4.133333333333333015e+09,4.750469973735913138e-07,1.461134806373085330e-04,-7.189047035297408961e-01,-6.813462378142554760e-03,1.461142528762983015e-04,7.189369903035751630e-01
4.240000000000000000e+09,1.116352669610801978e-06,1.460111854494460643e-04,-7.189128532981799991e-01,-7.030369064767854996e-03,1.460154530165744930e-04,7.189472280539910276e-01
4.346666666666666985e+09,1.143382414337121952e-06,1.442360037611913428e-04,-7.189097474036745261e-01,-7.253535342716093542e-03,1.442405355797870777e-04,7.189463392263591990e-01
4.453333333333333015e+09,1.841940069807833613e-06,1.423106959935901104e-04,-7.189327562644941549e-01,-7.480383809920661958e-03,1.423226156919580666e-04,7.189716713278808680e-01
4.560000000000000000e+09,1.795031760916101475e-06,1.415282964279112742e-04,-7.189450136028663341e-01,-7.714684214390203805e-03,1.415396793440250323e-04,7.189864038609863339e-01
4.666666666666666985e+09,1.527020585820516133e-06,1.427398610981531397e-04,-7.189592687667949455e-01,-7.956200413001946956e-03,1.427480288416956564e-04,7.190032901668088616e-01
4.773333333333333015e+09,1.381501271357006898e-06,1.461644887437052887e-04,-7.189720279976207218e-01,-8.206913512083207143e-03,1.461710173579957987e-04,7.190188665622108122e-01
4.880000000000000000e+09,7.836997990047675467e-07,1.512946980036854552e-04,-7.189958900765245353e-01,-8.465013404638576516e-03,1.512967277551016340e-04,7.190457192688615162e-01
4.986666666666666985e+09,5.056256244094659606e-07,1.575054376259646860e-04,-7.190198416676156778e-01,-8.734963759883866002e-03,1.575062492062416811e-04,7.190728977674026856e-01
5.093333333333333969e+09,3.325474853848447400e-07,1.639317319350506270e-04,-7.190492041855112149e-01,-9.017533651439747083e-03,1.639320692331287940e-04,7.191057460158220005e-01
5.200000000000000000e+09,2.153128875945020689e-07,1.698702694348677798e-04,-7.190859996128156073e-01,-9.314830571699147729e-03,1.698704058908264813e-04,7.191463278830961814e-01
5.306666666666666985e+09,5.472092893147216059e-08,1.748513261046303973e-04,-7.191333725641032570e-01,-9.629190958637351069e-03,1.748513346672763238e-04,7.191978370754039673e-01
5.413333333333333015e+09,-2.768069267627023152e-07,1.786448434625613436e-04,-7.191961875110330915e-01,-9.962650860358799806e-03,1.786450579160748847e-04,7.192651879123377334e-01
5.520000000000000000e+09,-9.192350860036816616e-07,1.811847795261262715e-04,-7.192812360966539531e-01,-1.031564510266771637e-02,1.811871113657765979e-04,7.193552037308235114e-01
5.626666666666666985e+09,-2.029579335211470367e-06,1.824438528584545821e-04,-7.193960421984729736e-01,-1.068562244774183372e-02,1.824551414406163947e-04,7.194753978128251015e-01
5.733333333333333969e+09,-3.830110174919638738e-06,1.822946009901343673e-04,-7.195469143490232922e-01,-1.106724073833471877e-02,1.823348329148994924e-04,7.196320210821367525e-01
5.840000000000000954e+09,-6.722679311444065538e-06,1.804029761643045253e-04,-7.197381181618662804e-01,-1.145371129614611641e-02,1.805281923303480760e-04,7.198292479731842608e-01
5.946666666666666985e+09,-1.147239862578905612e-05,1.762080082557452806e-04,-7.199720844695183253e-01,-1.183778526159827427e-02,1.765810808203579834e-04,7.200693963607139869e-01
6.053333333333333969e+09,-1.943644911458830083e-05,1.690341444194759523e-04,-7.202497917144680128e-01,-1.221216965427352266e-02,1.701479283852972368e-04,7.203533157780279694e-01
6.160000000000000000e+09,-3.278760912883834852e-05,1.583686864989209276e-04,-7.205710337448895109e-01,-1.256967565481907113e-02,1.617271411228770207e-04,7.206806584183080844e-01
6.266666666666666985e+09,-5.465774690435783591e-05,1.443148014863403098e-04,-7.209345750645307360e-01,-1.290327703240722566e-02,1.543186029767722135e-04,7.210500371552938104e-01
6.373333333333333015e+09,-8.910791610233065839e-05,1.281995421598675479e-04,-7.213382320113459478e-01,-1.320614510446176289e-02,1.561260494667678967e-04,7.214591098806462099e-01
6.480000000000000000e+09,-1.408255906311317791e-04,1.132742383715153026e-04,-7.217789061780838233e-01,-1.347168488258022358e-02,1.807288025060033903e-04,7.219046167584791673e-01
6.586666666666666985e+09,-2.821555532415177814e-04,1.113036444438951543e-04,-7.222525857896139323e-01,-1.369358448953484145e-02,3.033154422239659614e-04,7.223823862304199483e-01
6.693333333333333015e+09,-3.135763431057432874e-04,1.135358120053692513e-04,-7.227543260220848920e-01,-1.386588677053431778e-02,3.334973816438285008e-04,7.228873208181005872e-01
6.799999999999999046e+09,-4.391692677173017739e-04,1.499058237817171933e-04,-7.232782186960052817e-01,-1.398309110213176443e-02,4.640489216785514048e-04,7.234133731669859513e-01
6.906666666666666031e+09,-5.879774786673071241e-04,2.295200730663010408e-04,-7.238173635889600943e-01,-1.404029226569293402e-02,6.311869607020757778e-04,7.239535245026291754e-01
7.013333333333333015e+09,-7.506756705872488344e-04,3.689835566638753964e-04,-7.243638566384275057e-01,-1.403336069060841587e-02,8.364585031547823717e-04,7.244997805495658749e-01
7.120000000000000000e+09,-9.103315157788199451e-04,5.844050784711133685e-04,-7.249088133101894149e-01,-1.395916382422597059e-02,1.081772972653223747e-03,7.250432027606759089e-01
7.226666666666666985e+09,-1.041486445184535824e-03,8.884253030310776400e-04,-7.254424473419585073e-01,-1.381582180489601859e-02,1.368938835218353779e-03,7.255739943917745016e-01
7.333333333333333015e+09,-1.110287181856478176e-03,1.286510319971992302e-03,-7.259542246131808207e-01,-1.360298227257156906e-02,1.699366478894190043e-03,7.260816602562224498e-01
7.440000000000000000e+09,-1.076072020981001191e-03,1.772843406030982782e-03,-7.264331080344408331e-01,-1.332208997742821525e-02,2.073862275235670728e-03,7.265552549737316346e-01
7.546666666666666985e+09,-8.947267405392167385e-04,2.326340092226747164e-03,-7.268679012521743754e-01,-1.297661840071403366e-02,2.492467485231749259e-03,7.269837264312444258e-01
7.653333333333333969e+09,-5.239581558136279914e-04,2.907483497794874534e-03,-7.272476865145283131e-01,-1.257222489955714222e-02,2.954317592777245399e-03,7.273563489649750302e-01
7.760000000000000954e+09,6.961117015477635839e-05,3.456830437091933540e-03,-7.275623363118799425e-01,-1.211679025924978538e-02,3.457531255941951025e-03,7.276632255554679185e-01
7.866666666666666985e+09,9.019513035612831096e-04,3.896065832646940317e-03,-7.278030615034994932e-01,-1.162030988547555800e-02,3.999105540782187454e-03,7.278958221721711919e-01
7.973333333333333969e+09,1.962552120185635969e-03,4.132485928585017017e-03,-7.279629440198164270e-01,-1.109461803594232431e-02,4.574827950251059323e-03,7.280474836268316929e-01
8.080000000000000954e+09,3.206039165201455318e-03,4.067559596593883775e-03,-7.280373937581416932e-01,-1.055294745403992721e-02,5.179162886089666226e-03,7.281138725571125736e-01
8.186666666666667938e+09,4.546213742769640402e-03,3.609830278054606319e-03,-7.280244703141992568e-01,-1.000935173405495884e-02,5.805078296742201098e-03,7.280932745867155775e-01
8.293333333333334923e+09,5.854654820996608305e-03,2.691733642327066075e-03,-7.279250223851805313e-01,-9.478041545556063416e-03,6.443788720485344769e-03,7.279867248006689495e-01
8.399999999999999046e+09,6.966207565385206836e-03,1.288895012738972392e-03,-7.277426201408480066e-01,-8.972703649229554074e-03,7.084440570566844647e-03,7.277979325199017691e-01
8.506666666666666031e+09,7.693420136923468516e-03,-5.608556739646599829e-04,-7.274832850490285940e-01,-8.505878422184745200e-03,7.713836431389887310e-03,7.275330095558958377e-01
8.613333333333332062e+09,7.818361351053767019e-03,-2.752891129254283857e-03,-7.271641685342564720e-01,-8.005460701989529707e-03,8.288859015882596437e-03,7.272082338650791566e-01
8.720000000000000000e+09,7.279966010016682490e-03,-5.073461575329699276e-03,-7.267681295547884224e-01,-7.744703856536300571e-03,8.873438874717351488e-03,7.268093935650468129e-01
8.826666666666666031e+09,5.931850939119227492e-03,-7.251098157037983404e-03,-7.263308000099389927e-01,-7.435581188113244734e-03,9.368312550664037106e-03,7.263688587148289244e-01
8.933333333333332062e+09,3.812369385141115962e-03,-9.005470896260608926e-03,-7.258559414382489416e-01,-7.211861318493998502e-03,9.779195590239419048e-03,7.258917678723764144e-01
9.040000000000000000e+09,1.094273812194645513e-03,-1.002914476999609665e-02,-7.253535672977560189e-01,-7.061354924989026068e-03,1.008866591743403165e-02,7.253879378132482847e-01
9.146666666666666031e+09,-1.932030068326126169e-03,-1.009789217122426634e-02,-7.248340938541258938e-01,-6.985696746357585550e-03,1.028105862674601190e-02,7.248677559199083742e-01
9.253333333333333969e+09,-4.885086526351907661e-03,-9.118210519482847221e-03,-7.243075380047542255e-01,-6.985355768842719908e-03,1.034436239927587729e-02,7.243412212526122440e-01
9.360000000000000000e+09,-7.358051829705590692e-03,-7.165980152782800913e-03,-7.237835483293630912e-01,-7.059879630039033772e-03,1.027093950321541008e-02,7.238179790062098107e-01
9.466666666666666031e+09,-9.000796636580066581e-03,-4.488613249238885411e-03,-7.232715105506609676e-01,-7.208042134919610648e-03,1.005793164593565478e-02,7.233074269255457267e-01
9.573333333333333969e+09,-9.596386113120553008e-03,-1.464636989449392707e-03,-7.227806725143962607e-01,-7.427892754571139254e-03,9.707511933701467102e-03,7.228188390953409481e-01
9.680000000000000000e+09,-9.109034601938507947e-03,1.471233214586097765e-03,-7.223202543099426221e-01,-7.716731814192875558e-03,9.227081800385989949e-03,7.223614730425981234e-01
9.786666666666667938e+09,-7.688954706962732727e-03,3.917346874498111448e-03,-7.218995386711843931e-01,-8.071037035720037695e-03,8.629347079638440693e-03,7.219446554774824332e-01
9.893333333333333969e+09,-5.633517513108806524e-03,5.584011387870545413e-03,-7.215279565620890123e-01,-8.486346216150741917e-03,7.932067999605876482e-03,7.215778614763372900e-01
1.000000000000000000e+10,-3.317487604334296188e-03,6.342004674464872017e-03,-7.212151795976591284e-01,-8.957069656319996409e-03,7.157286308081156623e-03,7.212707982297021925e-01
1.010666666666666794e+10,-1.112547449578242661e-03,6.231467683127513840e-03,-7.209712023562330208e-01,-9.476180492242084613e-03,6.330004053191880774e-03,7.210334753835732080e-01
1.021333333333333397e+10,6.836702800946983490e-04,5.433684468343874356e-03,-7.208063495488941097e-01,-1.003472588745081551e-02,5.476525536634173179e-03,7.208761955243346842e-01
1.031999999999999809e+10,1.894360126308560063e-03,4.216874743223004637e-03,-7.207310840167910904e-01,-1.062112566269709027e-02,4.622838185377016462e-03,7.208093394083913141e-01
1.042666666666666603e+10,2.479257622994922045e-03,2.871092877364534324e-03,-7.207554313932779122e-01,-1.122028922090401691e-02,3.793401200984650862e-03,7.208427614765310354e-01
1.053333333333333206e+10,2.519863420452098275e-03,1.647280100268552240e-03,-7.208877960966626475e-01,-1.181270277197822224e-02,3.010522111938944076e-03,7.209845730026978039e-01
1.064000000000000000e+10,2.213602252390393585e-03,6.754970336791778825e-04,-7.211329674703096382e-01,-1.237383056564439997e-02,2.314374899254049382e-03,7.212391201643196803e-01
1.074666666666666603e+10,1.656912498504981620e-03,1.323149303109282492e-04,-7.214892884512279503e-01,-1.287441387857755047e-02,1.662187194176758956e-03,7.216041462481879165e-01
1.085333333333333206e+10,1.122762528060002214e-03,-1.248942910849966696e-04,-7.219453792280230431e-01,-1.328242497701793458e-02,1.129687690630163180e-03,7.220675545971887432e-01
1.096000000000000000e+10,7.154481908500349248e-04,-1.617330972690050840e-04,-7.225427050207641200e-01,-1.348020766493910998e-02,7.335009942343727763e-04,7.226684416642342734e-01
1.106666666666666603e+10,4.079981413611495850e-04,-7.052935520633824874e-05,-7.231080175901938301e-01,-1.367925022729659344e-02,4.140493609462215260e-04,7.232373932465059330e-01
1.117333333333333397e+10,-9.993029970101316613e-05,1.039447272536045798e-04,-7.236146957444524741e-01,-1.369074190979540848e-02,1.441893585607500995e-04,7.237441981193196705e-01
1.128000000000000000e+10,1.814480179284602181e-04,1.568368572518662142e-04,-7.241274540177774499e-01,-1.353155735729166635e-02,2.398357417125501941e-04,7.242538731044397826e-01
1.138666666666666603e+10,1.479837454962163227e-04,2.288050740513296864e-04,-7.245492290514784495e-01,-1.325691947054840475e-02,2.724902766021631726e-04,7.246704983873294426e-01
1.149333333333333397e+10,1.316730541362223176e-04,2.859447890171756498e-04,-7.248583050930330618e-01,-1.290602392935062161e-02,3.148050437201374064e-04,7.249731911705491472e-01
1.160000000000000000e+10,1.310304418413880457e-04,3.409628840043087117e-04,-7.250516095462894439e-01,-1.251878793644960533e-02,3.652734112383284899e-04,7.251596765934126276e-01
1.170666666666666794e+10,1.549501896475281490e-04,3.955349475838342184e-04,-7.251406825488119212e-01,-1.212680586312803177e-02,4.248028437192380869e-04,7.252420760737746663e-01
1.181333333333333397e+10,2.112920530626396999e-04,4.387518154339807293e-04,-7.251437772690854100e-01,-1.174882935288154052e-02,4.869779124704109530e-04,7.252389486943183750e-01
1.192000000000000000e+10,2.983857835208165565e-04,4.513441438578046365e-04,-7.250777277858414527e-01,-1.139169872666308606e-02,5.410597120485559526e-04,7.251672097736893141e-01
1.202666666666666794e+10,3.998538622710593859e-04,4.136773195401553392e-04,-7.249526555790792859e-01,-1.105537769950255302e-02,5.753364544985925923e-04,7.250369467877053609e-01
1.213333333333333397e+10,4.848703677835946332e-04,3.172233703755812737e-04,-7.247710815199691625e-01,-1.073942779953133107e-02,5.794220743698340857e-04,7.248506438688505638e-01
1.224000000000000191e+10,5.178383288906554440e-04,1.754801083746628345e-04,-7.245311349072536267e-01,-1.044793211218264864e-02,5.467630229847754561e-04,7.246064619746457325e-01
1.234666666666666603e+10,4.763767091745630213e-04,2.524467554208989592e-05,-7.242316980300708140e-01,-1.019075059859046728e-02,4.770451369495465354e-04,7.243033921149909515e-01
1.245333333333333206e+10,3.668493546150973072e-04,-8.763250540119106222e-05,-7.238764680328245715e-01,-9.981080389260026803e-03,3.771709227716303972e-04,7.239452762035358813e-01
1.256000000000000000e+10,2.243642697924252798e-04,-1.314324134933429029e-04,-7.234749603569525789e-01,-9.831428229658161974e-03,2.600265464835720521e-04,7.235417577752710772e-01
1.266666666666666603e+10,9.498377079722217339e-05,-1.048450349983039273e-04,-7.230407421876765550e-01,-9.750596245839973641e-03,1.414722519742115596e-04,7.231064852360650219e-01
1.277333333333333206e+10,1.189848253131274482e-05,-3.499038249478707302e-05,-7.225887791416368833e-01,-9.742918491361584818e-03,3.695809456234799058e-05,7.226544597538513415e-01
1.288000000000000000e+10,-1.875160785230220808e-05,4.048613091450909676e-05,-7.221336974457224223e-01,-9.809200885296227510e-03,4.461781699582903846e-05,7.222003166771933103e-01
1.298666666666666603e+10,-1.472035516717386730e-05,9.440587226241564558e-05,-7.216896020755975139e-01,-9.947900656901764727e-03,9.554662513074588411e-05,7.217581606546017436e-01
1.309333333333333397e+10,-1.624567933452341972e-06,1.207826071334410119e-04,-7.212708207172344732e-01,-1.015521996047735048e-02,1.207935321402663341e-04,7.213423079998556586e-01
1.320000000000000000e+10,3.481429595848846577e-06,1.302859746464263139e-04,-7.208920805188386849e-01,-1.042373299166643626e-02,1.303324807620881919e-04,7.209674375200737506e-01
1.330666666666666603e+10,-2.271863394090603084e-06,1.370156080588038716e-04,-7.205666961181481645e-01,-1.074070124779774940e-02,1.370344417108529964e-04,7.206467416272123172e-01
1.341333333333333397e+10,1.083792159252838110e-04,1.567892756907109618e-04,-7.203030143778467176e-01,-1.108836398560968280e-02,1.906014989872772654e-04,7.203883566089126500e-01
1.352000000000000000e+10,-2.347478649561841784e-05,1.675344202875286555e-04,-7.201017050563898181e-01,-1.144734730750281322e-02,1.691710601199069338e-04,7.201926876784423559e-01
1.362666666666666794e+10,-2.773926392280356734e-05,1.911277496624860881e-04,-7.199564450589992504e-01,-1.180118908083986444e-02,1.931302240821588774e-04,7.200531583471553310e-01
1.373333333333333397e+10,-2.273194724271359820e-05,2.153939852716671801e-04,-7.198573559289404011e-01,-1.213867554031832982e-02,2.165901897978223000e-04,7.199596935446305190e-01
1.384000000000000000e+10,-8.653702890010294779e-06,2.337672042940204076e-04,-7.197941574071647919e-01,-1.245307600850853458e-02,2.339273228529554279e-04,7.199018739658649135e-01
