# Frequency, Real(S21), Imag(S21), Real(S11), Imag(S11), Amp(S21), Amp(S11)
2.000000000000000000e+09,3.774733758818545683e-05,5.402863727664214736e-05,-7.197313857662065439e-01,-3.185571035549701960e-03,6.590868790203158168e-05,7.197384354887311764e-01
2.106666666666666746e+09,4.274358474018290352e-05,5.682839953300426088e-05,-7.198140481434438520e-01,-3.352215508429200186e-03,7.110893776399670216e-05,7.198218538315345194e-01
2.213333333333333492e+09,3.375154363001149974e-05,6.428944234479258405e-05,-7.198605207328507838e-01,-3.537420049029767980e-03,7.261059905009033309e-05,7.198692121839732616e-01
2.320000000000000000e+09,3.439935326259219351e-05,6.815096785228781933e-05,-7.199191754566546253e-01,-3.711405252127539852e-03,7.634048679493851046e-05,7.199287421121168817e-01
2.426666666666666508e+09,2.944206290863810407e-05,7.316019336754481987e-05,-7.199971054242700896e-01,-3.873241392588358447e-03,7.886221504556382631e-05,7.200075234455628470e-01
2.533333333333333492e+09,3.398863397441976574e-06,7.184432518748556679e-05,-7.200524423927099349e-01,-4.033630956372026566e-03,7.192467819906908611e-05,7.200637402163776457e-01
2.640000000000000477e+09,9.526207823564447144e-06,8.514423621401508721e-05,-7.188618083713947948e-01,-4.206076786731629061e-03,8.567549005384060155e-05,7.188741131915432625e-01
2.746666666666666985e+09,1.102469346787689573e-05,8.097907197889273382e-05,-7.187838104854032961e-01,-4.338604885726433415e-03,8.172609108860730222e-05,7.187969043535668012e-01
2.853333333333333015e+09,1.334425105946553767e-05,8.399531551928689720e-05,-7.187963183441945514e-01,-4.517983226228831396e-03,8.504870407903112369e-05,7.188105170610689099e-01
2.960000000000000000e+09,4.643900428858094334e-06,8.708266049108549409e-05,-7.188053277520278783e-01,-4.700409074331422105e-03,8.720639637892859980e-05,7.188206960363385800e-01
3.066666666666666985e+09,2.768614316895605099e-06,9.089817675309372477e-05,-7.188006049474798820e-01,-4.885817200639727687e-03,9.094033077943133186e-05,7.188172096455266447e-01
3.173333333333333015e+09,-1.036097985140470372e-06,9.443382370278455089e-05,-7.188628172319655452e-01,-5.066234371887399536e-03,9.443950740110521698e-05,7.188806693251593716e-01
3.280000000000000000e+09,-7.356452101005409991e-07,9.778001650060275281e-05,-7.188349608953417125e-01,-5.256452522297529011e-03,9.778278376449143832e-05,7.188541794401188678e-01
3.386666666666666508e+09,1.183501608303399416e-05,1.018276778960855921e-04,-7.188516176719479400e-01,-5.446885987164748651e-03,1.025131386281516140e-04,7.188722534613042336e-01
3.493333333333333492e+09,-9.804306655057169204e-07,1.064555668173706104e-04,-7.188568802509417432e-01,-5.640561596674747470e-03,1.064600814892489362e-04,7.188790094440389300e-01
3.600000000000000000e+09,-1.129163401514723747e-06,1.132823213359597438e-04,-7.188786461597072019e-01,-5.837623335599225610e-03,1.132879487732519675e-04,7.189023478544369627e-01
3.706666666666666985e+09,1.796898972424957553e-05,1.211844894306647624e-04,-7.188838173735038195e-01,-6.038970613141990580e-03,1.225094489020381024e-04,7.189091820581842152e-01
3.813333333333333969e+09,-1.279091935722885478e-06,1.308003457749609721e-04,-7.188667148596761258e-01,-6.246154108212391594e-03,1.308065997227562862e-04,7.188938504218035375e-01
3.920000000000000000e+09,-7.452869155216699679e-07,1.389003905399560212e-04,-7.188961905095511140e-01,-6.454511397201752841e-03,1.389023899892969792e-04,7.189251654007678960e-01
4.026666666666666985e+09,-1.578396203565891584e-07,1.446539726154575051e-04,-7.189036358231196688e-01,-6.669485627236260497e-03,1.446540587290217825e-04,7.189345725712685820e-01
4.133333333333333015e+09,5.945497033908065706e-07,1.473718001278011822e-04,-7.189121329700827179e-01,-6.889856393959034424e-03,1.473729994342870911e-04,7.189451474575255796e-01
4.240000000000000000e+09,8.262546854241592441e-07,1.473104080881846071e-04,-7.189098161529762221e-01,-7.117294072373433339e-03,1.473127252748813597e-04,7.189450463255301349e-01
4.346666666666666985e+09,1.544825417906644792e-06,1.456087103943563832e-04,-7.189226409604183576e-01,-7.350236558787599100e-03,1.456169050223199944e-04,7.189602142420488118e-01
4.453333333333333015e+09,2.031557402047583360e-06,1.437074652658382244e-04,-7.189374070201143274e-01,-7.590570921910157198e-03,1.437218243643250955e-04,7.189774766845802301e-01
4.560000000000000000e+09,2.167375766987497443e-06,1.428955329995225626e-04,-7.189619154645428001e-01,-7.838055645308920905e-03,1.429119689491855228e-04,7.190046390703911383e-01
4.666666666666666985e+09,1.861509764327923871e-06,1.440369947000937241e-04,-7.189804612061272415e-01,-8.096365489669087728e-03,1.440490231165679209e-04,7.190260459331898613e-01
4.773333333333333015e+09,1.419924439894698013e-06,1.472893173336696146e-04,-7.190029195044448374e-01,-8.365825867808877186e-03,1.472961614775939582e-04,7.190515873693387183e-01
4.880000000000000000e+09,9.712963595646388822e-07,1.522428387309838593e-04,-7.190306244936107705e-01,-8.648334241809109771e-03,1.522459370935279278e-04,7.190826326958744685e-01
4.986666666666666985e+09,5.964633264596965101e-07,1.581311149928280523e-04,-7.190656204168190957e-01,-8.946209932033887674e-03,1.581322399050074095e-04,7.191212701190063949e-01
5.093333333333333969e+09,2.984536017804226092e-07,1.640878778456854282e-04,-7.191111703797653520e-01,-9.262124994518405180e-03,1.640881492687786848e-04,7.191708158180294408e-01
5.200000000000000000e+09,-9.471933711188571447e-10,1.693508901435568153e-04,-7.191725161841810987e-01,-9.598561960744728810e-03,1.693508901462056839e-04,7.192365677761388687e-01
5.306666666666666985e+09,-4.452552528203299027e-07,1.733609765451427716e-04,-7.192572706679808414e-01,-9.956255635516633035e-03,1.733615483344726855e-04,7.193261766646844579e-01
5.413333333333333015e+09,-1.229452730600000967e-06,1.757427061669649359e-04,-7.193740026671390231e-01,-1.033237845761522146e-02,1.757470065887466344e-04,7.194482008858819055e-01
5.520000000000000000e+09,-2.627344932697300568e-06,1.761904637446729308e-04,-7.195297675765917056e-01,-1.072079189530367009e-02,1.762100520854536210e-04,7.196096315417731537e-01
5.626666666666666985e+09,-5.100947445347127438e-06,1.743259030974084016e-04,-7.197291627597633967e-01,-1.111377124928315460e-02,1.744005165002879710e-04,7.198149648612839346e-01
5.733333333333333969e+09,-9.502814388869971433e-06,1.696183000742453875e-04,-7.199746737364085547e-01,-1.150316218995625465e-02,1.698842876824871819e-04,7.200665618970348847e-01
5.840000000000000954e+09,-1.734111746963286620e-05,1.614529666294635640e-04,-7.202671513052033569e-01,-1.188081528802035873e-02,1.623815715792598232e-04,7.203651317361361439e-01
5.946666666666666985e+09,-3.104052995424491743e-05,1.494104709269445698e-04,-7.206061147423887814e-01,-1.223872649423469669e-02,1.526007972536569954e-04,7.207100381084763363e-01
6.053333333333333969e+09,-5.410057651656890033e-05,1.337693873095919497e-04,-7.209899155246648483e-01,-1.256909307527970948e-02,1.442952575818371938e-04,7.210994663629964885e-01
6.160000000000000000e+09,-9.103347582282994305e-05,1.162177587702625521e-04,-7.214158159480339449e-01,-1.286435428689013463e-02,1.476267630681127514e-04,7.215305060156405048e-01
6.266666666666666985e+09,-1.469604285028796252e-04,1.006680734930404759e-04,-7.218800152586001273e-01,-1.311724075905991785e-02,1.781331764903724979e-04,7.219991817411484103e-01
6.373333333333333015e+09,-2.267715595658504300e-04,9.402932779377918453e-05,-7.223776420788723396e-01,-1.332084463089362736e-02,2.454930848583683272e-04,7.225004516795209275e-01
6.480000000000000000e+09,-3.338118924520106683e-04,1.067216851906286788e-04,-7.229027265709452310e-01,-1.346871999372204962e-02,3.504566986552267371e-04,7.230281865197069058e-01
6.586666666666666985e+09,-4.681451589688241047e-04,1.526882752979767969e-04,-7.234481656665928684e-01,-1.355502261332256625e-02,4.924160834897823311e-04,7.235751426385552687e-01
6.693333333333333015e+09,-6.245598597456173719e-04,2.486617932812232182e-04,-7.240056975689337371e-01,-1.357469653618815532e-02,6.722408094152711915e-04,7.241329453203519950e-01
6.799999999999999046e+09,-7.906031205989309807e-04,4.124916962002268817e-04,-7.245659060245974725e-01,-1.352371142089196787e-02,8.917413827645928473e-04,7.246921021674248564e-01
6.906666666666666031e+09,-9.450376847660855485e-04,6.604418603442542817e-04,-7.251182788993568717e-01,-1.339934770184314852e-02,1.152943917336408464e-03,7.252420705618231045e-01
7.013333333333333015e+09,-1.057193931819805886e-03,1.003518318723264913e-03,-7.256513475101774580e-01,-1.320051686822409573e-02,1.457637823840266748e-03,7.257714046371106509e-01
7.120000000000000000e+09,-1.087711117000472348e-03,1.443081296933981664e-03,-7.261529310918667379e-01,-1.292809185123491682e-02,1.807096871672096705e-03,7.262680048661261933e-01
7.226666666666666985e+09,-9.911117425524525008e-04,1.966213752665421817e-03,-7.266105029209541932e-01,-1.258520979320111415e-02,2.201885330210453812e-03,7.267194854003715676e-01
7.333333333333333015e+09,-7.205164890212479049e-04,2.541541492218792660e-03,-7.270116801649765259e-01,-1.217749899509280691e-02,2.641699674001803111e-03,7.271136600133968342e-01
7.440000000000000000e+09,-2.345747361946475418e-04,3.116400906698805519e-03,-7.273448190188211981e-01,-1.171317745888165833e-02,3.125216779382500049e-03,7.274391275424391123e-01
7.546666666666666985e+09,4.936483957442782365e-04,3.616396505892459454e-03,-7.275996731050238253e-01,-1.120297547944187552e-02,3.649933208491915743e-03,7.276859150499825901e-01
7.653333333333333969e+09,1.466526323474845982e-03,3.948440736024004874e-03,-7.277680509190189717e-01,-1.065985132464794885e-02,4.211992842270560061e-03,7.278461158574189849e-01
7.760000000000000954e+09,2.651703178458957727e-03,4.008264788672758275e-03,-7.278443938209945285e-01,-1.009849652703069880e-02,4.806008360663057213e-03,7.279144463800381049e-01
7.866666666666666985e+09,3.973753268729866492e-03,3.693048564307179968e-03,-7.278261949509303719e-01,-9.534661561819021691e-03,5.424879974623643582e-03,7.278886452115104211e-01
7.973333333333333969e+09,5.310128210785355213e-03,2.919135215546120234e-03,-7.277141949871153148e-01,-8.984366400635586045e-03,6.059604939401575310e-03,7.277696534105871917e-01
8.080000000000000954e+09,6.494294518943297470e-03,1.643660431732140836e-03,-7.275123213520516829e-01,-8.463085365888320041e-03,6.699065674675749003e-03,7.275615448420574838e-01
8.186666666666667938e+09,7.328937339570270118e-03,-1.127067402637499990e-04,-7.272273779804570015e-01,-7.985004175339821195e-03,7.329803908471783230e-03,7.272712145932977990e-01
8.293333333333334923e+09,7.611172595052154502e-03,-2.246707107432243788e-03,-7.268685340497226255e-01,-7.562436685590709709e-03,7.935845329784314839e-03,7.269078732825889899e-01
8.399999999999999046e+09,7.169400051577358955e-03,-4.563769043972062608e-03,-7.264466925528403340e-01,-7.205459767051771922e-03,8.498722550258663508e-03,7.264824263335043497e-01
8.506666666666666031e+09,5.907527864663266425e-03,-6.787007166504233427e-03,-7.259738357681926324e-01,-6.921784218145706630e-03,8.997908187459612711e-03,7.260068328306182872e-01
8.613333333333332062e+09,3.847328311762212519e-03,-8.589587096005206479e-03,-7.254624402733538258e-01,-6.716835779879185529e-03,9.411851126019060362e-03,7.254935341753663280e-01
8.720000000000000000e+09,1.155372503751532672e-03,-9.650748471159197386e-03,-7.249250295166743685e-01,-6.593983873483677191e-03,9.719662117378704419e-03,7.249550186343115543e-01
8.826666666666666031e+09,-2.053655627212915002e-03,-9.707679992088359688e-03,-7.243738927894460833e-01,-6.554836266272482011e-03,9.922527513893620796e-03,7.244035494345769655e-01
8.933333333333332062e+09,-4.752057336322503336e-03,-8.715933484687262908e-03,-7.238209566760781533e-01,-6.599522028382661699e-03,9.927212369904713993e-03,7.238510420069007578e-01
9.040000000000000000e+09,-7.200107900604480610e-03,-6.723544956797109992e-03,-7.232777639556283722e-01,-6.726911893024208750e-03,9.851274565578755846e-03,7.233090454130034486e-01
9.146666666666666031e+09,-8.730861210083895943e-03,-4.013235191957918724e-03,-7.227555080452116032e-01,-6.934762635582315642e-03,9.609057923423978617e-03,7.227887764364523404e-01
9.253333333333333969e+09,-9.174573243994057700e-03,-1.003388145255916910e-03,-7.222650905244385466e-01,-7.219799916017921940e-03,9.229278518901234962e-03,7.223011743733376289e-01
9.360000000000000000e+09,-8.526098885051640666e-03,1.846480213577997905e-03,-7.218172004314739043e-01,-7.577756812276351811e-03,8.723752138662232286e-03,7.218569756101527179e-01
9.466666666666666031e+09,-6.977238948849888607e-03,4.130710319661049477e-03,-7.214224349529748670e-01,-8.003360085250590603e-03,8.108306302447026645e-03,7.214668276685584081e-01
9.573333333333333969e+09,-4.864026608719611636e-03,5.579305066651064557e-03,-7.210914742933784982e-01,-8.490218377309531606e-03,7.401851111518702349e-03,7.211414549911082661e-01
9.680000000000000000e+09,-2.584394260462939252e-03,6.101052123023874112e-03,-7.208352862317608523e-01,-9.030536518363527915e-03,6.625853205540242936e-03,7.208918507422830135e-01
9.786666666666667938e+09,-5.105968759870975178e-04,5.781480008405408613e-03,-7.206652757074170079e-01,-9.614572989059254685e-03,5.803983137239389530e-03,7.207294080472985698e-01
9.893333333333333969e+09,1.081927389989518866e-03,4.842213301778065804e-03,-7.205932200637333862e-01,-1.022978331082527795e-02,4.961612292100821622e-03,7.206658291249881110e-01
1.000000000000000000e+10,2.055436708579123656e-03,3.576387405314045229e-03,-7.206307483177856188e-01,-1.085966494863903516e-02,4.124968719380004041e-03,7.207125694365600355e-01
1.010666666666666794e+10,2.415683346149683636e-03,2.277455113666918603e-03,-7.207880514179259013e-01,-1.148246583613212260e-02,3.319989130047345475e-03,7.208795059429339291e-01
1.021333333333333397e+10,2.285565641393430374e-03,1.177525750949841386e-03,-7.210715073337962133e-01,-1.207017200023174398e-02,2.571065381367838767e-03,7.211725228686600708e-01
1.031999999999999809e+10,1.852810673362842572e-03,3.868309470954529612e-04,-7.214706635562868620e-01,-1.263144082864223715e-02,1.892761361862090605e-03,7.215812301257262806e-01
1.042666666666666603e+10,1.324489325171419830e-03,-9.723157957168288706e-06,-7.220009977861345796e-01,-1.299927426654390143e-02,1.324525013842208637e-03,7.221180110865749180e-01
1.053333333333333206e+10,8.662836968915733384e-04,-1.495686716274304169e-04,-7.227199277923571641e-01,-1.317741059904869137e-02,8.791008082310728441e-04,7.228400502035604580e-01
1.064000000000000000e+10,5.033235849512894110e-04,-1.020157700723669353e-04,-7.232498701290521748e-01,-1.335890429718437390e-02,5.135580283781725382e-04,7.233732335148378434e-01
1.074666666666666603e+10,3.009814687583947006e-04,5.181185045175149798e-06,-7.238766747489580045e-01,-1.327118460295028703e-02,3.010260606898228241e-04,7.239983180825589892e-01
1.085333333333333206e+10,2.016547936710378578e-04,1.101356752623260105e-04,-7.244287286845910723e-01,-1.301735642650739960e-02,2.297705872734745513e-04,7.245456745519275321e-01
1.096000000000000000e+10,1.574820791475551218e-04,1.888301801043862859e-04,-7.248605246029949933e-01,-1.263507754723159834e-02,2.458809512160138578e-04,7.249706375518623069e-01
1.106666666666666603e+10,1.361902872956206791e-04,2.470550089511699770e-04,-7.251482802654043436e-01,-1.217461402739959501e-02,2.821063129416397368e-04,7.252504736975975419e-01
1.117333333333333397e+10,1.276896131935377791e-04,2.991862757127119435e-04,-7.252915919420664936e-01,-1.168541286398881371e-02,3.252953502470611394e-04,7.253857196110624628e-01
1.128000000000000000e+10,1.377610846199460036e-04,3.532474394891826235e-04,-7.253070070708250716e-01,-1.120529729253371375e-02,3.791594254945110506e-04,7.253935574524024155e-01
1.138666666666666603e+10,1.777790900717352604e-04,4.044670230212736237e-04,-7.252176230680149605e-01,-1.075635422404011901e-02,4.418132836147252852e-04,7.252973872589191240e-01
1.149333333333333397e+10,2.539867770055273468e-04,4.347547731426403277e-04,-7.250438234562508466e-01,-1.034765515292002114e-02,5.035086847949737151e-04,7.251176593486210464e-01
1.160000000000000000e+10,3.568795045218004186e-04,4.186573136854191248e-04,-7.247986359016133084e-01,-9.982007689090481931e-03,5.501244650531524885e-04,7.248673693044435096e-01
1.170666666666666794e+10,4.558515710936738262e-04,3.379421652623048559e-04,-7.244885800559505151e-01,-9.662802195043616524e-03,5.674553391507967687e-04,7.245530155742558875e-01
1.181333333333333397e+10,5.079470172172869703e-04,1.993409850223967100e-04,-7.241182425462303618e-01,-9.397577221805616249e-03,5.456619838413137753e-04,7.241792206670121246e-01
1.192000000000000000e+10,4.810587490580227224e-04,4.061843952088874929e-05,-7.236950927609847595e-01,-9.197132376632789416e-03,4.827705227894322831e-04,7.237535316185225165e-01
1.202666666666666794e+10,3.761729207066696803e-04,-8.519047396864540766e-05,-7.232315150596658748e-01,-9.071913626947198175e-03,3.856986947449898015e-04,7.232884099668364097e-01
1.213333333333333397e+10,2.297857681459541891e-04,-1.387497691650841324e-04,-7.227435918437071782e-01,-9.028785550759711384e-03,2.684268944904558748e-04,7.227999851408858367e-01
1.224000000000000191e+10,9.336041844411468592e-05,-1.153349470744922391e-04,-7.222485766551425268e-01,-9.070091891939489892e-03,1.483857060121901265e-04,7.223055261087980572e-01
1.234666666666666603e+10,5.057628765185519405e-06,-4.342322372520984053e-05,-7.217633063436307284e-01,-9.194577525148531216e-03,4.371676986484773384e-05,7.218218690507760549e-01
1.245333333333333206e+10,-2.711270523464576752e-05,3.574131466791675250e-05,-7.213043628826588671e-01,-9.398347278942204008e-03,4.486134593758672566e-05,7.213655888972900776e-01
1.256000000000000000e+10,-2.190790331488885084e-05,9.211968456764533110e-05,-7.208889873540480497e-01,-9.674181717612461220e-03,9.468892497276010050e-05,7.209538971947168084e-01
1.266666666666666603e+10,-6.863047038433452949e-06,1.188320437244947856e-04,-7.205344950480598865e-01,-1.000901549244539654e-02,1.190300635570358317e-04,7.206040098037830299e-01
1.277333333333333206e+10,-4.927598197365288223e-07,1.269353841582778917e-04,-7.202543162169968705e-01,-1.038188808659865417e-02,1.269363405949987841e-04,7.203291356244424515e-01
1.288000000000000000e+10,-8.102583812324646846e-06,1.331710751646024231e-04,-7.203578140056308143e-01,-1.068663319167924113e-02,1.334173419197516944e-04,7.204370786737342991e-01
1.298666666666666603e+10,-1.994392242241467089e-05,1.429436869125430174e-04,-7.199186483556518912e-01,-1.113697660015778267e-02,1.443282982292191160e-04,7.200047864410493714e-01
1.309333333333333397e+10,-3.160368640303859022e-05,1.640092300029583105e-04,-7.198365882383096492e-01,-1.147816689139189751e-02,1.670264066560281564e-04,7.199280950773879750e-01
1.320000000000000000e+10,-3.365506186257248735e-05,1.914024842856365712e-04,-7.197870506798318413e-01,-1.178404846165365116e-02,1.943388128493300630e-04,7.198835059400356950e-01
1.330666666666666603e+10,-2.506300000600118820e-05,2.204634978670681896e-04,-7.199334743281512461e-01,-1.204927648533302316e-02,2.218835457195589278e-04,7.200342995455305539e-01
1.341333333333333397e+10,-4.325626288947403172e-06,2.309484090707827257e-04,-7.197278944232777809e-01,-1.229742214755714241e-02,2.309889146585117499e-04,7.198329449271130276e-01
1.352000000000000000e+10,1.288501339114772452e-05,2.331307050361706523e-04,-7.196974231837141023e-01,-1.251508633488158072e-02,2.334865075347011495e-04,7.198062297057782333e-01
1.362666666666666794e+10,2.238426088753311515e-05,2.287726237378889457e-04,-7.196563535296772729e-01,-1.271739055352466043e-02,2.298651093737343488e-04,7.197687122945277682e-01
1.373333333333333397e+10,2.470491669511928055e-05,2.245339092206821284e-04,-7.196022089108468078e-01,-1.291550098195333104e-02,2.258889313331538702e-04,7.197181040066901181e-01
1.384000000000000000e+10,2.365702944930807799e-05,2.229884327753450747e-04,-7.195389302495011075e-01,-1.312029866520822256e-02,2.242398184845189766e-04,7.196585401297345141e-01
