# Frequency, Real(S21), Imag(S21), Real(S11), Imag(S11), Amp(S21), Amp(S11)
2.000000000000000000e+09,4.607418488880509161e-05,5.599083678138051226e-05,-7.197431590694340908e-01,-3.184394566929355137e-03,7.251071863281309657e-05,7.197502034706253493e-01
2.106666666666666746e+09,3.647688857647967027e-05,6.075588076657833332e-05,-7.197438636153405955e-01,-3.370405158882443155e-03,7.086494512764119345e-05,7.197517550120131613e-01
2.213333333333333492e+09,4.386566924981726793e-05,6.741613976919138499e-05,-7.198304022096281285e-01,-3.543553258954427413e-03,8.043091967715844458e-05,7.198391241902416526e-01
2.320000000000000000e+09,3.403168742993688771e-05,6.814433270805331775e-05,-7.199019384371054819e-01,-3.706688227780150294e-03,7.616958598781268500e-05,7.199114810191041824e-01
2.426666666666666508e+09,2.787219301194667609e-05,7.205230154922316697e-05,-7.199879661756939386e-01,-3.865177608222632004e-03,7.725537717101247184e-05,7.199983409951410396e-01
2.533333333333333492e+09,1.671547904578672377e-05,7.454280433296919860e-05,-7.200329426768027341e-01,-4.034303738511771202e-03,7.639395864565120880e-05,7.200442445756166654e-01
2.640000000000000477e+09,9.546511260292354873e-06,8.633573718897400123e-05,-7.188974996079644519e-01,-4.193521307001791577e-03,8.686193293501173545e-05,7.189097304693653490e-01
2.746666666666666985e+09,8.126117243161429214e-06,8.049939761010376665e-05,-7.187112733583337354e-01,-4.332150329874767149e-03,8.090850880494081200e-05,7.187243296138222659e-01
2.853333333333333015e+09,1.629608084815014645e-05,8.376492286279093994e-05,-7.187749686658058135e-01,-4.499588557121765066e-03,8.533536519649260294e-05,7.187890524192153130e-01
2.960000000000000000e+09,4.839791365397713028e-06,8.659432705149910090e-05,-7.188087610752922352e-01,-4.674893239472431745e-03,8.672947052739667041e-05,7.188239628903567713e-01
3.066666666666666985e+09,7.033231867652023024e-07,9.042137431032140648e-05,-7.188251879784025578e-01,-4.854006556601946944e-03,9.042410959291937518e-05,7.188415766021309938e-01
3.173333333333333015e+09,1.710901792961876787e-06,9.374589802089601238e-05,-7.188469179225066563e-01,-5.036245160054245856e-03,9.376150905723198135e-05,7.188645596856191311e-01
3.280000000000000000e+09,-4.403648876083852789e-07,9.698335540230849732e-05,-7.188314130751284337e-01,-5.222608187889714315e-03,9.698435516269991426e-05,7.188503850314543753e-01
3.386666666666666508e+09,2.832644925444622427e-07,1.006724215602037111e-04,-7.188387009044872045e-01,-5.409619333399449601e-03,1.006728200735834504e-04,7.188590556565195300e-01
3.493333333333333492e+09,-8.528850341544844575e-07,1.055462598114774355e-04,-7.188714144562483588e-01,-5.597929545168620936e-03,1.055497056986583117e-04,7.188932099675999776e-01
3.600000000000000000e+09,1.052898569138377134e-07,1.123005794589771583e-04,-7.188359336583673986e-01,-5.792534580545453081e-03,1.123006288173668754e-04,7.188592720243396350e-01
3.706666666666666985e+09,-4.502486807507783742e-07,1.207044333618312174e-04,-7.188777269692703253e-01,-5.986567214186100210e-03,1.207052731121357076e-04,7.189026535766263049e-01
3.813333333333333969e+09,1.053879590595444062e-05,1.292926130689313227e-04,-7.188424994821507319e-01,-6.187722537407700472e-03,1.297214169416128137e-04,7.188691306294532346e-01
3.920000000000000000e+09,-2.752498331428193675e-06,1.376155887543107964e-04,-7.189023945227637213e-01,-6.389460473710837501e-03,1.376431128508074308e-04,7.189307880844362231e-01
4.026666666666666985e+09,-1.609352269039998345e-07,1.433707150701401492e-04,-7.188970688924067876e-01,-6.596307674510567230e-03,1.433708053959053814e-04,7.189273307762270582e-01
4.133333333333333015e+09,4.688232871264014008e-07,1.460158714413395441e-04,-7.189041796569362042e-01,-6.807845580273355277e-03,1.460166240811242412e-04,7.189364132450499767e-01
4.240000000000000000e+09,1.102039210451261812e-06,1.459080014646867022e-04,-7.189122209661649165e-01,-7.024085843163986771e-03,1.459121632415899452e-04,7.189465343378713680e-01
4.346666666666666985e+09,1.122558852214829028e-06,1.441279527506569033e-04,-7.189089793855433230e-01,-7.246481024039014632e-03,1.441323242804065587e-04,7.189455001099841480e-01
4.453333333333333015e+09,1.818143761558720122e-06,1.421994862467278848e-04,-7.189318227103160819e-01,-7.472476315094830034e-03,1.422111090441638057e-04,7.189706555958017553e-01
4.560000000000000000e+09,1.771360542120434011e-06,1.414161477080042235e-04,-7.189438693212534259e-01,-7.705781843525423211e-03,1.414272411904518741e-04,7.189851641782573077e-01
4.666666666666666985e+09,1.613349969280314302e-06,1.426670068496690199e-04,-7.189503218061820133e-01,-7.947216929368535257e-03,1.426761288427986542e-04,7.189942444012574763e-01
4.773333333333333015e+09,1.134488177970690540e-06,1.460216713022361335e-04,-7.189742452629309666e-01,-8.194524109318224517e-03,1.460260783330301132e-04,7.190209423770488328e-01
4.880000000000000000e+09,7.728879544674266324e-07,1.512005796137914405e-04,-7.189936668255432206e-01,-8.452061759595435458e-03,1.512025549762193789e-04,7.190433438140069189e-01
4.986666666666666985e+09,5.004968219442138024e-07,1.574276751526788767e-04,-7.190169947630347114e-01,-8.720167779426109614e-03,1.574284707447994080e-04,7.190698714896677224e-01
5.093333333333333969e+09,-5.129801788635542418e-05,1.663467452782066305e-04,-7.190454891044006924e-01,-9.000549071175445795e-03,1.740767827819706770e-04,7.191018184408723979e-01
5.200000000000000000e+09,2.262239763893922627e-07,1.698533671043692031e-04,-7.190810342172521130e-01,-9.295243726477516941e-03,1.698535177556799924e-04,7.191411094680150162e-01
5.306666666666666985e+09,8.048232212805777190e-08,1.748867582588705880e-04,-7.191265436373073250e-01,-9.606545878147744813e-03,1.748867767777221606e-04,7.191907059239913691e-01
5.413333333333333015e+09,-2.271253213856403005e-07,1.787552356328930858e-04,-7.191865372679124846e-01,-9.936575204686749763e-03,1.787553799248647673e-04,7.192551778848789157e-01
5.520000000000000000e+09,-8.317817757920218442e-07,1.814029411954918734e-04,-7.192674714274029935e-01,-1.028611784260636229e-02,1.814048481581945562e-04,7.193410176500725228e-01
5.626666666666666985e+09,-1.881873449288060096e-06,1.828195389263888391e-04,-7.193768132891705802e-01,-1.065316489174326572e-02,1.828292243076487294e-04,7.194556896851208583e-01
5.733333333333333969e+09,-3.579749754791704402e-06,1.829036108092687717e-04,-7.195211073274609959e-01,-1.103280083005745218e-02,1.829386384976541379e-04,7.196056882653800724e-01
5.840000000000000954e+09,-6.284180775247238905e-06,1.813533886865481809e-04,-7.197049243024470355e-01,-1.141845666192357195e-02,1.814622344073559847e-04,7.197954981921818041e-01
5.946666666666666985e+09,-1.068163153365406134e-05,1.776345884105798637e-04,-7.199309602145156362e-01,-1.180298694419258144e-02,1.779554558085164864e-04,7.200277063948298251e-01
6.053333333333333969e+09,-1.800726910248725432e-05,1.710717106287451279e-04,-7.202004163853175100e-01,-1.217915565564853947e-02,1.720168361468565746e-04,7.203033885760008470e-01
6.160000000000000000e+09,-3.027068613002922349e-05,1.610961200512260984e-04,-7.205132853979422380e-01,-1.253981229841668286e-02,1.639154487360535426e-04,7.206223985746045280e-01
6.266666666666666985e+09,-5.041689616361610699e-05,1.476655933783502022e-04,-7.208685209611714884e-01,-1.287795901681917758e-02,1.560352232239666881e-04,7.209835409641373039e-01
6.373333333333333015e+09,-8.233329831386587781e-05,1.318413774551648076e-04,-7.212641290295012109e-01,-1.318678695849051855e-02,1.554378358718213260e-04,7.213846651925542863e-01
6.480000000000000000e+09,-1.306044178764338801e-04,1.164701297352010176e-04,-7.216972081893575641e-01,-1.345971055144765637e-02,1.749937287144219718e-04,7.218227096153471134e-01
6.586666666666666985e+09,-1.999260443710799539e-04,1.068707656204563139e-04,-7.221639560967332283e-01,-1.369041291909245915e-02,2.266975601151665297e-04,7.222937123436556917e-01
6.693333333333333015e+09,-2.941244128643518557e-04,1.113788305503622938e-04,-7.226596532033924269e-01,-1.387291155987632925e-02,3.145066201808254642e-04,7.227928002153837239e-01
6.799999999999999046e+09,-4.147864473738014117e-04,1.415613119583018645e-04,-7.231786339216477177e-01,-1.400165234961858567e-02,4.382777680516489649e-04,7.233141660643044313e-01
6.906666666666666031e+09,-5.595907070320726463e-04,2.118976592811439540e-04,-7.237142568171139878e-01,-1.407163890771485730e-02,5.983664240291919909e-04,7.238510458249658441e-01
7.013333333333333015e+09,-7.205267013538400010e-04,3.387374508818108160e-04,-7.242588882198196520e-01,-1.407860216487372487e-02,7.961794948337673266e-04,7.243957096810595964e-01
7.120000000000000000e+09,-8.822890895600781803e-04,5.384024374570613516e-04,-7.248039166856281579e-01,-1.401921089895818116e-02,1.033591419380238807e-03,7.249394843137297872e-01
7.226666666666666985e+09,-1.021215182941547558e-03,8.244036408626919353e-04,-7.253398178599987922e-01,-1.389131793062945049e-02,1.312448784881909596e-03,7.254728251885290691e-01
7.333333333333333015e+09,-1.105180346150742062e-03,1.203889411361212108e-03,-7.258562894069281457e-01,-1.369422882930963065e-02,1.634250076428182428e-03,7.259854576882540655e-01
7.440000000000000000e+09,-1.094858877110597897e-03,1.673617039797611460e-03,-7.263424726228878692e-01,-1.342897112890300247e-02,1.999927487857696817e-03,7.264666026745562055e-01
7.546666666666666985e+09,-9.466840435807936417e-04,2.215929619386368746e-03,-7.267872703268037915e-01,-1.309853352052584192e-02,2.409679388724628515e-03,7.269052949934227126e-01
7.653333333333333969e+09,-6.176921190903842361e-04,2.795399167659180870e-03,-7.271797593825014561e-01,-1.270803824300217703e-02,2.862830777488605417e-03,7.272907923874593061e-01
7.760000000000000954e+09,-7.220787888105053252e-05,3.356939673858331304e-03,-7.275096813652804917e-01,-1.226480798324969604e-02,3.357716180932596335e-03,7.276130578783464031e-01
7.866666666666666985e+09,6.934172411418421632e-04,3.806759325173626144e-03,-7.278275857190852349e-01,-1.169805208773213104e-02,3.869398406743498713e-03,7.279215884669993919e-01
7.973333333333333969e+09,1.724643891690782506e-03,4.113604322196224433e-03,-7.279473270043888000e-01,-1.125983840797859306e-02,4.460508611440828705e-03,7.280344049932038208e-01
8.080000000000000954e+09,2.934598150675823015e-03,4.121230381812680463e-03,-7.280426095325052138e-01,-1.072228301046740211e-02,5.059289096891564017e-03,7.281215617243156357e-01
8.186666666666667938e+09,4.263088033860653811e-03,3.755402963177234283e-03,-7.280512681184370116e-01,-1.017942025239698157e-02,5.681282513683529913e-03,7.281224276215773061e-01
8.293333333333334923e+09,5.591282412196746723e-03,2.942223607014595593e-03,-7.279734869050257240e-01,-9.645356570388560064e-03,6.318157861799168946e-03,7.280373826528632186e-01
8.399999999999999046e+09,6.762044064930366680e-03,1.646374760861167835e-03,-7.278121746980869000e-01,-9.133837029612137948e-03,6.959582587286444050e-03,7.278694859778379600e-01
8.506666666666666031e+09,7.592139409022833317e-03,-1.097211347378473055e-04,-7.275727442666238831e-01,-8.657610125659097322e-03,7.592932209195979269e-03,7.276242522159043213e-01
8.613333333333332062e+09,7.894200172688742301e-03,-2.230163021152355759e-03,-7.272627152721230503e-01,-8.227903162630337969e-03,8.203171549309107302e-03,7.273092570670571799e-01
8.720000000000000000e+09,7.507986963464169036e-03,-4.538380138446289000e-03,-7.268911946758929155e-01,-7.854063819325891524e-03,8.773070302043160448e-03,7.269336250413960254e-01
8.826666666666666031e+09,6.337663205960315099e-03,-6.784099943754249261e-03,-7.264683069780992763e-01,-7.543397887349912595e-03,9.283856254759095816e-03,7.265074699514884049e-01
8.933333333333332062e+09,4.388203983932562405e-03,-8.668902544820267925e-03,-7.260046529171965135e-01,-7.301200990005324125e-03,9.716285583297401551e-03,7.260413649326844521e-01
9.040000000000000000e+09,1.790800675856089137e-03,-9.891162322789670211e-03,-7.255108669999804638e-01,-7.130949762253082844e-03,1.005196792456186476e-02,7.255459107317573375e-01
9.146666666666666031e+09,-1.194007798928700508e-03,-1.020508314989433674e-02,-7.249973220257647233e-01,-7.034591192657373322e-03,1.027469594295421854e-02,7.250314492611876771e-01
9.253333333333333969e+09,-4.203783850329934936e-03,-9.481413369828214227e-03,-7.244739952826152463e-01,-7.012855482346163141e-03,1.037154752917094670e-02,7.245079364525768284e-01
9.360000000000000000e+09,-6.850059123045161222e-03,-7.746104211135704590e-03,-7.239088334986326645e-01,-7.047690439794214619e-03,1.034047583232940680e-02,7.239431394508040185e-01
9.466666666666666031e+09,-8.710423446043490461e-03,-5.223711733868137939e-03,-7.234360564547981376e-01,-7.191598858687775833e-03,1.015670423355607109e-02,7.234718010213073702e-01
9.573333333333333969e+09,-9.541151869766565513e-03,-2.220829404013610446e-03,-7.229086249938481146e-01,-7.344478685728151983e-03,9.796206523123197549e-03,7.229459325963879524e-01
9.680000000000000000e+09,-9.362785004513804465e-03,7.559274144450647348e-04,-7.224710184799860713e-01,-7.656475549970830421e-03,9.393251263362338913e-03,7.225115875619958494e-01
9.786666666666667938e+09,-8.157733114012931386e-03,3.363300903317721462e-03,-7.220386371210286702e-01,-7.989673418988162829e-03,8.823854176363122789e-03,7.220828403839373300e-01
9.893333333333333969e+09,-6.230629495476320244e-03,5.253225001592958660e-03,-7.216520135593971208e-01,-8.384897822571299800e-03,8.149669737312110682e-03,7.217007241134147932e-01
1.000000000000000000e+10,-3.942502199632525427e-03,6.252720572050509198e-03,-7.213206539602261547e-01,-8.837010396944403740e-03,7.391876496956029628e-03,7.213747837167334698e-01
1.010666666666666794e+10,-1.672207810508534410e-03,6.358775211935527825e-03,-7.210543686597497004e-01,-9.339550949524662304e-03,6.574975373144104421e-03,7.211148520001852136e-01
1.021333333333333397e+10,2.582500101588681204e-04,5.719281521153607786e-03,-7.208633044042747073e-01,-9.884314791192200245e-03,5.725109098170634743e-03,7.209310669651720627e-01
1.031999999999999809e+10,1.637579902131832679e-03,4.584688957522779773e-03,-7.207578247713112285e-01,-1.046073008797540616e-02,4.868371470327363670e-03,7.208337317599986527e-01
1.042666666666666603e+10,2.389299450043274025e-03,3.244708586250972041e-03,-7.207480768003678984e-01,-1.105504129208460806e-02,4.029501913595261511e-03,7.208328545158015910e-01
1.053333333333333206e+10,2.564781945848035663e-03,1.965311252394167599e-03,-7.208430330424527854e-01,-1.164940392901918711e-02,3.231184728321048229e-03,7.209371587716533192e-01
1.064000000000000000e+10,2.310270499137317968e-03,9.392026054490189204e-04,-7.210487958466872405e-01,-1.222116126481223586e-02,2.493882778573687942e-03,7.211523575324553237e-01
1.074666666666666603e+10,1.817490628751632737e-03,2.591783129253580342e-04,-7.213660646681755440e-01,-1.274279808478993685e-02,1.835877333454182534e-03,7.214786054748125732e-01
1.085333333333333206e+10,1.270552048160898326e-03,-8.124379823063539348e-05,-7.217869936410764575e-01,-1.318327401620111861e-02,1.273146912903924720e-03,7.219073783410234757e-01
1.096000000000000000e+10,8.057156144692452678e-04,-1.684250314223857854e-04,-7.222878345063120653e-01,-1.354178847254994440e-02,8.231309996648073554e-04,7.224147672292233757e-01
1.106666666666666603e+10,4.768602970049750961e-04,-9.354079031510185690e-05,-7.228497877042414643e-01,-1.370156574748591233e-02,4.859481683394298963e-04,7.229796321391078751e-01
1.117333333333333397e+10,2.851974830666003389e-04,2.956710372711580112e-05,-7.234170147468843570e-01,-1.374024648357476987e-02,2.867260329484119623e-04,7.235474909076274885e-01
1.128000000000000000e+10,1.969902369207132957e-04,1.317905130712965862e-04,-7.239472879965374030e-01,-1.363156581113265757e-02,2.370103220909890076e-04,7.240756144105425784e-01
1.138666666666666603e+10,1.553216238562801516e-04,2.110469359881762320e-04,-7.243992935225677110e-01,-1.339807081745910192e-02,2.620412487135357900e-04,7.245231844169134350e-01
1.149333333333333397e+10,1.348984683600327724e-04,2.711250264620379546e-04,-7.247458029611990593e-01,-1.307573786895649751e-02,3.028306073367148001e-04,7.248637484594541158e-01
1.160000000000000000e+10,1.291394617573625827e-04,3.262792460182764001e-04,-7.249778797240884476e-01,-1.270463618460571271e-02,3.509061797193606543e-04,7.250891902861453797e-01
1.170666666666666794e+10,1.451991797918613476e-04,3.817620983557585505e-04,-7.251028346396667379e-01,-1.231923370776079156e-02,4.084422866859174273e-04,7.252074767413987377e-01
1.181333333333333397e+10,1.920958152589927301e-04,4.299257298028517243e-04,-7.251373717511484518e-01,-1.194223149647044568e-02,4.708895150526625720e-04,7.252357029292467727e-01
1.192000000000000000e+10,2.713372607128648382e-04,4.533316698514267820e-04,-7.250992727129168536e-01,-1.158371049904959732e-02,5.283308735455881106e-04,7.251917936916597585e-01
1.202666666666666794e+10,3.709904875825927061e-04,4.317344072503607371e-04,-7.250009544407016726e-01,-1.124495874114826190e-02,5.692350483592785709e-04,7.250881553556218773e-01
1.213333333333333397e+10,4.641851556841903540e-04,3.524267455951882676e-04,-7.248470115516271184e-01,-1.092472511003658373e-02,5.828142669567823843e-04,7.249293343313225613e-01
1.224000000000000191e+10,5.156421592986500839e-04,2.216968944188322512e-04,-7.246361315642010359e-01,-1.062496739419536984e-02,5.612809897378755793e-04,7.247140215978008504e-01
1.234666666666666603e+10,4.974454230125572793e-04,6.978555113367829665e-05,-7.243658730302480198e-01,-1.035354233467847100e-02,5.023166053627664725e-04,7.244398621347043488e-01
1.245333333333333206e+10,4.064169137715078887e-04,-5.846161713089016764e-05,-7.240374492302823484e-01,-1.012295846644072940e-02,4.106001320958336804e-04,7.241082116479600206e-01
1.256000000000000000e+10,2.697318584224307368e-04,-1.250512651718679088e-04,-7.236579649442693718e-01,-9.946605113713185425e-03,2.973097616444893353e-04,7.237263192537422007e-01
1.266666666666666603e+10,1.321941887666841162e-04,-1.186308405413085331e-04,-7.232395270694201850e-01,-9.835097157439290014e-03,1.776191990501564113e-04,7.233063961086579896e-01
1.277333333333333206e+10,3.288769497066237001e-05,-5.862351094421583528e-05,-7.227966729817909552e-01,-9.794615125895876628e-03,6.721842393205842243e-05,7.228630333327402679e-01
1.288000000000000000e+10,-1.318090952468273366e-05,1.852604221289880061e-05,-7.223441108403905186e-01,-9.827325407845761973e-03,2.273654802233576370e-05,7.224109569977922307e-01
1.298666666666666603e+10,-1.746414866021462557e-05,8.074152172966526703e-05,-7.218959118018808407e-01,-9.932660218128261387e-03,8.260865462920990868e-05,7.219642409533021388e-01
1.309333333333333397e+10,-4.948731806624734355e-06,1.152147844361054124e-04,-7.214660110145385552e-01,-1.010799509224707439e-02,1.153210149935914269e-04,7.215368158410319088e-01
1.320000000000000000e+10,3.478171524822187399e-06,1.285544497151008955e-04,-7.210688345007711941e-01,-1.034788581165935542e-02,1.286014938432228773e-04,7.211430806913921021e-01
1.330666666666666603e+10,7.445863919989617629e-07,1.351265167231567013e-04,-7.207184810537058395e-01,-1.064232531487564748e-02,1.351285681513302202e-04,7.207970505076090051e-01
1.341333333333333397e+10,-9.277648520814753947e-06,1.451565695088780626e-04,-7.204258276795666438e-01,-1.097593470357490983e-02,1.454527567069855266e-04,7.205094338941064880e-01
1.352000000000000000e+10,-2.006701504586344309e-05,1.616668312732733135e-04,-7.201951871859172405e-01,-1.132999138433440564e-02,1.629074873257577681e-04,7.202843024462822763e-01
1.362666666666666794e+10,-2.656135288934452813e-05,1.836972573033732962e-04,-7.200234086171242165e-01,-1.168669217338320562e-02,1.856076178611589780e-04,7.201182456587096326e-01
1.373333333333333397e+10,-2.495585432545404314e-05,2.080525706925480888e-04,-7.199022867436031259e-01,-1.203258376469848803e-02,2.095439496546989500e-04,7.200028371685235351e-01
1.384000000000000000e+10,-1.384884634202331293e-05,2.289722541989336335e-04,-7.198220094928127200e-01,-1.235902411405029495e-02,2.293906792743463771e-04,7.199281011513043449e-01
