# Frequency, Real(S21), Imag(S21), Real(S11), Imag(S11), Amp(S21), Amp(S11)
2.000000000000000000e+09,3.778693144797619033e-05,5.360695209234565177e-05,-7.197643599832009853e-01,-3.179058723008369551e-03,6.558626000074324407e-05,7.197713805899699224e-01
2.106666666666666746e+09,4.290574059883945366e-05,5.674293131488708660e-05,-7.198096374744541448e-01,-3.353753896123391320e-03,7.113833587132112096e-05,7.198174503763442589e-01
2.213333333333333492e+09,4.430779418359193810e-05,6.722162527523822860e-05,-7.198488941052854084e-01,-3.540664239548244312e-03,8.051041876713902097e-05,7.198576016462281402e-01
2.320000000000000000e+09,4.424506169596065794e-05,7.095144710274163546e-05,-7.199083429293187120e-01,-3.712936502810550154e-03,8.361658525945979913e-05,7.199179176244410172e-01
2.426666666666666508e+09,1.763536150449317294e-05,6.971896507146918965e-05,-7.199535253892995756e-01,-3.873086351683418475e-03,7.191481117287941243e-05,7.199639432071361922e-01
2.533333333333333492e+09,1.477218182113826438e-05,7.432114553188868655e-05,-7.200467608489024007e-01,-4.033469305375728640e-03,7.577499606683556275e-05,7.200580578561939227e-01
2.640000000000000477e+09,9.698774709673715449e-06,8.623833037191549014e-05,-7.189157896096589617e-01,-4.185385457402792525e-03,8.678200191401813516e-05,7.189279727493613770e-01
2.746666666666666985e+09,1.048117849996289493e-05,8.068187819916227137e-05,-7.187795023849602449e-01,-4.331081300082866188e-03,8.135982161050096589e-05,7.187925509588972695e-01
2.853333333333333015e+09,1.579051348163124785e-05,8.382387197990466402e-05,-7.187960702733730001e-01,-4.510471526159985645e-03,8.529819358999945447e-05,7.188102218206360305e-01
2.960000000000000000e+09,4.162503359384979405e-06,8.708023312830673866e-05,-7.188365605900611799e-01,-4.688795974854173022e-03,8.717966182486108209e-05,7.188518523650352376e-01
3.066666666666666985e+09,5.781981597937200796e-07,9.083198493754764352e-05,-7.188259246975516881e-01,-4.871975867816458194e-03,9.083382520188649405e-05,7.188424348674380404e-01
3.173333333333333015e+09,-9.705927402213398712e-07,9.420140416898633911e-05,-7.188622919181395510e-01,-5.055817535147734930e-03,9.420640422856657982e-05,7.188800706882539915e-01
3.280000000000000000e+09,-1.085558006397714746e-06,9.748225163506784403e-05,-7.188505613688245255e-01,-5.243695951818232344e-03,9.748829581046096417e-05,7.188696863323068564e-01
3.386666666666666508e+09,1.005152207343960687e-07,1.012356338406280979e-04,-7.188479974054068355e-01,-5.434105287038556824e-03,1.012356837405829123e-04,7.188685365726019683e-01
3.493333333333333492e+09,-9.849080980114688580e-07,1.061502653006919021e-04,-7.188731144234028481e-01,-5.625592754881709665e-03,1.061548344041325534e-04,7.188951258247940901e-01
3.600000000000000000e+09,-5.415895639206179526e-07,1.129139768924229334e-04,-7.188577765544957865e-01,-5.821742186808176976e-03,1.129152757465453336e-04,7.188813501510266102e-01
3.706666666666666985e+09,-2.363623828819942241e-07,1.214229351426654154e-04,-7.188519936463302340e-01,-6.021868878033149325e-03,1.214231651944387957e-04,7.188772159931678951e-01
3.813333333333333969e+09,-1.185526181151385029e-06,1.304132650732544565e-04,-7.188738757369040888e-01,-6.225121403340067201e-03,1.304186534947862630e-04,7.189008285942395382e-01
3.920000000000000000e+09,-7.184745346631128024e-07,1.384917596587686148e-04,-7.188942660897362780e-01,-6.431895777402351667e-03,1.384936233154403630e-04,7.189230383705838001e-01
4.026666666666666985e+09,-1.665451594961921465e-07,1.442223669706273908e-04,-7.189013033419419108e-01,-6.644124863165258403e-03,1.442224631321364849e-04,7.189320053676425681e-01
4.133333333333333015e+09,5.425687574423766794e-07,1.469176735512617651e-04,-7.189092950733689813e-01,-6.861367589534970481e-03,1.469186754043599137e-04,7.189420372381121194e-01
4.240000000000000000e+09,1.254304268171325780e-06,1.468571968392330034e-04,-7.189184243052205714e-01,-7.084095628835634061e-03,1.468625532349018370e-04,7.189533261738063619e-01
4.346666666666666985e+09,1.800732215358676148e-06,1.451319755054040518e-04,-7.189289224402209966e-01,-7.312877155384263361e-03,1.451431464128176906e-04,7.189661144263663761e-01
4.453333333333333015e+09,2.064314585451180301e-06,1.432079807013182627e-04,-7.189410867009119466e-01,-7.548406368514415724e-03,1.432228582707971572e-04,7.189807122485223356e-01
4.560000000000000000e+09,2.017966753541416668e-06,1.424207445408015517e-04,-7.189553062075711987e-01,-7.791536804126512721e-03,1.424350401599783710e-04,7.189975245922565206e-01
4.666666666666666985e+09,2.279784443627444070e-06,1.435931045335639260e-04,-7.189861972553086567e-01,-8.044212455466050529e-03,1.436112011184936083e-04,7.190311962618022301e-01
4.773333333333333015e+09,1.309547781189324908e-06,1.469130468246775524e-04,-7.189921924677147302e-01,-8.305056887988413600e-03,1.469188832066903511e-04,7.190401565972821540e-01
4.880000000000000000e+09,8.938065900389031638e-07,1.519638926320566444e-04,-7.190165983434383401e-01,-8.578349113640701754e-03,1.519665211620889770e-04,7.190677692449334302e-01
4.986666666666666985e+09,5.599412101990977596e-07,1.579953221321650936e-04,-7.190468306484893990e-01,-8.865166561935946404e-03,1.579963143551313994e-04,7.191014781265633315e-01
5.093333333333333969e+09,3.168908089642347721e-07,1.641580712742220617e-04,-7.190852198740947943e-01,-9.167866501479939381e-03,1.641583771370117202e-04,7.191436596519252822e-01
5.200000000000000000e+09,9.840584649390788781e-08,1.697156012154311423e-04,-7.191354773374076803e-01,-9.489021958060703948e-03,1.697156297446581104e-04,7.191980786285665506e-01
5.306666666666666985e+09,-2.208180728724718701e-07,1.741496974652929745e-04,-7.192033913209163742e-01,-9.830639119168422049e-03,1.741498374615215599e-04,7.192705746469811867e-01
5.413333333333333015e+09,-8.042579023416253708e-07,1.771549429738741475e-04,-7.192967645399133136e-01,-1.019245383502430553e-02,1.771567685719348370e-04,7.193689745831178817e-01
5.520000000000000000e+09,-1.852735346999939505e-06,1.785399840771430084e-04,-7.194235625979430448e-01,-1.057067416039270472e-02,1.785495968702603979e-04,7.195012172146213469e-01
5.626666666666666985e+09,-3.659860619779502265e-06,1.780794087762446927e-04,-7.195898876575224090e-01,-1.095883188528691023e-02,1.781170132521120702e-04,7.196733303487462541e-01
5.733333333333333969e+09,-6.751378526608498823e-06,1.753870599733781718e-04,-7.197995618541339624e-01,-1.134934030836961052e-02,1.755169562125406173e-04,7.198890308727022846e-01
5.840000000000000954e+09,-1.210442450567797613e-05,1.698898635158019668e-04,-7.200545411797960593e-01,-1.173435088990048766e-02,1.703205296434680629e-04,7.201501491109016939e-01
5.946666666666666985e+09,-2.140747496300780069e-05,1.609671835763300328e-04,-7.203553187322442319e-01,-1.210606250450356816e-02,1.623844640745774682e-04,7.204570368697886806e-01
6.053333333333333969e+09,-3.729071037953734320e-05,1.482949023084424137e-04,-7.207011707795882849e-01,-1.245682626935591328e-02,1.529116579312415111e-04,7.208088165968659089e-01
6.160000000000000000e+09,-6.343054825635693374e-05,1.323975876431058066e-04,-7.210902891350116084e-01,-1.277919239142226090e-02,1.468078869332840246e-04,7.212035169374810817e-01
6.266666666666666985e+09,-1.039087380846768680e-04,1.154921796175581569e-04,-7.214499723858106561e-01,-1.306495774567211290e-02,1.553559442157405671e-04,7.215682613421845470e-01
6.373333333333333015e+09,-1.652712945376900381e-04,1.016399823920360402e-04,-7.219859981834444440e-01,-1.331016671994643581e-02,1.940239336237086258e-04,7.221086774932548025e-01
6.480000000000000000e+09,-2.505455703158125007e-04,9.870547174435786260e-05,-7.224839020968416570e-01,-1.350527466848186128e-02,2.692876769500453346e-04,7.226101170291970854e-01
6.586666666666666985e+09,-3.629660127293036077e-04,1.174940015036451870e-04,-7.230076582172723088e-01,-1.364515202183914575e-02,3.815090651425566957e-04,7.231364076123696361e-01
6.693333333333333015e+09,-5.017064245437805395e-04,1.722616026243285270e-04,-7.235502910106472729e-01,-1.372426850115059278e-02,5.304558380932443157e-04,7.236804399508695029e-01
6.799999999999999046e+09,-6.604571697520153235e-04,2.797208419789570539e-04,-7.241037240543671816e-01,-1.373786546548463189e-02,7.172499024149526494e-04,7.242340313303089472e-01
6.906666666666666031e+09,-8.255827742262276687e-04,4.572586135131631157e-04,-7.246587886769694231e-01,-1.368218526141615904e-02,9.437543942843682745e-04,7.247879429186859790e-01
7.013333333333333015e+09,-9.747569886555983772e-04,7.201732743500955432e-04,-7.252052863825053652e-01,-1.355474409282934889e-02,1.211940894607104217e-03,7.253319505471641504e-01
7.120000000000000000e+09,-1.076529951311927785e-03,1.078014764310617369e-03,-7.257321292069707219e-01,-1.335463510663054826e-02,1.523493540565019075e-03,7.258549921589810827e-01
7.226666666666666985e+09,-1.091292819498188710e-03,1.530299539944888869e-03,-7.262275794462696998e-01,-1.308283725280062239e-02,1.879557580880097728e-03,7.263454121690114951e-01
7.333333333333333015e+09,-9.740443284082759157e-04,2.062082045458087619e-03,-7.266796023742391197e-01,-1.274249428762524831e-02,2.280557983456009234e-03,7.267913150743151585e-01
7.440000000000000000e+09,-6.792191816399442998e-04,2.640073703229171669e-03,-7.270763320454646239e-01,-1.233911958981860103e-02,2.726046194617734019e-03,7.271810273191529062e-01
7.546666666666666985e+09,-1.676030027885392574e-04,3.210181207893496140e-03,-7.274066316829539414e-01,-1.188067923660220300e-02,3.214553492175278599e-03,7.275036483451224889e-01
7.653333333333333969e+09,5.849699975774623299e-04,3.697457032893360692e-03,-7.276607091547647732e-01,-1.137751113498018836e-02,3.743444724870176321e-03,7.277496516022813333e-01
7.760000000000000954e+09,1.577860999857713057e-03,4.009474197790099254e-03,-7.278307288094297833e-01,-1.084205323447584926e-02,4.308773453967676935e-03,7.279114780779355476e-01
7.866666666666666985e+09,2.776039975877326108e-03,4.044008215001563405e-03,-7.279113484445600690e-01,-1.028837852656850835e-02,4.905140200918737918e-03,7.279840533466950259e-01
7.973333333333333969e+09,4.102452643502607459e-03,3.701550656056114014e-03,-7.279001095769561669e-01,-9.731564924622218907e-03,5.525540240694205678e-03,7.279651591099858265e-01
8.080000000000000954e+09,5.434659802797002157e-03,2.902511900617193649e-03,-7.277976226838781537e-01,-9.186957917189757239e-03,6.161177038956272556e-03,7.278556036605590140e-01
8.186666666666667938e+09,6.608425468997657787e-03,1.607899918017056343e-03,-7.276075159382440205e-01,-8.669406694856336693e-03,6.801222634619173181e-03,7.276591618761236724e-01
8.293333333333334923e+09,7.430841806334550007e-03,-1.592353106789029353e-04,-7.273361517582523916e-01,-8.192562713217211440e-03,7.432547735126651678e-03,7.273822899537172315e-01
8.399999999999999046e+09,7.704664326212011354e-03,-2.296087812518974886e-03,-7.269921524051691231e-01,-7.768322000724600315e-03,8.039519365136336276e-03,7.270336556758618674e-01
8.506666666666666031e+09,7.263391071180996111e-03,-4.612234190924897198e-03,-7.265858063279543311e-01,-7.406468195881586378e-03,8.604042891853135727e-03,7.266235543446002421e-01
8.613333333333332062e+09,6.013085184510500239e-03,-6.838352833189616925e-03,-7.261284439587372130e-01,-7.114538109317414608e-03,9.106056386129626062e-03,7.261632969094802270e-01
8.720000000000000000e+09,3.972476720949864870e-03,-8.656661550425418308e-03,-7.256318709903080144e-01,-6.897891596676225534e-03,9.524618653631357693e-03,7.256646560949310265e-01
8.826666666666666031e+09,1.298981010484561186e-03,-9.753437232673561191e-03,-7.251079284006529679e-01,-6.759932225706954609e-03,9.839557384217156866e-03,7.251394379794706690e-01
8.933333333333332062e+09,-1.712588045523212501e-03,-9.886173201060782442e-03,-7.245682147357342950e-01,-6.702402487026243652e-03,1.003341309699951577e-02,7.245992133617226161e-01
9.040000000000000000e+09,-4.667201737515027510e-03,-8.949345936535684984e-03,-7.240239654695763694e-01,-6.725675367625355908e-03,1.009324351982310297e-02,7.240552032016902562e-01
9.146666666666666031e+09,-7.140669736660920294e-03,-7.017680286709303966e-03,-7.234860499114526000e-01,-6.828983717952449503e-03,1.001184303185649778e-02,7.235182785770494229e-01
9.253333333333333969e+09,-8.769118555615487004e-03,-4.348599784503886199e-03,-7.229650311611374169e-01,-7.010563725748800504e-03,9.788143865321303344e-03,7.229990209437197057e-01
9.360000000000000000e+09,-9.331546383140491147e-03,-1.337304542477049055e-03,-7.224712451895261012e-01,-7.267721781712571834e-03,9.426883967676281603e-03,7.225077992005350946e-01
9.466666666666666031e+09,-8.799710485565537949e-03,1.565540342264267306e-03,-7.220148834637661883e-01,-7.596847450414363247e-03,8.937886841587836667e-03,7.220548483559824371e-01
9.573333333333333969e+09,-7.339980888861541083e-03,3.949992177578898894e-03,-7.216060907057951779e-01,-7.993381648650757162e-03,8.335331886121101486e-03,7.216503615282688910e-01
9.680000000000000000e+09,-5.268147402992719858e-03,5.529324698059850766e-03,-7.212550955079632953e-01,-8.451716531005206562e-03,7.637199007243009041e-03,7.213046127043148958e-01
9.786666666666667938e+09,-2.972770354627968497e-03,6.187743048719695702e-03,-7.209723691312835969e-01,-8.964970495313688559e-03,6.864803538218250401e-03,7.210281046857728304e-01
9.893333333333333969e+09,-8.298255621810039697e-04,5.984934197949071111e-03,-7.207687600408743123e-01,-9.524564764630993191e-03,6.042188992197224107e-03,7.208316882496322853e-01
1.000000000000000000e+10,8.698480186946776389e-04,5.121863747033844443e-03,-7.206554876578744606e-01,-1.011953898379707069e-02,5.195201999807767812e-03,7.207265341033681771e-01
1.010666666666666794e+10,1.965616915119332633e-03,3.880876686402166126e-03,-7.206438055741939408e-01,-1.073559238382487679e-02,4.350270533204009422e-03,7.207237664017249745e-01
1.021333333333333397e+10,2.438560519559030120e-03,2.556597535305055353e-03,-7.207440752117536542e-01,-1.135394330270961261e-02,3.533096144330053878e-03,7.208334994860929879e-01
1.031999999999999809e+10,2.391094661756219993e-03,1.393505228255948391e-03,-7.209639616957441710e-01,-1.195028978769725053e-02,2.767524255116069268e-03,7.210629955073498687e-01
1.042666666666666603e+10,2.002415719770010098e-03,5.430269564544293846e-04,-7.213055588751909886e-01,-1.249443729161484572e-02,2.074740222345488640e-03,7.214137649279266373e-01
1.053333333333333206e+10,1.261117943107168283e-03,4.968542653554586588e-05,-7.217616044059756986e-01,-1.295146445144566665e-02,1.262096314881266989e-03,7.218777971555332407e-01
1.064000000000000000e+10,9.715582414454602750e-04,-1.455067258024374645e-04,-7.223929119316405689e-01,-1.324992960136423502e-02,9.823938231556328740e-04,7.225144149728198739e-01
1.074666666666666603e+10,5.677687036357024000e-04,-1.298142164403195660e-04,-7.230503919518224132e-01,-1.338662307766868946e-02,5.824199787251294058e-04,7.231743019349536894e-01
1.085333333333333206e+10,3.444114272953088698e-04,-2.521714856665345852e-05,-7.235381389636958982e-01,-1.347556858177932464e-02,3.453333691281867523e-04,7.236636162497398495e-01
1.096000000000000000e+10,2.222028923930623981e-04,8.731330756629686243e-05,-7.241113558753247137e-01,-1.331900621985098246e-02,2.387419926741201194e-04,7.242338376755711460e-01
1.106666666666666603e+10,1.671133359183731525e-04,1.751793904518427847e-04,-7.245911112785808905e-01,-1.302212179404562201e-02,2.421047002452579762e-04,7.247081165544840831e-01
1.117333333333333397e+10,1.413335325648509670e-04,2.387580703064314056e-04,-7.249453847001640083e-01,-1.262736989667119329e-02,2.774537503147337801e-04,7.250553504861378951e-01
1.128000000000000000e+10,1.293912201066380161e-04,2.922738764314434905e-04,-7.251639248355606915e-01,-1.218217050269016812e-02,3.196343327694118621e-04,7.252662429488024864e-01
1.138666666666666603e+10,1.340368973562589363e-04,3.461878950225006908e-04,-7.252556050205308802e-01,-1.172728230598827324e-02,3.712303173408689231e-04,7.253504130859653731e-01
1.149333333333333397e+10,1.657240706965745856e-04,3.989939983530393919e-04,-7.252400738661350932e-01,-1.128979135423296802e-02,4.320424496851998789e-04,7.253279424716652102e-01
1.160000000000000000e+10,2.320421188999937853e-04,4.363196546656040705e-04,-7.251381181760734318e-01,-1.088263359162325826e-02,4.941845667269576230e-04,7.252197750653428532e-01
1.170666666666666794e+10,3.282665348910859229e-04,4.353197733082754171e-04,-7.249647924601807514e-01,-1.050939848408232423e-02,5.452175923084001024e-04,7.250409628175019661e-01
1.181333333333333397e+10,4.310671578927518632e-04,3.755541798702301498e-04,-7.247274723366164961e-01,-1.017129742118984097e-02,5.717165701916779438e-04,7.247988441289427985e-01
1.192000000000000000e+10,5.018993718134144620e-04,2.547493176171894088e-04,-7.244286407095100744e-01,-9.872752501417086934e-03,5.628500637408897838e-04,7.244959121500843535e-01
1.202666666666666794e+10,5.041977946397662716e-04,9.929198355175885855e-05,-7.240710180894621706e-01,-9.623097967757279422e-03,5.138816148854195940e-04,7.241349620420266531e-01
1.213333333333333397e+10,4.260936075090041497e-04,-4.272836458554986208e-05,-7.236616542325702284e-01,-9.434301314626985027e-03,4.282306335378086243e-04,7.237231486196328278e-01
1.224000000000000191e+10,2.910620023021215732e-04,-1.255513630968389772e-04,-7.232128121864520587e-01,-9.317045256845804535e-03,3.169861731362971324e-04,7.232728247645935360e-01
1.234666666666666603e+10,1.463322648813379406e-04,-1.305754585576092994e-04,-7.227400749462316032e-01,-9.277996442785454295e-03,1.961200706782250584e-04,7.227996244819699934e-01
1.245333333333333206e+10,3.685270418491012282e-05,-7.416223363094373252e-05,-7.222598245821022500e-01,-9.319423778250976106e-03,8.281400064524822890e-05,7.223199470213512718e-01
1.256000000000000000e+10,-1.697642041673433876e-05,5.685386409054077079e-06,-7.217879566075640074e-01,-9.440300378510249613e-03,1.790314131056255003e-05,7.218496890454128012e-01
1.266666666666666603e+10,-2.425925768058268136e-05,7.289650028602904933e-05,-7.213402042465604236e-01,-9.637129103539275599e-03,7.682715234319142169e-05,7.214045775567464736e-01
1.277333333333333206e+10,-1.082478308255564465e-05,1.110677823165725516e-04,-7.209329168713829450e-01,-9.903146902781505626e-03,1.115940329834258212e-04,7.210009313081768845e-01
1.288000000000000000e+10,-6.290676153380622693e-09,1.252377349916855359e-04,-7.205822509943201615e-01,-1.022605471082494409e-02,1.252377351496754764e-04,7.206548082424693025e-01
1.298666666666666603e+10,-1.253502584772745614e-06,1.302626509708049510e-04,-7.203004474006644564e-01,-1.058656432173818093e-02,1.302686819871598403e-04,7.203782408358373468e-01
1.309333333333333397e+10,-1.193054800536203197e-05,1.383049811697919889e-04,-7.200908882317018644e-01,-1.096083277343301923e-02,1.388186075138515602e-04,7.201743033248330095e-01
1.320000000000000000e+10,-2.476277081032728347e-05,1.546440015448393216e-04,-7.199463440947361237e-01,-1.132673395829974020e-02,1.566140543885032651e-04,7.200354389039045344e-01
1.330666666666666603e+10,-3.224191298839283238e-05,1.788887507353298986e-04,-7.198525930980329557e-01,-1.166942735005297230e-02,1.817710815635922026e-04,7.199471725929899035e-01
1.341333333333333397e+10,-2.886961541322435914e-05,2.057580296951527267e-04,-7.197942053736894330e-01,-1.198222314770383545e-02,2.077734859844701867e-04,7.198939309100350625e-01
1.352000000000000000e+10,-1.450889936803090945e-05,2.268767966938174587e-04,-7.197579395245754519e-01,-1.226375420435777200e-02,2.273402494916362826e-04,7.198624112813831744e-01
1.362666666666666794e+10,4.292744578366341883e-06,2.361909380793586857e-04,-7.197327190335007785e-01,-1.251521338909699320e-02,2.362299449409886742e-04,7.198415224294377746e-01
1.373333333333333397e+10,1.886507423486746289e-05,2.347959861799652902e-04,-7.197084225020250470e-01,-1.273990679812368743e-02,2.355526398750595787e-04,7.198211712957449659e-01
1.384000000000000000e+10,2.515157626345798972e-05,2.292703421642088371e-04,-7.196761290963590296e-01,-1.294446211555278989e-02,2.306458141493791239e-04,7.197925325332156232e-01
