# Frequency, Real(S21), Imag(S21), Real(S11), Imag(S11), Amp(S21), Amp(S11)
2.000000000000000000e+09,4.606943030513594697e-05,5.599947069026717532e-05,-7.197431663453620621e-01,-3.184809371229346993e-03,7.251436496467351760e-05,7.197502125818224794e-01
2.106666666666666746e+09,3.641656150608710160e-05,6.076252644858826687e-05,-7.197486667421471029e-01,-3.371306828157498870e-03,7.083961160496303532e-05,7.197565623089711151e-01
2.213333333333333492e+09,4.385770500531099034e-05,6.742562505550022322e-05,-7.198304035115782318e-01,-3.544069221036204483e-03,8.043452742732923755e-05,7.198391280322882224e-01
2.320000000000000000e+09,4.409057169077094203e-05,7.092565642861201774e-05,-7.199019402055854000e-01,-3.707269104522658773e-03,8.351303641856476306e-05,7.199114857786196309e-01
2.426666666666666508e+09,2.785719112985472843e-05,7.209228487048545029e-05,-7.199899609795017419e-01,-3.861033154744296630e-03,7.728726049933768436e-05,7.200003135334640536e-01
2.533333333333333492e+09,1.670364864968114686e-05,7.455722537373119061e-05,-7.200329474333276858e-01,-4.035029289270287284e-03,7.640544308909765045e-05,7.200442533975883741e-01
2.640000000000000477e+09,9.477582801991188933e-06,8.667072705635442062e-05,-7.189301520593772699e-01,-4.185670907908988284e-03,8.718738156548621525e-05,7.189423366175263785e-01
2.746666666666666985e+09,8.116108648152020523e-06,8.051823477416819564e-05,-7.187112837339416638e-01,-4.333048808390977356e-03,8.092624636504943184e-05,7.187243454054317304e-01
2.853333333333333015e+09,1.622888341276050358e-05,8.378939069794252479e-05,-7.187809321197347057e-01,-4.500464743198949458e-03,8.534657960549695845e-05,7.187950212416746032e-01
2.960000000000000000e+09,4.831018797961488586e-06,8.661922365744750742e-05,-7.188088007927749823e-01,-4.676022285948951314e-03,8.675383939426064281e-05,7.188240099506735259e-01
3.066666666666666985e+09,6.943649684206114160e-07,9.045017554032018427e-05,-7.188252387052800341e-01,-4.855260735164089458e-03,9.045284074026700412e-05,7.188416357978363314e-01
3.173333333333333015e+09,1.701289515640251767e-06,9.377681607680121950e-05,-7.188469836507610511e-01,-5.037643893692330711e-03,9.379224711839582746e-05,7.188646352129148820e-01
3.280000000000000000e+09,-4.498133369976270479e-07,9.701863803338061677e-05,-7.188314880219234260e-01,-5.224165350431529513e-03,9.701968077606867001e-05,7.188504712910893657e-01
3.386666666666666508e+09,-3.322720159077893505e-07,1.006827950968551587e-04,-7.188416365022561871e-01,-5.411128207695932793e-03,1.006833433751972519e-04,7.188620025274127245e-01
3.493333333333333492e+09,-8.625222596429176598e-07,1.055886455470990588e-04,-7.188715306897007773e-01,-5.599851385533300037e-03,1.055921683323119445e-04,7.188933411652200789e-01
3.600000000000000000e+09,9.592680940704671665e-08,1.123468995369516924e-04,-7.188360614162990769e-01,-5.794672891687580388e-03,1.123469404902451290e-04,7.188594170117124094e-01
3.706666666666666985e+09,-4.597509239361406914e-07,1.207543280514813413e-04,-7.188778908811167545e-01,-5.988946596686016768e-03,1.207552032588113036e-04,7.189028373007168016e-01
3.813333333333333969e+09,1.005338152667782315e-05,1.294485710878211552e-04,-7.188626318397709491e-01,-6.189138107270174792e-03,1.298383727439605202e-04,7.188892744269543833e-01
3.920000000000000000e+09,-2.758980328879995206e-06,1.376717088952125951e-04,-7.189026350807480314e-01,-6.392413359946660587e-03,1.376993514965967730e-04,7.189310548825996738e-01
4.026666666666666985e+09,-1.622694993174382154e-07,1.434309708816338509e-04,-7.188973539143559410e-01,-6.599602124071976203e-03,1.434310626727645368e-04,7.189276460209739206e-01
4.133333333333333015e+09,4.728594073713239776e-07,1.460798931133649428e-04,-7.189045225043760867e-01,-6.811525109973389468e-03,1.460806584323580718e-04,7.189367909291948244e-01
4.240000000000000000e+09,1.111370743244129639e-06,1.459756907536823728e-04,-7.189126347185942345e-01,-7.028201565087210945e-03,1.459799213451755742e-04,7.189469882927881361e-01
4.346666666666666985e+09,1.136146054290680954e-06,1.441988498794805973e-04,-7.189094817118361069e-01,-7.251101383829086817e-03,1.442033256704631735e-04,7.189460489956526201e-01
4.453333333333333015e+09,1.833677130640123720e-06,1.422724794372972452e-04,-7.189324332883781921e-01,-7.477654883013997236e-03,1.422842956093735495e-04,7.189713199818875689e-01
4.560000000000000000e+09,1.786807040255252220e-06,1.414897904780162551e-04,-7.189446175163616282e-01,-7.711611217431330045e-03,1.415010723949187944e-04,7.189859748307447784e-01
4.666666666666666985e+09,1.519795039170494756e-06,1.427021024436024869e-04,-7.189587792511524800e-01,-7.952729796334646190e-03,1.427101952166890807e-04,7.190027622850422295e-01
4.773333333333333015e+09,1.376206414036726741e-06,1.461286583975785164e-04,-7.189714111658438433e-01,-8.202974566494368805e-03,1.461351386531323877e-04,7.190182048220639111e-01
4.880000000000000000e+09,7.799151203388103644e-07,1.512625959627625545e-04,-7.189951188005117011e-01,-8.460538601780085918e-03,1.512646065839226247e-04,7.190448953802496268e-01
4.986666666666666985e+09,5.038183709953984815e-07,1.574790839226262009e-04,-7.190188529610965773e-01,-8.729849816601072815e-03,1.574798898464832564e-04,7.190718470301222798e-01
5.093333333333333969e+09,3.330703466283066354e-07,1.639140186504186691e-04,-7.190479122049217020e-01,-9.011660892344886681e-03,1.639143570465552478e-04,7.191043805166921210e-01
5.200000000000000000e+09,2.191236367056435876e-07,1.698652346090990758e-04,-7.190842698726833682e-01,-9.308055433833492542e-03,1.698653759421631972e-04,7.191445105639682200e-01
5.306666666666666985e+09,6.373577252342620928e-08,1.748645984512733984e-04,-7.191309889746688722e-01,-9.621356315286809860e-03,1.748646100666849661e-04,7.191953488455212762e-01
5.413333333333333015e+09,-2.594209176828084730e-07,1.786843412781280167e-04,-7.191928135870522265e-01,-9.953631961188289662e-03,1.786845295967478566e-04,7.192616894458366827e-01
5.520000000000000000e+09,-8.886318734035812904e-07,1.812620141759416843e-04,-7.192764223564536152e-01,-1.030544358320477014e-02,1.812641924091068675e-04,7.193502442658555873e-01
5.626666666666666985e+09,-1.977822914228182888e-06,1.825763322822180116e-04,-7.193893262066780592e-01,-1.067442756157240859e-02,1.825870447022650341e-04,7.194685163812698514e-01
5.733333333333333969e+09,-3.742103939866459780e-06,1.825089536298825615e-04,-7.195379184195422884e-01,-1.105538472159913431e-02,1.825473130368436515e-04,7.196228439779204233e-01
5.840000000000000954e+09,-6.567950372596890161e-06,1.807370091602283359e-04,-7.197265695192260893e-01,-1.144159884773877055e-02,1.808563088539665898e-04,7.198175081616908777e-01
5.946666666666666985e+09,-1.119263983629666088e-05,1.767084314797426174e-04,-7.199578007332673169e-01,-1.182585528346514342e-02,1.770625452842467852e-04,7.200549185234891292e-01
6.053333333333333969e+09,-1.893051368644976448e-05,1.697469424777347689e-04,-7.202326666165091984e-01,-1.220088012683930891e-02,1.707992647202330818e-04,7.203360018334480364e-01
6.160000000000000000e+09,-3.189750013156929308e-05,1.593191798551661035e-04,-7.205510291533339107e-01,-1.255949752747561807e-02,1.624809268325554221e-04,7.206604794159808813e-01
6.266666666666666985e+09,-5.316098824785729898e-05,1.454762256194032204e-04,-7.209117179506576711e-01,-1.289469088119697161e-02,1.548851926168422677e-04,7.210270300976865387e-01
6.373333333333333015e+09,-8.672303486384144462e-05,1.294510176428248006e-04,-7.213126147709343350e-01,-1.319963817499404321e-02,1.558154380822323942e-04,7.214333778497035166e-01
6.480000000000000000e+09,-1.372378143873925521e-04,1.143527831778278934e-04,-7.217506893091463205e-01,-1.346774743007250232e-02,1.786358774668284045e-04,7.218763313331918452e-01
6.586666666666666985e+09,-2.093768938651577229e-04,1.058513821771870462e-04,-7.222220022768514047e-01,-1.369270469795545384e-02,2.346128700507336441e-04,7.223517915356268970e-01
6.693333333333333015e+09,-3.067934061483697933e-04,1.126967008065217751e-04,-7.227216868598121957e-01,-1.386854357890460188e-02,3.268374832065521515e-04,7.228547386290640198e-01
6.799999999999999046e+09,-4.307004229390893561e-04,1.468809919969348487e-04,-7.232439188705056532e-01,-1.398974429867186169e-02,4.550570075604968559e-04,7.233792083884557078e-01
6.906666666666666031e+09,-5.781654924222892015e-04,2.232380135516955251e-04,-7.237818876037750426e-01,-1.405136926583201197e-02,6.197665264617113583e-04,7.239182701117083951e-01
7.013333333333333015e+09,-7.403232619468188159e-04,3.582928601804874578e-04,-7.243277823689198147e-01,-1.404923961687675610e-02,8.224672065413261542e-04,7.244640208079968779e-01
7.120000000000000000e+09,-9.008066824616903310e-04,5.682398869022403480e-04,-7.248728126765334734e-01,-1.398015285099137549e-02,1.065058330906954419e-03,7.250076132230101056e-01
7.226666666666666985e+09,-1.034776467933929290e-03,8.660355028380678673e-04,-7.254072820721454429e-01,-1.384213528964410578e-02,1.349362749880773579e-03,7.255393370401593822e-01
7.333333333333333015e+09,-1.108969247394642763e-03,1.257743806689269172e-03,-7.259207353545341634e-01,-1.363471488013838495e-02,1.676822076110716809e-03,7.260487720997331751e-01
7.440000000000000000e+09,-1.083169915269631281e-03,1.738453688916870646e-03,-7.264021953403062559e-01,-1.335919083019354060e-02,2.048286672771635133e-03,7.265250287325646372e-01
7.546666666666666985e+09,-9.134299022454610674e-04,2.288277264309622385e-03,-7.268404976287760055e-01,-1.301886805648757098e-02,2.463852070371206574e-03,7.269570825837787797e-01
7.653333333333333969e+09,-5.571927399400766322e-04,2.869117175594165531e-03,-7.272247197631790394e-01,-1.261921852741773771e-02,2.922720841396141741e-03,7.273341994646457254e-01
7.760000000000000954e+09,1.975142884661287845e-05,3.423028382084920829e-03,-7.275446857984888549e-01,-1.216793050643284746e-02,3.423085366084286339e-03,7.276464308758967547e-01
7.866666666666666985e+09,8.348779715854782318e-04,3.873068946085501084e-03,-7.277915104874981278e-01,-1.167481242799497769e-02,3.962030324034703649e-03,7.278851447741621072e-01
7.973333333333333969e+09,1.879891402744227578e-03,4.127499814429905212e-03,-7.279581325421111693e-01,-1.115153160287134758e-02,4.535443352554473576e-03,7.280435422358251252e-01
8.080000000000000954e+09,3.112270121457639833e-03,4.088011994397526029e-03,-7.280397773618459967e-01,-1.061118826030778804e-02,5.137904959733683580e-03,7.281171023519376062e-01
8.186666666666667938e+09,4.449086954625832910e-03,3.662273477500742249e-03,-7.280342898516934946e-01,-1.006775004400388591e-02,5.762518698783297179e-03,7.281038983488608007e-01
8.293333333333334923e+09,5.765206905937052088e-03,2.780432083435704742e-03,-7.279422890668669766e-01,-9.535395939808571572e-03,6.400657250537860991e-03,7.280047389870748509e-01
8.399999999999999046e+09,6.898170727239019348e-03,1.414230368198193984e-03,-7.277671179895439657e-01,-9.027836982659492859e-03,7.041648025602479516e-03,7.278231102866906665e-01
8.506666666666666031e+09,7.661853004038138466e-03,-4.039076616791830235e-04,-7.275145902843001000e-01,-8.557688876274742798e-03,7.672491958591510022e-03,7.275649202067373533e-01
8.613333333333332062e+09,7.828960932836899131e-03,-2.575447463626296448e-03,-7.271948979676533531e-01,-8.063030339070558633e-03,8.241696362144479079e-03,7.272395974425722720e-01
8.720000000000000000e+09,7.369121038877778779e-03,-4.882610619373813424e-03,-7.268104158133262827e-01,-7.771755006709792427e-03,8.839899962446015266e-03,7.268519661599771586e-01
8.826666666666666031e+09,6.060454083194067795e-03,-7.093108042310004337e-03,-7.263335991379407108e-01,-7.462175808491874722e-03,9.329591920035221544e-03,7.263719304216481598e-01
8.933333333333332062e+09,4.014117738724551354e-03,-8.894422152712151003e-03,-7.259073643494190486e-01,-7.241950452054476788e-03,9.758272728869581136e-03,7.259434877888707449e-01
9.040000000000000000e+09,1.335718892176869337e-03,-9.987959566218465590e-03,-7.254078636413986425e-01,-7.084611130645230952e-03,1.007687854721556024e-02,7.254424583298459961e-01
9.146666666666666031e+09,-1.678832156004324370e-03,-1.014179051044763503e-02,-7.248903445857329819e-01,-7.001798890983830168e-03,1.027980506458365910e-02,7.249241593858853916e-01
9.253333333333333969e+09,-4.654214558807667941e-03,-9.249779628590507410e-03,-7.243648097572062960e-01,-6.994072121498247710e-03,1.035471565697992577e-02,7.243985744460257337e-01
9.360000000000000000e+09,-7.183353061999281537e-03,-7.372679423361720719e-03,-7.238408859284636288e-01,-7.061058932709383083e-03,1.029353987183203104e-02,7.238753253806585741e-01
9.466666666666666031e+09,-8.908602521649390191e-03,-4.743802815711617264e-03,-7.233279271287422763e-01,-7.201614102652700855e-03,1.009291157412425463e-02,7.233637766781293443e-01
9.573333333333333969e+09,-9.599406298885723027e-03,-1.732311842162329724e-03,-7.228351416667547769e-01,-7.413876127441558841e-03,9.754460805681815921e-03,7.228731614796820582e-01
9.680000000000000000e+09,-9.187589329321404694e-03,1.219972253017657547e-03,-7.225661078571506968e-01,-7.723378536310551018e-03,9.268232300843214436e-03,7.226073835768955789e-01
9.786666666666667938e+09,-7.854996417868204822e-03,3.732997002904261518e-03,-7.219468553399397415e-01,-8.042318324263284315e-03,8.696909528586262497e-03,7.219916487184991905e-01
9.893333333333333969e+09,-5.840784389402426877e-03,5.477548284348860916e-03,-7.215699708585829875e-01,-8.450761980748698610e-03,8.007390179756462834e-03,7.216194552691269637e-01
1.000000000000000000e+10,-3.531371146278912323e-03,6.318362210882129577e-03,-7.212506664125282185e-01,-8.915146072931577972e-03,7.238251391094022852e-03,7.213057629258328163e-01
1.010666666666666794e+10,-1.301494911820617753e-03,6.280905883863981826e-03,-7.209988726959825067e-01,-9.428643689011233925e-03,6.414332991625250682e-03,7.210605201719838542e-01
1.021333333333333397e+10,5.424103209529449994e-04,5.535379742989288143e-03,-7.208248540032329288e-01,-9.982567243135391510e-03,5.561891571702241334e-03,7.208939740333148993e-01
1.031999999999999809e+10,1.811500086361574318e-03,4.344410805901354269e-03,-7.207390433246920747e-01,-1.056569453732987551e-02,4.706956321586216845e-03,7.208164832144507983e-01
1.042666666666666603e+10,2.453128006618528808e-03,2.998450378075839893e-03,-7.207515189102421393e-01,-1.116340767429136079e-02,3.874085916269713083e-03,7.208379663158174244e-01
1.053333333333333206e+10,2.578018640578872561e-03,1.554811485775195587e-03,-7.208709014870434695e-01,-1.175677978568134482e-02,3.010584472734589932e-03,7.209667665583981977e-01
1.064000000000000000e+10,2.200406946016544851e-03,7.426796911004346878e-04,-7.210807447538664094e-01,-1.235758297942063377e-02,2.322361696990995084e-03,7.211866265481382543e-01
1.074666666666666603e+10,1.712220226766915550e-03,1.728922317850219322e-04,-7.214454084693895375e-01,-1.283017891058734275e-02,1.720927025983772993e-03,7.215594853457627522e-01
1.085333333333333206e+10,1.172569947916814528e-03,-1.121019819497999850e-04,-7.218896120994748866e-01,-1.324980782321237907e-02,1.177916438935595542e-03,7.220111976032521639e-01
1.096000000000000000e+10,7.293445335626108032e-04,-1.566287676779235276e-04,-7.224128663558057051e-01,-1.354995959660321332e-02,7.459732029382605241e-04,7.225399303024578890e-01
1.106666666666666603e+10,3.449280122287596596e-04,-9.347150132767319524e-05,-7.230819662619061283e-01,-1.360425646983708450e-02,3.573685145344124704e-04,7.232099319888254385e-01
1.117333333333333397e+10,2.981260104142832712e-04,3.999636048277247207e-05,-7.235469835507284397e-01,-1.370996096159638779e-02,3.007969862505361388e-04,7.236768618899782624e-01
1.128000000000000000e+10,1.863792529326239273e-04,1.485321793150166047e-04,-7.240663656366460588e-01,-1.356794003272665528e-02,2.383254795773864624e-04,7.241934761118694608e-01
1.138666666666666603e+10,1.503389209362704089e-04,2.228850816847777346e-04,-7.244989832818424791e-01,-1.330705251182119804e-02,2.688485647830618692e-04,7.246211799436833578e-01
1.149333333333333397e+10,1.326512932393537664e-04,2.808992271850261984e-04,-7.248211619379745230e-01,-1.296550128378110532e-02,3.106456847136588911e-04,7.249371152152821463e-01
1.160000000000000000e+10,1.301767705770488879e-04,3.359267737880104005e-04,-7.250278310045252805e-01,-1.258337849975200116e-02,3.602676629195170218e-04,7.251370195663675577e-01
1.170666666666666794e+10,1.513161746168712005e-04,3.908890014881734667e-04,-7.251291587438037922e-01,-1.219334501687829343e-02,4.191548594315766107e-04,7.252316695533898017e-01
1.181333333333333397e+10,2.043996067040050612e-04,4.359689166066822220e-04,-7.251429677393927964e-01,-1.181551938077704880e-02,4.815060700219221603e-04,7.252392227121555734e-01
1.192000000000000000e+10,2.889051979299661448e-04,4.524753014043976767e-04,-7.250864939374507268e-01,-1.145780307617571755e-02,5.368427253600009533e-04,7.251770162807403830e-01
1.202666666666666794e+10,3.900163401450522892e-04,4.204674829203852650e-04,-7.249706677654131903e-01,-1.112053142531122842e-02,5.735029640494856799e-04,7.250559532473410673e-01
1.213333333333333397e+10,4.782154409939851861e-04,3.298478520680696129e-04,-7.247986811945216212e-01,-1.080291556057655193e-02,5.809385626027857834e-04,7.248791838961350376e-01
1.224000000000000191e+10,5.178412311945374772e-04,1.915626466403346417e-04,-7.245687771521385212e-01,-1.050828757486106657e-02,5.521374722955544071e-04,7.246449730257578103e-01
1.234666666666666603e+10,4.844022970268694510e-04,4.025449913703962705e-05,-7.242793145597508087e-01,-1.024585867559723099e-02,4.860720214800285754e-04,7.243517813322079002e-01
1.245333333333333206e+10,3.809137844134691600e-04,-7.831964088619749846e-05,-7.239331163131420555e-01,-1.002866118751234194e-02,3.888820866338970586e-04,7.240025766114863703e-01
1.256000000000000000e+10,2.399112256780191468e-04,-1.300537555009313024e-04,-7.235388990585281954e-01,-9.869564584259367390e-03,2.728944402625774592e-04,7.236062097273003868e-01
1.266666666666666603e+10,1.073006215004438074e-04,-1.101487602711338797e-04,-7.231097784696722819e-01,-9.778014072810274973e-03,1.537731210701311947e-04,7.231758854370536893e-01
1.277333333333333206e+10,1.850370094912912543e-05,-4.325277945241420494e-05,-7.226606096286866121e-01,-9.758963974946363931e-03,4.704455206688640614e-05,7.227265001968374847e-01
1.288000000000000000e+10,-1.728227088026484850e-05,3.314905022048013578e-05,-7.222060532021106205e-01,-9.813664626354393419e-03,3.738363836357778253e-05,7.222727263957627875e-01
1.298666666666666603e+10,-1.581219522719856712e-05,9.003351154626960094e-05,-7.217601854732104139e-01,-9.940904505028221039e-03,9.141148023774313663e-05,7.218286409645305879e-01
1.309333333333333397e+10,-2.693252288303959303e-06,1.190906396792810210e-04,-7.213371863691634411e-01,-1.013731978644529658e-02,1.191210899341875522e-04,7.214084153178654812e-01
1.320000000000000000e+10,3.609573644142962041e-06,1.297465252880914267e-04,-7.209517071183958459e-01,-1.039621731098235892e-02,1.297967250982313514e-04,7.210266606244920551e-01
1.330666666666666603e+10,-1.157912369229424632e-06,1.363201501660802500e-04,-7.206174130973664882e-01,-1.070582145362514170e-02,1.363250677694953039e-04,7.206969339966262655e-01
1.341333333333333397e+10,-1.194586051291587911e-05,1.475530022580696281e-04,-7.203436128728332166e-01,-1.104914012024097933e-02,1.480357796573650644e-04,7.204283476544235398e-01
1.352000000000000000e+10,-2.234917996246131721e-05,1.654345846097354876e-04,-7.201322595480509348e-01,-1.140691622237581873e-02,1.669373763720701789e-04,7.202225968264850398e-01
1.362666666666666794e+10,-2.744741992842449508e-05,1.885225030877735295e-04,-7.199780716113600709e-01,-1.176213752226316564e-02,1.905100916781230641e-04,7.200741430438294399e-01
1.373333333333333397e+10,-2.364261498977041084e-05,2.129108318911879542e-04,-7.198716713250744581e-01,-1.210279645368891530e-02,2.142195032674481180e-04,7.199734028826033638e-01
1.384000000000000000e+10,-1.052749104415211327e-05,2.322592293668725952e-04,-7.198028971185498337e-01,-1.242152618752956177e-02,2.324976939536782332e-04,7.199100673091639591e-01
