# Frequency, Real(S21), Imag(S21), Real(S11), Imag(S11), Amp(S21), Amp(S11)
2.000000000000000000e+09,4.624136149696684835e-05,5.605845168968613982e-05,-7.197516308958324949e-01,-3.182081163634070068e-03,7.266920612569015704e-05,7.197586649827444338e-01
2.106666666666666746e+09,3.549608608115664129e-05,6.022655298166778291e-05,-7.197917201222402417e-01,-3.362065498855920567e-03,6.990858181321173972e-05,7.197995719927541280e-01
2.213333333333333492e+09,4.366609740101039862e-05,6.733327577929158845e-05,-7.198079295865115190e-01,-3.545790119876688056e-03,8.025271390678736811e-05,7.198166628546428525e-01
2.320000000000000000e+09,4.406249746655086224e-05,7.095498461163736535e-05,-7.199019455890764974e-01,-3.708904861830559022e-03,8.352313167157645354e-05,7.199114995874227318e-01
2.426666666666666508e+09,1.705123472160993610e-05,6.930787618549330564e-05,-7.199946595965703855e-01,-3.857028924226653735e-03,7.137454943378000554e-05,7.200049906213870088e-01
2.533333333333333492e+09,1.637325221693445172e-05,7.440373341475428788e-05,-7.200801428678937910e-01,-4.028798786482599634e-03,7.618398082414159014e-05,7.200914132055098449e-01
2.640000000000000477e+09,9.586230501228295929e-06,8.653317741323074646e-05,-7.189368906831987704e-01,-4.178200465961531482e-03,8.706254423374236949e-05,7.189490316735668296e-01
2.746666666666666985e+09,8.314206688947212875e-06,8.050871181200671247e-05,-7.187129753897371076e-01,-4.334773807805262884e-03,8.093688102771988055e-05,7.187260474322143544e-01
2.853333333333333015e+09,1.620357629395666489e-05,8.384742896615319250e-05,-7.187810192268369036e-01,-4.503328870381483919e-03,8.539875425876059022e-05,7.187951262854286316e-01
2.960000000000000000e+09,4.858714421075451437e-06,8.668715022131267590e-05,-7.188027939448691228e-01,-4.679553056381968897e-03,8.682320611056698720e-05,7.188180262067427329e-01
3.066666666666666985e+09,6.688066371183079452e-07,9.053127173076145869e-05,-7.188253925999377181e-01,-4.858797697231012278e-03,9.053374212693752142e-05,7.188418135873269055e-01
3.173333333333333015e+09,1.799631992966630295e-06,9.379124792435451861e-05,-7.188615637436136518e-01,-5.041123348864743302e-03,9.380851167414311256e-05,7.188792393389392688e-01
3.280000000000000000e+09,-4.762128041708905459e-07,9.711801932024328207e-05,-7.188317005076807487e-01,-5.228560086882820535e-03,9.711918685471991879e-05,7.188507157229143685e-01
3.386666666666666508e+09,-4.150700322368181109e-07,1.007943670914990958e-04,-7.188498862992753757e-01,-5.415640708488536278e-03,1.007952217146603434e-04,7.188702860716699172e-01
3.493333333333333492e+09,-9.146342015577502027e-07,1.057078861235393147e-04,-7.188491542943280521e-01,-5.606480823746497720e-03,1.057118429714940455e-04,7.188710171212202571e-01
3.600000000000000000e+09,6.991109925443205938e-08,1.124773195652080502e-04,-7.188364244258709235e-01,-5.800714470898707398e-03,1.124773412920830558e-04,7.188598287355775218e-01
3.706666666666666985e+09,-5.476202027467612607e-08,1.208837305684425892e-04,-7.188586668044978367e-01,-5.996077940113309947e-03,1.208837429724224236e-04,7.188836733370733700e-01
3.813333333333333969e+09,-2.616028968939216888e-06,1.298185534885298257e-04,-7.189113712293490055e-01,-6.196002552161416349e-03,1.298449091702120149e-04,7.189380711372080901e-01
3.920000000000000000e+09,-9.805575176776658834e-07,1.379030817779397370e-04,-7.188770449796966222e-01,-6.401278906405701193e-03,1.379065678526537918e-04,7.189055446791172699e-01
4.026666666666666985e+09,-1.652763638484729532e-07,1.436002877682664039e-04,-7.188981661362633391e-01,-6.608928539995386105e-03,1.436003828804274709e-04,7.189285438835554265e-01
4.133333333333333015e+09,4.851347602488808444e-07,1.462596267036754560e-04,-7.189055006735599607e-01,-6.821948008402401592e-03,1.462604312834954608e-04,7.189378678810369738e-01
4.240000000000000000e+09,1.138730613556712173e-06,1.461654906484883849e-04,-7.189138167664146373e-01,-7.039867859576116882e-03,1.461699263320728184e-04,7.189482844246408710e-01
4.346666666666666985e+09,1.639607199403065610e-06,1.444137619180995769e-04,-7.189232998014507547e-01,-7.263150055702837643e-03,1.444230692898675408e-04,7.189599880008193944e-01
4.453333333333333015e+09,1.611538426127253569e-06,1.424768422744311321e-04,-7.189233720406273953e-01,-7.493438803190380360e-03,1.424859559416015138e-04,7.189624235600658997e-01
4.560000000000000000e+09,1.775577204315368462e-06,1.417170800296632877e-04,-7.189375769901913404e-01,-7.729275808731661361e-03,1.417282027210620870e-04,7.189791243930903075e-01
4.666666666666666985e+09,1.559449946606362902e-06,1.429024991846282932e-04,-7.189614387578447952e-01,-7.971449482406991333e-03,1.429110078242703532e-04,7.190056289262281020e-01
4.773333333333333015e+09,1.176070394864444155e-06,1.462790998121983555e-04,-7.189787207921869427e-01,-8.223207593771047694e-03,1.462838274842464159e-04,7.190257450850420229e-01
4.880000000000000000e+09,2.265232641943130596e-05,1.501051174158002681e-04,-7.189993250768832445e-01,-8.484710482486538044e-03,1.518047237954855272e-04,7.190493861849721613e-01
4.986666666666666985e+09,5.139849799395512951e-07,1.576150549266007580e-04,-7.190242590423676639e-01,-8.757498363085498144e-03,1.576158929806095971e-04,7.190775889074872973e-01
5.093333333333333969e+09,3.302874220075694507e-07,1.640017187873217270e-04,-7.190549996620556605e-01,-9.043441611517193807e-03,1.640020513742949883e-04,7.191118663846257641e-01
5.200000000000000000e+09,1.979659687802353504e-07,1.698823399616067689e-04,-7.190937974954053624e-01,-9.344750989233383334e-03,1.698824553076500867e-04,7.191545132775111204e-01
5.306666666666666985e+09,1.353619626879697807e-08,1.747799326206830612e-04,-7.191441788130812363e-01,-9.663806969529637608e-03,1.747799331448525277e-04,7.192091066483274897e-01
5.413333333333333015e+09,-3.561925372330515929e-07,1.784538583474405628e-04,-7.192115509039648247e-01,-1.000245559796903230e-02,1.784542138258773697e-04,7.192811022623044614e-01
5.520000000000000000e+09,-1.058982315084398208e-06,1.808211845714472734e-04,-7.193031581465433311e-01,-1.036051678913531976e-02,1.808242855187462618e-04,7.193777683718958205e-01
5.626666666666666985e+09,-2.266978600348865705e-06,1.818265461816157263e-04,-7.194265007715061611e-01,-1.073462189940745624e-02,1.818406777602571314e-04,7.195065824018965772e-01
5.733333333333333969e+09,-4.237714012082938609e-06,1.813006255905653692e-04,-7.195874831508649594e-01,-1.111885539156178514e-02,1.813501449119315383e-04,7.196733806752997342e-01
5.840000000000000954e+09,-7.447090271776143271e-06,1.788607134566403702e-04,-7.197899185673284350e-01,-1.150614809482778181e-02,1.790156807984551873e-04,7.198818780294038433e-01
5.946666666666666985e+09,-1.279097391987893216e-05,1.739108281339001526e-04,-7.200358547324754444e-01,-1.188911699425424830e-02,1.743805756270978206e-04,7.201340036432313241e-01
6.053333333333333969e+09,-2.182332196895643063e-05,1.657888785465234461e-04,-7.203259453265985490e-01,-1.226039159219821650e-02,1.672190468561361037e-04,7.204302774819031363e-01
6.160000000000000000e+09,-3.697215077518955888e-05,1.540901752124155231e-04,-7.206596902066064736e-01,-1.261272899681511496e-02,1.584636299910369486e-04,7.207700534993314312e-01
6.266666666666666985e+09,-6.165080272977914010e-05,1.391711388967411406e-04,-7.210355702107548170e-01,-1.293906272965954750e-02,1.522150694873610475e-04,7.211516573186741441e-01
6.373333333333333015e+09,-1.142829992426759632e-04,1.122901674584494752e-04,-7.210219363343894905e-01,-1.326293390047018558e-02,1.602176195795833725e-04,7.211439094182524601e-01
6.480000000000000000e+09,-1.573205269328055130e-04,1.088839024854758850e-04,-7.219029242374132016e-01,-1.348654697421496768e-02,1.913255142809818974e-04,7.220288906766930692e-01
6.586666666666666985e+09,-2.376379553414348280e-04,1.041234199771552855e-04,-7.223866668646027334e-01,-1.369479413675291773e-02,2.594484234035674829e-04,7.225164661446814574e-01
6.693333333333333015e+09,-3.437092453146826693e-04,1.183312326948896724e-04,-7.228843407193022985e-01,-1.385058045609185995e-02,3.635083574635950910e-04,7.230170182202843021e-01
6.799999999999999046e+09,-4.769275125074789838e-04,1.650407295661897745e-04,-7.234277996829655555e-01,-1.395086212803681690e-02,5.046764256454939123e-04,7.235623040956822294e-01
6.906666666666666031e+09,-6.311067143857642878e-04,2.596197417164599480e-04,-7.239716146550198017e-01,-1.398852371567671851e-02,6.824207611376693731e-04,7.241067446322678736e-01
7.013333333333333015e+09,-7.952901177759683776e-04,4.190394079435627844e-04,-7.245201829268089755e-01,-1.396045454117866673e-02,8.989329212137050010e-04,7.246546693144900742e-01
7.120000000000000000e+09,-9.500259290025141971e-04,6.588789189778780642e-04,-7.250642105135443050e-01,-1.386384634537513906e-02,1.156144755491520480e-03,7.251967426865053579e-01
7.226666666666666985e+09,-1.067155317268853737e-03,9.902004942855672284e-04,-7.255935251825129662e-01,-1.369725035484852839e-02,1.455787584113344985e-03,7.257227972539305183e-01
7.333333333333333015e+09,-1.110332724431361369e-03,1.415632042585775619e-03,-7.260972609106889353e-01,-1.346085948193277183e-02,1.799125576200489825e-03,7.262220232408250764e-01
7.440000000000000000e+09,-1.037130789011832038e-03,1.925175920225066176e-03,-7.265641394424040556e-01,-1.315677571572101794e-02,2.186765327448451837e-03,7.266832525047725033e-01
7.546666666666666985e+09,-8.030102180772870748e-04,2.492332665410382925e-03,-7.269828534997688774e-01,-1.278922658962470746e-02,2.618501007333805947e-03,7.270953401029518481e-01
7.653333333333333969e+09,-3.672415453138456500e-04,3.071300705579787637e-03,-7.273425420049680623e-01,-1.236469002812766102e-02,3.093178684896720314e-03,7.274476331460157930e-01
7.760000000000000954e+09,2.994097839074784731e-04,3.596134588132667963e-03,-7.276333305774236315e-01,-1.189188841492109378e-02,3.608577308949281054e-03,7.277305001010108132e-01
7.866666666666666985e+09,1.190833661865916323e-03,3.989592914952215692e-03,-7.279269752869426124e-01,-1.139814006655017788e-02,4.163524521036222024e-03,7.280162078878283927e-01
7.973333333333333969e+09,2.331140826889874489e-03,4.134846582993048983e-03,-7.279769787321879182e-01,-1.084642846012636580e-02,4.746701361965180790e-03,7.280577769479459338e-01
8.080000000000000954e+09,3.617253385552552086e-03,3.953634336144801371e-03,-7.280198354440789998e-01,-1.030008137439932143e-02,5.358707541864413462e-03,7.280926949752641875e-01
8.186666666666667938e+09,4.963494192044521497e-03,3.352613039771715382e-03,-7.279744814286707166e-01,-9.756961936078485317e-03,5.989681860408534522e-03,7.280398642365430995e-01
8.293333333333334923e+09,6.227405851937130310e-03,2.275527271144236249e-03,-7.278427733470687055e-01,-9.231367061756177300e-03,6.630128807682544000e-03,7.279013125770424919e-01
8.399999999999999046e+09,7.233002853739824156e-03,7.163238251947496010e-04,-7.276292620868325400e-01,-8.736827087956805862e-03,7.268387035976419178e-03,7.276817128337039753e-01
8.506666666666666031e+09,7.788734351464912144e-03,-1.262442458050509319e-03,-7.273408507245378019e-01,-8.285511262258495047e-03,7.890382991818468972e-03,7.273880414397609906e-01
8.613333333333332062e+09,7.715624325347735651e-03,-3.517543160965926063e-03,-7.269863013327448886e-01,-7.887785840519943165e-03,8.479620782744700866e-03,7.270290912273941197e-01
8.720000000000000000e+09,6.883605043318492128e-03,-5.825175360316712375e-03,-7.265756610312411601e-01,-7.551967183187296637e-03,9.017576524257541262e-03,7.266149072316924196e-01
8.826666666666666031e+09,5.250521665392923233e-03,-7.898694811366284430e-03,-7.261196880667954989e-01,-7.284278912372867294e-03,9.484585256186225249e-03,7.261562243191843624e-01
8.933333333333332062e+09,2.894486360913611864e-03,-9.426790451949097066e-03,-7.256293553722861223e-01,-7.088988171950335107e-03,9.861157615537517393e-03,7.256639822475010604e-01
9.040000000000000000e+09,2.785123085840125832e-05,-1.012946837257482774e-02,-7.251154897328340176e-01,-6.968665582102012181e-03,1.012950666133618019e-02,7.251489748668772384e-01
9.146666666666666031e+09,-3.017771545431767715e-03,-9.821822720410967877e-03,-7.245885728373728796e-01,-6.924495113613087817e-03,1.027497672267916815e-02,7.246216588807425918e-01
9.253333333333333969e+09,-5.839732208817689091e-03,-8.468897233290501037e-03,-7.240586930416086364e-01,-6.956559831562474441e-03,1.028711293895125112e-02,7.240921106418800601e-01
9.360000000000000000e+09,-8.039388376642964823e-03,-6.212837809900537828e-03,-7.235356047544492242e-01,-7.064049350414131068e-03,1.016027160673530980e-02,7.235700879255662077e-01
9.466666666666666031e+09,-9.306228679470486542e-03,-3.358968170483357836e-03,-7.230288385483201186e-01,-7.245368432681870662e-03,9.893864735527734683e-03,7.230651400366761017e-01
9.573333333333333969e+09,-9.487037806094781450e-03,-3.198340580763978178e-04,-7.225478149563725472e-01,-7.498158517118949651e-03,9.492427516656489622e-03,7.225867195564670276e-01
9.680000000000000000e+09,-8.618912258042923241e-03,2.469188478991424848e-03,-7.221019418227866415e-01,-7.819259080753829250e-03,8.965631057356005310e-03,7.221442758873125589e-01
9.786666666666667938e+09,-6.916400693702062438e-03,4.639194740942429937e-03,-7.217007024569901397e-01,-8.204625726677678213e-03,8.328188662622280219e-03,7.217473379308217973e-01
9.893333333333333969e+09,-4.717929046944898536e-03,5.957601221276454494e-03,-7.213537513896560727e-01,-8.649193450660978486e-03,7.599464902462613539e-03,7.214056024119002153e-01
1.000000000000000000e+10,-2.408404112564327057e-03,6.362004093652786144e-03,-7.210710182530345458e-01,-9.146642565032678598e-03,6.802610267909780031e-03,7.211290275912353165e-01
1.010666666666666794e+10,-3.394224225635289038e-04,5.953547865246986912e-03,-7.208627801898975784e-01,-9.689007275946341646e-03,5.963215555782454790e-03,7.209278914878394229e-01
1.021333333333333397e+10,1.234123370472163745e-03,4.956368620725999305e-03,-7.207396074641778672e-01,-1.026607428269054115e-02,5.107705003038342725e-03,7.208127177351928427e-01
1.031999999999999809e+10,2.189214715064633464e-03,3.656571823217458564e-03,-7.207120237529522910e-01,-1.086456087571092272e-02,4.261828078067365563e-03,7.207939094256402557e-01
1.042666666666666603e+10,2.537848647181204995e-03,2.336430916513068147e-03,-7.207896651818099798e-01,-1.146715286610395894e-02,3.449577536980081606e-03,7.208808757539351131e-01
1.053333333333333206e+10,2.401318858454340108e-03,1.218223093886726350e-03,-7.209797011486103191e-01,-1.205164158007197318e-02,2.692656637309592555e-03,7.210804196018041345e-01
1.064000000000000000e+10,1.964081191519091718e-03,4.287729690280466140e-04,-7.212843623242657376e-01,-1.259063000108537160e-02,2.010338574929154166e-03,7.213942440145657553e-01
1.074666666666666603e+10,1.419355985741816047e-03,-8.908507246195964194e-06,-7.216977094993097808e-01,-1.305252212176846033e-02,1.419383942336420240e-03,7.218157328780590021e-01
1.085333333333333206e+10,9.206453130153794502e-04,-1.565635700271091448e-04,-7.222023507179378132e-01,-1.340457854832674718e-02,9.338629149060474451e-04,7.223267391621146505e-01
1.096000000000000000e+10,5.294774588245485447e-04,-1.337417725180416075e-04,-7.228122404166719139e-01,-1.362211850505151353e-02,5.461073531088636492e-04,7.229405902345880097e-01
1.106666666666666603e+10,3.254750376183206595e-04,-5.147780193222198462e-06,-7.233507332841433435e-01,-1.367694877980530320e-02,3.255157442483619574e-04,7.234800220259252068e-01
1.117333333333333397e+10,2.154656727034050495e-04,1.028741630448987946e-04,-7.239032898696416973e-01,-1.358085622439036792e-02,2.387646320871650589e-04,7.240306711320163569e-01
1.128000000000000000e+10,1.640665643185634337e-04,1.893970694673057713e-04,-7.243803065449058165e-01,-1.335039414347155388e-02,2.505775078695227868e-04,7.245033205816779898e-01
1.138666666666666603e+10,1.394798134257370294e-04,2.527090174697908006e-04,-7.247502088979145274e-01,-1.302135535763752558e-02,2.886459178021152038e-04,7.248671747243907726e-01
1.149333333333333397e+10,1.291344924903993063e-04,3.074872528013816676e-04,-7.250002958768484440e-01,-1.263574313888921052e-02,3.335028152596223499e-04,7.251103991987631892e-01
1.160000000000000000e+10,1.374419056103209468e-04,3.625876814835648815e-04,-7.251356867908053117e-01,-1.223130654144342043e-02,3.877629484381192116e-04,7.252388359135792939e-01
1.170666666666666794e+10,1.742705187628872988e-04,4.142549370476128110e-04,-7.251727424564041735e-01,-1.183427401467893221e-02,4.494189210282623233e-04,7.252692992559361951e-01
1.181333333333333397e+10,2.446197540327995886e-04,4.472296891978544365e-04,-7.251303778371421815e-01,-1.145759115872224156e-02,5.097580003914375544e-04,7.252208913547629754e-01
1.192000000000000000e+10,3.411532391668163069e-04,4.404605083224641393e-04,-7.250229263734189189e-01,-1.110429185828326962e-02,5.571274468070070091e-04,7.251079568345323301e-01
1.202666666666666794e+10,4.404697480310013178e-04,3.770027930825156008e-04,-7.248569851517632223e-01,-1.077375311924384620e-02,5.797798762655632498e-04,7.249370473907219559e-01
1.213333333333333397e+10,5.070878934846229091e-04,2.567596323535397155e-04,-7.246328466065583562e-01,-1.046777140573944102e-02,5.683868757501330448e-04,7.247084493914270897e-01
1.224000000000000191e+10,5.081168040374419576e-04,1.047554487278808577e-04,-7.243491172737386297e-01,-1.019370468177154508e-02,5.188028436539297676e-04,7.244208413004028513e-01
1.234666666666666603e+10,4.326459608017827006e-04,-3.469081614738359770e-05,-7.240076286543468687e-01,-9.963574727409463608e-03,4.340345379380185372e-04,7.240761832646059881e-01
1.245333333333333206e+10,3.017035841482642190e-04,-1.185935443647928339e-04,-7.236159079894605162e-01,-9.790419133192899276e-03,3.241750783957842276e-04,7.236821364398978718e-01
1.256000000000000000e+10,1.590761226553367806e-04,-1.279324772949290380e-04,-7.231864490043049543e-01,-9.684588643356572060e-03,2.041370410921870945e-04,7.232512919315438049e-01
1.266666666666666603e+10,4.813238089396772602e-05,-7.623782090032416589e-05,-7.227341849556210285e-01,-9.652010049193594440e-03,9.016058687781426727e-05,7.227986326781862259e-01
1.277333333333333206e+10,-9.572471248140318771e-06,1.224105365362416323e-06,-7.222742317166164217e-01,-9.694572569064901363e-03,9.650421739073486191e-06,7.223392904578327389e-01
1.288000000000000000e+10,-2.061268971835322988e-05,6.907760684706098120e-05,-7.218211083462681144e-01,-9.811385011285702132e-03,7.208743819239403462e-05,7.218877861067289903e-01
1.298666666666666603e+10,-9.054804648830254101e-06,1.095636502967153425e-04,-7.213892779550852286e-01,-9.999370823317994122e-03,1.099371773039921682e-04,7.214585766108969622e-01
1.309333333333333397e+10,1.741990650625553497e-06,1.259612340211661700e-04,-7.209937316955744580e-01,-1.025233925934301848e-02,1.259732789426466315e-04,7.210666207810473294e-01
1.320000000000000000e+10,1.437947139127510043e-06,1.323735116630287063e-04,-7.206489340545000344e-01,-1.055909325176126318e-02,1.323813214995866560e-04,7.207262868830208724e-01
1.330666666666666603e+10,-7.843742027037754858e-06,1.407675546689916748e-04,-7.203655282648648850e-01,-1.090271524103404374e-02,1.409859168019071164e-04,7.204480297092531460e-01
1.341333333333333397e+10,-1.948379261052283850e-05,1.559125622785659596e-04,-7.201467328013054781e-01,-1.126306744083434112e-02,1.571252533832724640e-04,7.202348043885213880e-01
1.352000000000000000e+10,-2.754222259926575642e-05,1.776382428246922477e-04,-7.199876565574360177e-01,-1.162163951625681813e-02,1.797607280235364213e-04,7.200814454630213302e-01
1.362666666666666794e+10,-2.739442582070015478e-05,2.027903045637033603e-04,-7.198782937476849719e-01,-1.196519780115141811e-02,2.046322608756630333e-04,7.199777244939588039e-01
1.373333333333333397e+10,-1.707200731948478592e-05,2.252513322752571563e-04,-7.198074470228383870e-01,-1.228599482117893188e-02,2.258973575004693277e-04,7.199122908092918660e-01
1.384000000000000000e+10,1.259056879426078226e-07,2.383859722668567349e-04,-7.197646534454529288e-01,-1.257976324216590787e-02,2.383860055159632194e-04,7.198745771262392568e-01
