# Frequency, Real(S21), Imag(S21), Real(S11), Imag(S11), Amp(S21), Amp(S11)
2.000000000000000000e+09,4.649342184328736946e-05,5.595300087305833724e-05,-7.197530678301986562e-01,-3.179792831975800180e-03,7.274872219770143751e-05,7.197600917899219519e-01
2.106666666666666746e+09,3.549240565515202539e-05,6.023271035698158585e-05,-7.197917234884577686e-01,-3.362356065715130758e-03,6.991201796642622964e-05,7.197995767161836644e-01
2.213333333333333492e+09,4.381684963364213003e-05,6.731804409135046566e-05,-7.198023277209516513e-01,-3.548558974120433456e-03,8.032207275775576070e-05,7.198110747017533173e-01
2.320000000000000000e+09,4.412901584109750095e-05,7.073267177695819808e-05,-7.198670606649156811e-01,-3.711504139509168559e-03,8.336954417418109291e-05,7.198766285227788941e-01
2.426666666666666508e+09,1.704415576060500074e-05,6.931608198897726487e-05,-7.199946618077784910e-01,-3.857437204424277871e-03,7.138082703285514752e-05,7.200049950198146309e-01
2.533333333333333492e+09,1.636031561732590703e-05,7.440423087095896187e-05,-7.200747212997659075e-01,-4.028717791620102170e-03,7.618168742288057604e-05,7.200859912690844578e-01
2.640000000000000477e+09,9.280649635293874988e-06,8.683978045728372010e-05,-7.189365646484043859e-01,-4.176495015909545937e-03,8.733428838390060937e-05,7.189486957350066376e-01
2.746666666666666985e+09,8.308010853878985779e-06,8.052046977532670681e-05,-7.187129823112550220e-01,-4.335336677112996279e-03,8.094794066057191934e-05,7.187260577485988788e-01
2.853333333333333015e+09,1.632950447671970169e-05,8.357574461703469665e-05,-7.187936233696757826e-01,-4.501451286257463109e-03,8.515607908274672178e-05,7.188077184202947834e-01
2.960000000000000000e+09,4.853284009955049649e-06,8.670271666112964873e-05,-7.188028189253332645e-01,-4.680262520171389606e-03,8.683844449379211276e-05,7.188180558056838088e-01
3.066666666666666985e+09,6.632730456990177685e-07,9.054928950930860596e-05,-7.188254244571974372e-01,-4.859584406184658083e-03,9.055171871242276771e-05,7.188418507618145048e-01
3.173333333333333015e+09,1.793721396825240886e-06,9.381057302844606209e-05,-7.188616067621796946e-01,-5.041999910295351384e-03,9.382772004250578457e-05,7.188792885038475244e-01
3.280000000000000000e+09,-4.820335490859716658e-07,9.714009381937358380e-05,-7.188317479825860890e-01,-5.229537975009764146e-03,9.714128979779476723e-05,7.188507703098969692e-01
3.386666666666666508e+09,-4.208461793178868820e-07,1.008186993664522246e-04,-7.188499452515337840e-01,-5.416728122407902385e-03,1.008195777289794140e-04,7.188703532151574649e-01
3.493333333333333492e+09,-9.205757986056105636e-07,1.057344465284008308e-04,-7.188492256007004144e-01,-5.607694633730805553e-03,1.057384539440038969e-04,7.188710978929615525e-01
3.600000000000000000e+09,6.420445218143573666e-08,1.125062775934972169e-04,-7.188365056932108921e-01,-5.802060149425721305e-03,1.125062959134142521e-04,7.188599208602488577e-01
3.706666666666666985e+09,-6.031440562455914150e-08,1.209148872936885704e-04,-7.188587672710750054e-01,-5.997575369539874177e-03,1.209149023366141480e-04,7.188837862914998489e-01
3.813333333333333969e+09,-2.621573511135724079e-06,1.298515033543416069e-04,-7.189115014843654450e-01,-6.197669384723459088e-03,1.298779641473366789e-04,7.189382157545299856e-01
3.920000000000000000e+09,-9.839512197831181649e-07,1.379383783912962352e-04,-7.188771953095561829e-01,-6.403146012822044826e-03,1.379418877398135848e-04,7.189057116305276329e-01
4.026666666666666985e+09,-1.657927393230399304e-07,1.436378124424557120e-04,-7.188983484503224108e-01,-6.611009564041747492e-03,1.436379081248626965e-04,7.189287453232461322e-01
4.133333333333333015e+09,-6.386881283762609778e-08,1.462815854631659889e-04,-7.188921635343406003e-01,-6.825234493856083967e-03,1.462815994062233095e-04,7.189245625355843439e-01
4.240000000000000000e+09,1.145024632042914963e-06,1.462074715814973812e-04,-7.189140827017689306e-01,-7.042474003703175743e-03,1.462119551461587663e-04,7.189485758710554286e-01
4.346666666666666985e+09,1.648533871417806749e-06,1.444575618670569119e-04,-7.189236229807733913e-01,-7.266074452502022801e-03,1.444669680047995768e-04,7.189603407127200807e-01
4.453333333333333015e+09,1.621954964502993995e-06,1.425218738878718152e-04,-7.189237682901641335e-01,-7.496733739837270656e-03,1.425311028316883358e-04,7.189628541373300763e-01
4.560000000000000000e+09,1.785950162203019166e-06,1.417622668990356439e-04,-7.189380677002956688e-01,-7.732990874422512179e-03,1.417735163362159295e-04,7.189796550226569272e-01
4.666666666666666985e+09,1.568562108687438687e-06,1.429463140012967757e-04,-7.189620412687067752e-01,-7.975644630290946654e-03,1.429549197252271710e-04,7.190062779228942880e-01
4.773333333333333015e+09,1.183260105916222178e-06,1.463200556209544247e-04,-7.189794758204951508e-01,-8.227970096543846951e-03,1.463248399329295272e-04,7.190265545465088781e-01
4.880000000000000000e+09,8.058627454078841060e-07,1.514668391226922867e-04,-7.190002834934017262e-01,-8.490139617081018941e-03,1.514689828598052691e-04,7.190504086184149601e-01
4.986666666666666985e+09,5.163961199075943691e-07,1.576434398133137336e-04,-7.190254956723899360e-01,-8.763716547510628369e-03,1.576442855961690797e-04,7.190789012025392557e-01
5.093333333333333969e+09,3.296641699449024534e-07,1.640187257877771690e-04,-7.190566289103619280e-01,-9.050599084752104090e-03,1.640190570863976779e-04,7.191135855507994057e-01
5.200000000000000000e+09,1.930057754929066624e-07,1.698827783727051548e-04,-7.190960010977126560e-01,-9.353025701963583668e-03,1.698828880107088274e-04,7.191568242633195052e-01
5.306666666666666985e+09,1.736270324677876371e-09,1.747565359939363060e-04,-7.191472501528152206e-01,-9.673383833756314665e-03,1.747565360025615409e-04,7.192123064555770995e-01
5.413333333333333015e+09,-3.789147176950619034e-07,1.783962862808953021e-04,-7.192159354414985328e-01,-1.001345265849777622e-02,1.783966886889396344e-04,7.192856393861438713e-01
5.520000000000000000e+09,-1.098990572554701634e-06,1.807141193428611734e-04,-7.193094112276101626e-01,-1.037286728632831612e-02,1.807174609996068672e-04,7.193841987813959227e-01
5.626666666666666985e+09,-2.335295381234346468e-06,1.816464350451599328e-04,-7.194351492326825914e-01,-1.074803892237332845e-02,1.816614460174010800e-04,7.195154301973857303e-01
5.733333333333333969e+09,-4.356217354661392929e-06,1.810119764852178182e-04,-7.195989357760812499e-01,-1.113290982615309024e-02,1.810643870581018101e-04,7.196850492064330584e-01
5.840000000000000954e+09,-7.659929960703261355e-06,1.784148106505093964e-04,-7.198044627395943085e-01,-1.152034337174715276e-02,1.785791678400927074e-04,7.198966473676891020e-01
5.946666666666666985e+09,-1.318068162013964322e-05,1.732507090461863307e-04,-7.200536762914376832e-01,-1.190292363749778128e-02,1.737513699312261519e-04,7.201520508419972932e-01
6.053333333333333969e+09,-2.252890133522619407e-05,1.648643785474803889e-04,-7.203471433070175456e-01,-1.227326036876783336e-02,1.663965585858651953e-04,7.204516915037818547e-01
6.160000000000000000e+09,-3.820415466476843500e-05,1.528859592741627462e-04,-7.206842841451790438e-01,-1.262409655311150757e-02,1.575870361953371403e-04,7.207948426755226290e-01
6.266666666666666985e+09,-6.369633904536146918e-05,1.377485320429511283e-04,-7.210635021822028312e-01,-1.294835521139530918e-02,1.517625832930158587e-04,7.211797515751146026e-01
6.373333333333333015e+09,-1.015440173313453319e-04,1.203691527822659771e-04,-7.215917638312581150e-01,-1.320990072540335208e-02,1.574799047412368997e-04,7.217126679685490487e-01
6.480000000000000000e+09,-1.620665394355060192e-04,1.077852506899030800e-04,-7.219370384797542117e-01,-1.348994558251408009e-02,1.946361309492296884e-04,7.220630624541996001e-01
6.586666666666666985e+09,-2.442434787162517515e-04,1.039923927847812252e-04,-7.224234533862428087e-01,-1.369437718087410279e-02,2.654605331353802672e-04,7.225532381554157224e-01
6.693333333333333015e+09,-3.522148419029794597e-04,1.200094418612668908e-04,-7.229192749816369945e-01,-1.384559832373805435e-02,3.720988591659394164e-04,7.230518506531311562e-01
6.799999999999999046e+09,-4.874515218673469361e-04,1.697433692534121123e-04,-7.234686135304059240e-01,-1.394115446545864459e-02,5.161606315637534345e-04,7.236029232607049666e-01
6.906666666666666031e+09,-6.429469976460062053e-04,2.686207200022340622e-04,-7.240135714382605059e-01,-1.397341466711202358e-02,6.968055202110070775e-04,7.241484018792310184e-01
7.013333333333333015e+09,-8.072753097037143732e-04,4.336874908223186439e-04,-7.245625532418283887e-01,-1.393952296680303626e-02,9.163941648401012670e-04,7.246966288460706673e-01
7.120000000000000000e+09,-9.602834621326875129e-04,6.803324652916683309e-04,-7.251061535614384823e-01,-1.383676519685104155e-02,1.176858781237315535e-03,7.252381608849448602e-01
7.226666666666666985e+09,-1.073078453222128109e-03,1.019128971781153598e-03,-7.256340966594416741e-01,-1.366381653497981269e-02,1.479905817237470731e-03,7.257627312814192155e-01
7.333333333333333015e+09,-1.108660722985890801e-03,1.451864965435373548e-03,-7.261354296929787289e-01,-1.342102531843814874e-02,1.826756819215479650e-03,7.262594482524856732e-01
7.440000000000000000e+09,-1.024176559227500151e-03,1.967337406573687903e-03,-7.265988146004306314e-01,-1.311067919886187497e-02,2.217961698446383259e-03,7.267170888920987393e-01
7.546666666666666985e+09,-7.750591067370124921e-04,2.537517396063585125e-03,-7.270129222058530072e-01,-1.273721664631028740e-02,2.653245400309080411e-03,7.271244912270448113e-01
7.653333333333333969e+09,-3.211266170267282425e-04,3.114862938894825961e-03,-7.273669174035277685e-01,-1.230734259562574033e-02,3.131372451859334993e-03,7.274710325606624783e-01
7.760000000000000954e+09,3.655769544197110671e-04,3.631673516195718307e-03,-7.276510069120860624e-01,-1.183000919387493070e-02,3.650027265355721036e-03,7.277471655579977883e-01
7.866666666666666985e+09,1.291776980199302056e-03,4.002412093617499500e-03,-7.278570037975068407e-01,-1.131623266641788687e-02,4.205709254538221413e-03,7.279449670811964923e-01
7.973333333333333969e+09,2.433810421373579919e-03,4.129825672041697628e-03,-7.279788498582252521e-01,-1.077873551043731330e-02,4.793630487286364150e-03,7.280586425420059182e-01
8.080000000000000954e+09,3.729807948514853814e-03,3.915421082853137204e-03,-7.280130320623778850e-01,-1.023142756602214883e-02,5.407586299714079760e-03,7.280849242792324372e-01
8.186666666666667938e+09,5.165796871586759639e-03,3.282636424402815209e-03,-7.279588354381686388e-01,-9.688765929849780731e-03,6.120552198397759616e-03,7.280233088835398325e-01
8.293333333333334923e+09,6.323755442032652149e-03,2.153769550313826883e-03,-7.278183928163223237e-01,-9.165056344652663597e-03,6.680464517269484731e-03,7.278760960352628206e-01
8.399999999999999046e+09,7.296874766575102075e-03,5.530700385694515761e-04,-7.275965192729856312e-01,-8.673772569240720265e-03,7.317804850270582910e-03,7.276482180207322070e-01
8.506666666666666031e+09,7.802382526168907123e-03,-1.458160875417867548e-03,-7.273003509575185488e-01,-8.226970995435888348e-03,7.937468502190436412e-03,7.273468797999269597e-01
8.613333333333332062e+09,7.650186109046786150e-03,-3.730143516374665250e-03,-7.269433087855151632e-01,-7.741323613790835473e-03,8.511129076438939470e-03,7.269845268500054747e-01
8.720000000000000000e+09,6.757132915793814809e-03,-6.027553306085491752e-03,-7.265221663323251367e-01,-7.505595341577324907e-03,9.054846442618801061e-03,7.265609349074901857e-01
8.826666666666666031e+09,5.050375646098967039e-03,-8.062937531064864882e-03,-7.260611823033823464e-01,-7.245210201646977953e-03,9.514055696524165162e-03,7.260973306097823210e-01
8.933333333333332062e+09,2.634323812732416569e-03,-9.523225747915952874e-03,-7.255669099909508590e-01,-7.057813011034936440e-03,9.880864870855102927e-03,7.256012359404546697e-01
9.040000000000000000e+09,-2.754230991920841344e-04,-1.015513518568999379e-02,-7.249819650336545296e-01,-6.927929787365349340e-03,1.015886945103674013e-02,7.250150659367002870e-01
9.146666666666666031e+09,-3.307248314105295205e-03,-9.722962200340051764e-03,-7.245215618484636133e-01,-6.910333088927216559e-03,1.027004797264325156e-02,7.245545157451832585e-01
9.253333333333333969e+09,-5.693619633469051110e-03,-8.197291295483431772e-03,-7.239910966824908423e-01,-6.951292504649150134e-03,9.980625687482357414e-03,7.240244668124143912e-01
9.360000000000000000e+09,-8.201723191386791137e-03,-5.939843419979972013e-03,-7.234685935800309053e-01,-7.067800177534542573e-03,1.012669754470880285e-02,7.235031165765752892e-01
9.466666666666666031e+09,-9.362256258010199367e-03,-3.047976250366309266e-03,-7.229636239616719084e-01,-7.258155410605962934e-03,9.845912931945326532e-03,7.230000569790836495e-01
9.573333333333333969e+09,-9.430897895439179987e-03,-1.567221141663752821e-05,-7.224856551194246412e-01,-7.519882817789237672e-03,9.430910917425200726e-03,7.225247888418344644e-01
9.680000000000000000e+09,-8.464498718037002239e-03,2.723824977525663837e-03,-7.220441449938548306e-01,-7.849690837863635556e-03,8.891960473137672238e-03,7.220868126244633922e-01
9.786666666666667938e+09,-6.693907746114015865e-03,4.812474658086547674e-03,-7.216486312053490559e-01,-8.243387212381185145e-03,8.244289735823848164e-03,7.216957117464999349e-01
9.893333333333333969e+09,-4.466766569221053591e-03,6.034318244661987171e-03,-7.213088305845767323e-01,-8.695734946030474546e-03,7.507662769582245169e-03,7.213612443745097691e-01
1.000000000000000000e+10,-2.168594219838999252e-03,6.345145083398891044e-03,-7.210347455727702526e-01,-9.200202490939092537e-03,6.705495285189621603e-03,7.210934391943001343e-01
1.010666666666666794e+10,-1.437155612837219629e-04,5.861745866502305474e-03,-7.208367309407299750e-01,-9.748546615339123700e-03,5.863507377501281544e-03,7.209026472655165607e-01
1.021333333333333397e+10,1.365703043305761550e-03,4.818324902856861019e-03,-7.207254166339963630e-01,-1.033017797295881710e-02,5.008133352056951849e-03,7.207994442001192104e-01
1.031999999999999809e+10,2.251510059841512357e-03,3.504039231871951352e-03,-7.207113186336886468e-01,-1.093130690208577241e-02,4.165043635793664462e-03,7.207942135431567587e-01
1.042666666666666603e+10,2.539328241876183129e-03,2.197410742372262523e-03,-7.208039138555085712e-01,-1.153396623786400073e-02,3.358094979401714947e-03,7.208961885088557286e-01
1.053333333333333206e+10,2.366004011891796252e-03,1.134924792745234086e-03,-7.209911516043435720e-01,-1.212111394733052239e-02,2.624124476749509476e-03,7.210930328987249505e-01
1.064000000000000000e+10,1.902013567068233223e-03,3.625839397658552846e-04,-7.213308001304543637e-01,-1.264677141060490187e-02,1.936265147826545440e-03,7.214416567151868964e-01
1.074666666666666603e+10,1.385926400280016813e-03,-5.850310983897635299e-05,-7.218197927114985424e-01,-1.300206192021750341e-02,1.387160625469868302e-03,7.219368855822840825e-01
1.085333333333333206e+10,1.025519584141879742e-03,-1.705237402356681248e-04,-7.222760365668859928e-01,-1.343192386129906345e-02,1.039600290228170172e-03,7.224009202495421667e-01
1.096000000000000000e+10,5.159227184091994640e-04,-1.046977706952796801e-04,-7.228486088029747458e-01,-1.362522865178441428e-02,5.264388611788641719e-04,7.229770107715800531e-01
1.106666666666666603e+10,3.073847255964728899e-04,8.577015819506436867e-06,-7.234328101422454749e-01,-1.366140911720334535e-02,3.075043653842770902e-04,7.235617906505109609e-01
1.117333333333333397e+10,2.070817188821750794e-04,1.142013385581651451e-04,-7.239796245706509037e-01,-1.354369302057803828e-02,2.364842151681013211e-04,7.241062963502639116e-01
1.128000000000000000e+10,1.602629115453339163e-04,1.973461511858257849e-04,-7.244450762647033359e-01,-1.329496343332435548e-02,2.542237286424033397e-04,7.245670600964863040e-01
1.138666666666666603e+10,1.376024169051043940e-04,2.588094345851146209e-04,-7.247997133424858296e-01,-1.295273051418770541e-02,2.931155890913905108e-04,7.249154417510519366e-01
1.149333333333333397e+10,1.289666777358873474e-04,3.132832492318799551e-04,-7.250333572932524673e-01,-1.255932086800719619e-02,3.387901979330518393e-04,7.251421279505078088e-01
1.160000000000000000e+10,1.400011194480487592e-04,3.683587901874821780e-04,-7.251531565498684495e-01,-1.215153070878562114e-02,3.940666336485396082e-04,7.252549621704111882e-01
1.170666666666666794e+10,1.805374555860054272e-04,4.188304665043075413e-04,-7.251764388228040259e-01,-1.175398348634104292e-02,4.560841287982785671e-04,7.252716894733457487e-01
1.181333333333333397e+10,2.545750798616965146e-04,4.483764318322328458e-04,-7.251219780042754692e-01,-1.137814068468229536e-02,5.156063381196881144e-04,7.252112416877398715e-01
1.192000000000000000e+10,3.536455595765438807e-04,4.357161670426518466e-04,-7.250577176860570905e-01,-1.099374879166052643e-02,5.611717740857490163e-04,7.251410597177684325e-01
1.202666666666666794e+10,4.506346711801895470e-04,3.650216890831962523e-04,-7.248259920229978004e-01,-1.069783307721065488e-02,5.799245126486956290e-04,7.249049333151698082e-01
1.213333333333333397e+10,5.109831782894492950e-04,2.389632674224793658e-04,-7.245900755802261450e-01,-1.039542369592736694e-02,5.640986187467706900e-04,7.246646413777725337e-01
1.224000000000000191e+10,5.026789974033290913e-04,8.567445901445946456e-05,-7.242945163780389883e-01,-1.012722363597921317e-02,5.099277275828766227e-04,7.243653133011481726e-01
1.234666666666666603e+10,4.184861343017545364e-04,-4.914460731520402898e-05,-7.239420910792072617e-01,-9.905625588800526932e-03,4.213618836949917278e-04,7.240098567384567474e-01
1.245333333333333206e+10,2.832636863012704949e-04,-1.242188747438039982e-04,-7.235413267084280786e-01,-9.743389733504284958e-03,3.093034833615707427e-04,7.236069272046055101e-01
1.256000000000000000e+10,1.423300844966765837e-04,-1.244877110331915832e-04,-7.231053672917763242e-01,-9.650157593242931695e-03,1.890900397988072286e-04,7.231697572131657870e-01
1.266666666666666603e+10,3.741047448070516945e-05,-6.724187691948711396e-05,-7.226493645238778463e-01,-9.631086882376189984e-03,7.694812286551860404e-05,7.227135406793623318e-01
1.277333333333333206e+10,-1.349246478696690160e-05,1.085210675227768257e-05,-7.221884148076480603e-01,-9.687481226814561447e-03,1.731516176622016615e-05,7.222533861290671986e-01
1.288000000000000000e+10,-2.009264593428029643e-05,7.580984618407982892e-05,-7.217370454366152099e-01,-9.818031972326547036e-03,7.842733706491757573e-05,7.218038213444040174e-01
1.298666666666666603e+10,-7.454726110221864208e-06,1.126778905933369980e-04,-7.213098779160703744e-01,-1.001917914552106700e-02,1.129242222463473343e-04,7.213794590436065635e-01
1.309333333333333397e+10,2.237477017619807175e-06,1.268981307350704104e-04,-7.209220429441187683e-01,-1.028391253787329374e-02,1.269178548804674594e-04,7.209953889310308783e-01
1.320000000000000000e+10,4.996432270611630305e-07,1.329615788741900814e-04,-7.205877007699703629e-01,-1.059987366526812108e-02,1.329625176509222951e-04,7.206656588340198955e-01
1.330666666666666603e+10,-9.514692883471844207e-06,1.420293851006653103e-04,-7.203164261817185388e-01,-1.094909871974585232e-02,1.423477278102459876e-04,7.203996367225471431e-01
1.341333333333333397e+10,-2.108530094122481300e-05,1.581149155359490527e-04,-7.201098445924766223e-01,-1.131114948149686272e-02,1.595146276387288630e-04,7.201986742431518707e-01
1.352000000000000000e+10,-2.834560670726351026e-05,1.806424841719119639e-04,-7.199616557147043849e-01,-1.166812297906854277e-02,1.828528930791151674e-04,7.200561997464595132e-01
1.362666666666666794e+10,-2.680200944520839430e-05,2.059727971575261182e-04,-7.198611278049904527e-01,-1.200782348761137222e-02,2.077092700848867603e-04,7.199612705900105825e-01
1.373333333333333397e+10,-1.510062345913108382e-05,2.275656927445798470e-04,-7.197969137074105017e-01,-1.232339781784279852e-02,2.280661600132184903e-04,7.199023983266691351e-01
1.384000000000000000e+10,-2.989168281404850974e-05,2.465185591629204882e-04,-7.197585510937157816e-01,-1.261116751953616881e-02,2.483242088746443767e-04,7.198690251835613285e-01
