# Frequency, Real(S21), Imag(S21), Real(S11), Imag(S11), Amp(S21), Amp(S11)
2.000000000000000000e+09,3.774532413142739893e-05,5.366004626892758418e-05,-7.197611494311967339e-01,-3.182451514346732943e-03,6.560571666684211539e-05,7.197681850624955135e-01
2.106666666666666746e+09,4.304093252071685593e-05,5.686876059775274733e-05,-7.198089929457546221e-01,-3.356331024428965519e-03,7.132024820608392915e-05,7.198168178665507178e-01
2.213333333333333492e+09,4.429052628571385913e-05,6.724271343388020094e-05,-7.198488979572704727e-01,-3.541797288671852655e-03,8.051852723824773415e-05,7.198576110720305010e-01
2.320000000000000000e+09,4.422343271056544472e-05,7.097415194435365308e-05,-7.199083437317018719e-01,-3.714214732979273601e-03,8.362441177626369205e-05,7.199179250203491254e-01
2.426666666666666508e+09,1.925422710745661894e-05,7.002380670309529180e-05,-7.199538262494272756e-01,-3.873662548388724994e-03,7.262271522532030442e-05,7.199642471628221463e-01
2.533333333333333492e+09,1.467292480582024281e-05,7.434822992002269122e-05,-7.200421005830780485e-01,-4.037155191385435014e-03,7.578228034704295756e-05,7.200534183198707971e-01
2.640000000000000477e+09,9.890749413026039073e-06,8.602468126259679303e-05,-7.189289241582879075e-01,-4.171303661669233630e-03,8.659141245113540441e-05,7.189410252347763208e-01
2.746666666666666985e+09,1.046031193095605912e-05,8.072372613206245731e-05,-7.187795614834497915e-01,-4.333106308437906055e-03,8.139863688254936607e-05,7.187926222608441718e-01
2.853333333333333015e+09,1.582972243530020838e-05,8.386420009911098208e-05,-7.187902426973089565e-01,-4.512986625729251480e-03,8.534508873182084475e-05,7.188044101458618274e-01
2.960000000000000000e+09,4.143562300336528366e-06,8.713528582114334932e-05,-7.188366607303974254e-01,-4.691309175956889094e-03,8.723375002640385478e-05,7.188519689002826896e-01
3.066666666666666985e+09,2.433229009365138476e-07,9.084360850393233895e-05,-7.188003360544410469e-01,-4.879263412993943734e-03,9.084393437126029290e-05,7.188168962423119313e-01
3.173333333333333015e+09,-9.327439181450192912e-07,9.426898127855599658e-05,-7.188559262812962425e-01,-5.059372312485325290e-03,9.427359568041083744e-05,7.188737302182747202e-01
3.280000000000000000e+09,-1.105279474503469931e-06,9.755957821655457103e-05,-7.188507436693585273e-01,-5.247180527478045343e-03,9.756583902426498695e-05,7.188698940541867755e-01
3.386666666666666508e+09,-1.273978648956790255e-08,1.013335449999084573e-04,-7.188342186906165887e-01,-5.439136339826200831e-03,1.013335458007398094e-04,7.188547963008053987e-01
3.493333333333333492e+09,-1.004271812147477423e-06,1.062435800965771981e-04,-7.188733856752226314e-01,-5.629921138030443382e-03,1.062483264508692833e-04,7.188954309523588604e-01
3.600000000000000000e+09,-5.602559952545041707e-07,1.130151060528209047e-04,-7.188580898482724857e-01,-5.826566957970314223e-03,1.130164947382043599e-04,7.188817025233169566e-01
3.706666666666666985e+09,8.052147724461173293e-06,1.212608343826404957e-04,-7.188712727389620083e-01,-6.027024814144807743e-03,1.215278858458037785e-04,7.188965376168154897e-01
3.813333333333333969e+09,-1.201457509517427628e-06,1.305293471758673155e-04,-7.188743371793917536e-01,-6.231163329367630024e-03,1.305348764671927623e-04,7.189013423631556154e-01
3.920000000000000000e+09,-7.272210005828822791e-07,1.386148025639171366e-04,-7.188948354003582564e-01,-6.438643006844838035e-03,1.386167101767222685e-04,7.189236680545979530e-01
4.026666666666666985e+09,-1.647791433388236993e-07,1.443524930258197308e-04,-7.189019922842700971e-01,-6.651685032395359895e-03,1.443525870739260832e-04,7.189327641887404141e-01
4.133333333333333015e+09,5.571512536600402880e-07,1.470548148003979476e-04,-7.189101318033539467e-01,-6.869852723903287217e-03,1.470558702449473599e-04,7.189429549595459656e-01
4.240000000000000000e+09,1.281617269080751466e-06,1.470006449081759023e-04,-7.189194451419591569e-01,-7.093637887876626247e-03,1.470062316578587300e-04,7.189544410473495128e-01
4.346666666666666985e+09,1.838104072122601854e-06,1.452799096240986216e-04,-7.189301749198371283e-01,-7.323633669431399602e-03,1.452915371484733806e-04,7.189674763300435423e-01
4.453333333333333015e+09,2.107199180566540434e-06,1.433571942565964210e-04,-7.189426341169820045e-01,-7.560565565515156398e-03,1.433726802201524847e-04,7.189823873383375252e-01
4.560000000000000000e+09,2.724230560667930374e-06,1.426012711308812680e-04,-7.189657610561286383e-01,-7.806508720411883123e-03,1.426272903770200247e-04,7.190081412261061233e-01
4.666666666666666985e+09,1.765123713740077450e-06,1.437344173490789510e-04,-7.189745313483172362e-01,-8.059020243365359187e-03,1.437452551996204692e-04,7.190196969032318641e-01
4.773333333333333015e+09,1.341305337299069927e-06,1.470324709582196724e-04,-7.189952943038301347e-01,-8.323010241645664026e-03,1.470385888673023838e-04,7.190434658145039570e-01
4.880000000000000000e+09,9.161300586993908533e-07,1.520565586375719066e-04,-7.190206286831259952e-01,-8.598983881129569629e-03,1.520593184220743411e-04,7.190720457615257244e-01
4.986666666666666985e+09,5.707582446905968075e-07,1.580483449781943555e-04,-7.190521863349386145e-01,-8.889012069360663001e-03,1.580493755613106245e-04,7.191071277693084074e-01
5.093333333333333969e+09,3.124943915762480096e-07,1.641538078265694710e-04,-7.190925428417953569e-01,-9.195554229614703867e-03,1.641541052691252995e-04,7.191513355256103912e-01
5.200000000000000000e+09,7.165865643538302422e-08,1.696293139756698161e-04,-7.191458232475962387e-01,-9.521204096855742302e-03,1.696293291115054077e-04,7.192088489596862866e-01
5.306666666666666985e+09,-2.822043076737319970e-07,1.739456712247508324e-04,-7.192183720566145411e-01,-9.867695252361237054e-03,1.739459001445575271e-04,7.192860613923782731e-01
5.413333333333333015e+09,-9.206610678158772153e-07,1.767790548917301139e-04,-7.193183446391694380e-01,-1.023405591000588720e-02,1.767814522658276940e-04,7.193911431445371152e-01
5.520000000000000000e+09,-2.062084945387649754e-06,1.779072990194371028e-04,-7.194535342212883267e-01,-1.061572371367836172e-02,1.779192492079297255e-04,7.195318488388596778e-01
5.626666666666666985e+09,-4.041666594771091718e-06,1.770610960479433119e-04,-7.196295992687318233e-01,-1.100577724420876043e-02,1.771072183807376437e-04,7.197137537079756342e-01
5.733333333333333969e+09,-7.469753711807212602e-06,1.738078673893062118e-04,-7.198499410905255802e-01,-1.139642467702314636e-02,1.739683074210176639e-04,7.199401476396855015e-01
5.840000000000000954e+09,-1.346703216552282058e-05,1.675503652618121769e-04,-7.201161693020546872e-01,-1.177971483685887923e-02,1.680907072229571430e-04,7.202125095913728403e-01
5.946666666666666985e+09,-2.392914640060426644e-05,1.577043703140960039e-04,-7.204284778429390634e-01,-1.214778101589478361e-02,1.595094745262082649e-04,7.205308877978127136e-01
6.053333333333333969e+09,-4.174210311966346449e-05,1.440904630107751850e-04,-7.207858641452580262e-01,-1.249292535312319583e-02,1.500148816068332352e-04,7.208941220009392747e-01
6.160000000000000000e+09,-7.084489362126219440e-05,1.275347406643169087e-04,-7.211862436550768862e-01,-1.280766158473256415e-02,1.458907434641503245e-04,7.212999613424285750e-01
6.266666666666666985e+09,-1.160234946401729613e-04,1.106223834953260431e-04,-7.216265001437230930e-01,-1.308475534453393610e-02,1.603083373961105998e-04,7.217451188141871254e-01
6.373333333333333015e+09,-1.823294566788033705e-04,9.848915756551575480e-05,-7.221024949613692456e-01,-1.331727794214934181e-02,2.072296912383759365e-04,7.222252855731532417e-01
6.480000000000000000e+09,-2.740536223874601054e-04,9.947793340364728502e-05,-7.226090497256961731e-01,-1.349868375971204071e-02,2.915497336269561100e-04,7.227351196729812077e-01
6.586666666666666985e+09,-3.932541396044086533e-04,1.254419797181361611e-04,-7.231399146427256452e-01,-1.362292030410127558e-02,4.127765843547923715e-04,7.232682214138129728e-01
6.693333333333333015e+09,-5.379338254179460033e-04,1.914578483121854918e-04,-7.236877360130649084e-01,-1.368457920896937706e-02,5.709894116436109533e-04,7.238171087808314974e-01
6.799999999999999046e+09,-7.000751892549351638e-04,3.147306733777045524e-04,-7.242440400000881295e-01,-1.367909417955020905e-02,7.675680213343417848e-04,7.243732098119188834e-01
6.906666666666666031e+09,-8.638552228508956845e-04,5.125418165946641052e-04,-7.247992537882230746e-01,-1.360298719731831835e-02,1.004462522847382813e-03,7.249268925572118771e-01
7.013333333333333015e+09,-1.004456771504491294e-03,7.992063693777896449e-04,-7.253427882703138430e-01,-1.345415664509439641e-02,1.283613737335049642e-03,7.254675560125235512e-01
7.120000000000000000e+09,-1.087947432858134451e-03,1.182171596538648430e-03,-7.258632068566551743e-01,-1.323219087378945183e-02,1.606598674319552117e-03,7.259838055656253619e-01
7.226666666666666985e+09,-1.072690870090121755e-03,1.657585999902607375e-03,-7.263485009196284370e-01,-1.293867893119535206e-02,1.974400427939537392e-03,7.264637321991208596e-01
7.333333333333333015e+09,-9.126730065334979396e-04,2.205884083800494291e-03,-7.267864827582452003e-01,-1.257747895112012494e-02,2.387236186056847058e-03,7.268953050452774400e-01
7.440000000000000000e+09,-5.629557585919274130e-04,2.788140678002122910e-03,-7.271652913720479949e-01,-1.215489689526352661e-02,2.844406375056480942e-03,7.272668715779166959e-01
7.546666666666666985e+09,1.279264535874015743e-05,3.344120966068941762e-03,-7.274739859899852501e-01,-1.167972714710246128e-02,3.344145434558303594e-03,7.275677400203970357e-01
7.653333333333333969e+09,8.331017653371380026e-04,3.793056010390680882e-03,-7.277031805516471774e-01,-1.116311489321820255e-02,3.883469125584587938e-03,7.277887977422450305e-01
7.760000000000000954e+09,1.888702856625315736e-03,4.038162172478976068e-03,-7.278456537893629452e-01,-1.061821895609947435e-02,4.458021109400980841e-03,7.279231019234551070e-01
7.866666666666666985e+09,3.133134579068678951e-03,3.975738750492697864e-03,-7.278968598535369150e-01,-1.005968178092048713e-02,5.061919685526934491e-03,7.279663699527424425e-01
7.973333333333333969e+09,4.475931532064640443e-03,3.509238878181377037e-03,-7.278552681092905763e-01,-9.502945244026853033e-03,5.687593567043114189e-03,7.279173011288838646e-01
8.080000000000000954e+09,5.780901787878293605e-03,2.567916872147531226e-03,-7.277224792528939057e-01,-8.963480499581909927e-03,6.325584759004847235e-03,7.277776795097834484e-01
8.186666666666667938e+09,6.872279057793992049e-03,1.128427541763072110e-03,-7.275030965075748313e-01,-8.456019282923769864e-03,6.964306725382170098e-03,7.275522384614199201e-01
8.293333333333334923e+09,7.551250993939476533e-03,-7.639051694586680707e-04,-7.272043688865157396e-01,-7.993877721038700895e-03,7.589792005147282493e-03,7.272483043697348659e-01
8.399999999999999046e+09,7.618413294216054392e-03,-2.975748775666621059e-03,-7.268410362322835772e-01,-7.525537973720678418e-03,8.178954816929196597e-03,7.268799939969552426e-01
8.506666666666666031e+09,6.940545321759875042e-03,-5.299843771888104044e-03,-7.264078272666395497e-01,-7.248914895812383005e-03,8.732669315268042770e-03,7.264439952820911373e-01
8.613333333333332062e+09,5.436892135499038665e-03,-7.434664380308021736e-03,-7.259325933743130399e-01,-6.982175867492286525e-03,9.210539101533207415e-03,7.259661706326269170e-01
8.720000000000000000e+09,3.173845732978404326e-03,-9.058088717484412758e-03,-7.254220132615440964e-01,-6.792981434261293611e-03,9.598034587902027487e-03,7.254538179106910789e-01
8.826666666666666031e+09,3.556140447599717442e-04,-9.868959580298758763e-03,-7.248880778858652896e-01,-6.684182052760100426e-03,9.875364527266889195e-03,7.249188946018573221e-01
8.933333333333332062e+09,-2.682493827256157010e-03,-9.660578734866379080e-03,-7.243424867201990747e-01,-6.657030351594250654e-03,1.002609368726523932e-02,7.243730766125311415e-01
9.040000000000000000e+09,-5.523856877241821450e-03,-8.382526650214107769e-03,-7.237965657799800834e-01,-6.711455189624985704e-03,1.003891168612422446e-02,7.238276813342077176e-01
9.146666666666666031e+09,-7.751183983345901266e-03,-6.172625973229657614e-03,-7.232612836862892802e-01,-6.846262727112918146e-03,9.908691364103910937e-03,7.232936857133952513e-01
9.253333333333333969e+09,-9.038069191433961702e-03,-3.343381392324736370e-03,-7.227473131998467526e-01,-7.059254902995358225e-03,9.636643287145739770e-03,7.227817871372955727e-01
9.360000000000000000e+09,-9.224121114194894916e-03,-3.217116284181707146e-04,-7.222651055048789903e-01,-7.347282610048384323e-03,9.229729611488927954e-03,7.223024748619694124e-01
9.466666666666666031e+09,-8.349886647057908062e-03,2.442347539828468479e-03,-7.218249752294725319e-01,-7.706252696604260627e-03,8.699751061037442820e-03,7.218661102972300236e-01
9.573333333333333969e+09,-6.641361069011481565e-03,4.571263775929279051e-03,-7.214372144245281282e-01,-8.131083706190587665e-03,8.062513836149649837e-03,7.214830343666159829e-01
9.680000000000000000e+09,-4.450878586730874081e-03,5.833081632734965494e-03,-7.211122472528851413e-01,-8.615569428582327619e-03,7.337244818592973498e-03,7.211637131572031789e-01
9.786666666666667938e+09,-2.173841362164148638e-03,6.174650284042812118e-03,-7.208608019613342854e-01,-9.152080796955898781e-03,6.546135684362619327e-03,7.209188972327276179e-01
9.893333333333333969e+09,-1.648456086816303245e-04,5.711378624104331177e-03,-7.206940194788816756e-01,-9.731030358588426202e-03,5.713757070665281650e-03,7.207597121541036156e-01
1.000000000000000000e+10,1.326997867125717916e-03,4.681729572444463285e-03,-7.206233472765835035e-01,-1.034004978269210603e-02,4.866160203780514615e-03,7.206975268929510792e-01
1.010666666666666794e+10,2.191759064175789404e-03,3.381507941073754256e-03,-7.206599907139352723e-01,-1.096290215385318199e-02,4.029690279778533508e-03,7.207433714155436766e-01
1.021333333333333397e+10,2.458231560629687597e-03,2.094797712732199887e-03,-7.208136317883410138e-01,-1.157829290097080188e-02,3.229718232747854322e-03,7.209066157543559950e-01
1.031999999999999809e+10,2.263394100646103167e-03,1.036739575315726762e-03,-7.210901324980065752e-01,-1.215898176885676224e-02,2.489534454846008792e-03,7.211926372500263582e-01
1.042666666666666603e+10,1.857813547024719184e-03,2.551047988685879557e-04,-7.215229481257681154e-01,-1.263538371435633974e-02,1.875246552833613640e-03,7.216335757111838056e-01
1.053333333333333206e+10,1.267491410006728369e-03,-6.520152409919468140e-05,-7.220381546440559628e-01,-1.309433731666258781e-02,1.269167330648603847e-03,7.221568793770203332e-01
1.064000000000000000e+10,7.978459454038312184e-04,-1.520603676962692429e-04,-7.225777843620120322e-01,-1.335838019980684251e-02,8.122071829411864081e-04,7.227012527836637057e-01
1.074666666666666603e+10,4.735075845604057418e-04,-9.295795689666879304e-05,-7.232099689314408497e-01,-1.345195856861475248e-02,4.825459712676427788e-04,7.233350636815191192e-01
1.085333333333333206e+10,2.857199735105582787e-04,1.939829712554146232e-05,-7.238217389824047610e-01,-1.338033271412612801e-02,2.863777176985753603e-04,7.239454006532904939e-01
1.096000000000000000e+10,1.951671986440016351e-04,1.235277289233079555e-04,-7.243638462806695211e-01,-1.314854345869483770e-02,2.309747502206625314e-04,7.244831716427998503e-01
1.106666666666666603e+10,1.548154527007634463e-04,2.003037823607137398e-04,-7.247929135474643347e-01,-1.279195989954476538e-02,2.531589019231804188e-04,7.249057882005727205e-01
1.117333333333333397e+10,1.350800025189916487e-04,2.578970078240614815e-04,-7.250859232499471396e-01,-1.235796239317257968e-02,2.911313685007763628e-04,7.251912267324662764e-01
1.128000000000000000e+10,1.284630243579727715e-04,3.106339295174460782e-04,-7.252419369796464510e-01,-1.189340037838602232e-02,3.361490544306896611e-04,7.253394516545684789e-01
1.138666666666666603e+10,1.419909705549441260e-04,3.649697793242226494e-04,-7.252762563961017150e-01,-1.143430321787697670e-02,3.916176394636824466e-04,7.253663842376638637e-01
1.149333333333333397e+10,2.703163588001780368e-04,4.202859787544825773e-04,-7.252106663035189360e-01,-1.100171315036243928e-02,4.997111543407851747e-04,7.252941115248604520e-01
1.160000000000000000e+10,2.660147210175492862e-04,4.400061424787681517e-04,-7.250644688406274740e-01,-1.060398731469924284e-02,5.141684910776725187e-04,7.251420057630860727e-01
1.170666666666666794e+10,3.691277728879182349e-04,4.178160175442887205e-04,-7.248496901143844928e-01,-1.024315777443175063e-02,5.575172976991511330e-04,7.249220617005052159e-01
1.181333333333333397e+10,4.647103083849998427e-04,3.321613807109129700e-04,-7.245715333728176555e-01,-9.921738420694985183e-03,5.712152427544820148e-04,7.246394606061175026e-01
1.192000000000000000e+10,5.115069622501854617e-04,1.919135543941647348e-04,-7.242327058221079694e-01,-9.646659972069903874e-03,5.463242487668057076e-04,7.242969489311884557e-01
1.202666666666666794e+10,4.800701299627193816e-04,3.498747911046169463e-05,-7.238384320172901454e-01,-9.428864445994096163e-03,4.813433840585401406e-04,7.238998405511567480e-01
1.213333333333333397e+10,3.731572672039152900e-04,-8.728518817684090573e-05,-7.233990398191079141e-01,-9.279842478939832190e-03,3.832297615558592947e-04,7.234585587907860216e-01
1.224000000000000191e+10,2.272738082931814686e-04,-1.377018047065842470e-04,-7.229292153923593256e-01,-9.208067540026922820e-03,2.657351519004139758e-04,7.229878553444960554e-01
1.234666666666666603e+10,9.263584787785167883e-05,-1.127726932161852167e-04,-7.224455011380503944e-01,-9.217512132293470203e-03,1.459420455087577116e-04,7.225043007792533167e-01
1.245333333333333206e+10,6.008163681786155201e-06,-4.094366085258428897e-05,-7.219643070531371887e-01,-9.308263473640745328e-03,4.138213859672524697e-05,7.220243101361693006e-01
1.256000000000000000e+10,-2.533649810728454761e-05,3.734372351108196977e-05,-7.215015903932363583e-01,-9.477681901835007666e-03,4.512750626848961786e-05,7.215638373658991300e-01
1.266666666666666603e+10,-2.012298102376536431e-05,9.287131694210590065e-05,-7.210736804643275155e-01,-9.720374712918193605e-03,9.502639567953690000e-05,7.211391948458567569e-01
1.277333333333333206e+10,-5.476366460657080388e-06,1.191840297885654972e-04,-7.206974070537784938e-01,-1.002632211995584284e-02,1.193097797594693340e-04,7.207671466356473378e-01
1.288000000000000000e+10,5.354435606252014031e-07,1.274001314750568411e-04,-7.203875216572319662e-01,-1.037856371960367736e-02,1.274012566644002321e-04,7.204622793348245402e-01
1.298666666666666603e+10,-5.604361591923655739e-06,1.324518756203344686e-04,-7.201515646793886782e-01,-1.075372458082999791e-02,1.325703896961820752e-04,7.202318506581975033e-01
1.309333333333333397e+10,-1.840346894607412456e-05,1.437779945825908619e-04,-7.199860127934586407e-01,-1.112729885711005208e-02,1.449510241269120721e-04,7.200719932049002292e-01
1.320000000000000000e+10,-2.990291462509472246e-05,1.641732971293475901e-04,-7.198778460550216973e-01,-1.148061535743455028e-02,1.668743712898920761e-04,7.199693866893249750e-01
1.330666666666666603e+10,-3.280485515233668532e-05,1.908412953564046690e-04,-7.198104647590229943e-01,-1.180404261366913878e-02,1.936402812817526059e-04,7.199072444409946314e-01
1.341333333333333397e+10,-2.360955814946839968e-05,2.162419812790041982e-04,-7.197688250107742158e-01,-1.209512182876395711e-02,2.175270229269971262e-04,7.198704421140259546e-01
1.352000000000000000e+10,-3.341289036644194948e-06,2.384445414809138004e-04,-7.198507597348976494e-01,-1.229294740082975505e-02,2.384679508329570665e-04,7.199557158927963885e-01
1.362666666666666794e+10,1.195079235855280633e-05,2.355815022209316236e-04,-7.197160763668596362e-01,-1.258709144719799382e-02,2.358844327772989221e-04,7.198261355716444321e-01
1.373333333333333397e+10,2.253988832143134248e-05,2.313690487996203913e-04,-7.196854966440314749e-01,-1.279706287716653873e-02,2.324643699752366880e-04,7.197992629185225866e-01
1.384000000000000000e+10,2.536174079047168612e-05,2.263952794448801623e-04,-7.196426833532074685e-01,-1.299439711663196925e-02,2.278114142242404299e-04,7.197599919835984128e-01
