# Frequency, Real(S21), Imag(S21), Real(S11), Imag(S11), Amp(S21), Amp(S11)
2.000000000000000000e+09,3.797668518921130812e-05,5.399652795378098355e-05,-7.197402755628098392e-01,-3.179443167451595671e-03,6.601404130201326398e-05,7.197472981026635797e-01
2.106666666666666746e+09,4.266986223421762600e-05,5.705123952319399649e-05,-7.197804215266998540e-01,-3.354925564141432708e-03,7.124297210406065268e-05,7.197882402058918272e-01
2.213333333333333492e+09,3.374009371517309888e-05,6.430497820037893355e-05,-7.198605237864413864e-01,-3.538175097149069779e-03,7.261903431786925604e-05,7.198692189482113202e-01
2.320000000000000000e+09,2.294404799176408234e-05,6.550370402434268872e-05,-7.199191803118588640e-01,-3.712254517786923481e-03,6.940579643774042807e-05,7.199287513459255994e-01
2.426666666666666508e+09,2.946929936139458582e-05,7.313855321921811981e-05,-7.199908352688809687e-01,-3.877185626828025256e-03,7.885231494288479700e-05,7.200012746096813299e-01
2.533333333333333492e+09,4.131438042639667092e-06,7.174405174879328918e-05,-7.200634577496456412e-01,-4.029031692251105155e-03,7.186290935965297850e-05,7.200747296515500606e-01
2.640000000000000477e+09,9.410710514506125246e-06,8.527522216166685625e-05,-7.188554895149898982e-01,-4.214382320423565309e-03,8.579291921312314753e-05,7.188678430867376790e-01
2.746666666666666985e+09,1.106371731599489258e-05,8.096643885396561562e-05,-7.187754798864897099e-01,-4.340020455782512415e-03,8.171884765181896767e-05,7.187885824521770273e-01
2.853333333333333015e+09,1.320677826187353421e-05,8.405615525422948547e-05,-7.187853697583236334e-01,-4.521965112796336693e-03,8.508734470049836296e-05,7.187995937304718641e-01
2.960000000000000000e+09,4.173498154848170317e-06,8.710891724553451103e-05,-7.188077597567772425e-01,-4.701491074299265008e-03,8.720883871797572250e-05,7.188231350651413942e-01
3.066666666666666985e+09,2.756091406311978457e-06,9.093941977735402215e-05,-7.188006803195624572e-01,-4.887692763169445079e-03,9.098117447737060935e-05,7.188172977665555630e-01
3.173333333333333015e+09,-1.048961045992136967e-06,9.448024472465837466e-05,-7.188629234891843467e-01,-5.068323303251305589e-03,9.448606755764230405e-05,7.188807903042917502e-01
3.280000000000000000e+09,-6.080236653652680507e-07,9.782502674831838299e-05,-7.188485113048830311e-01,-5.257868679520548080e-03,9.782691629141159622e-05,7.188677398439142774e-01
3.386666666666666508e+09,1.182123951073144933e-05,1.018811671749017523e-04,-7.188517657079173118e-01,-5.449494046447196823e-03,1.025646816818068030e-04,7.188724212589829854e-01
3.493333333333333492e+09,-9.926422160505022930e-07,1.065176141260471454e-04,-7.188570596439505245e-01,-5.643472451431806071e-03,1.065222392633320686e-04,7.188792116769382456e-01
3.600000000000000000e+09,-9.961641250986665030e-07,1.133425685213919104e-04,-7.188608535088679696e-01,-5.841367573601562169e-03,1.133469460638025024e-04,7.188845862046481239e-01
3.706666666666666985e+09,1.033084644646643857e-05,1.214851902348769842e-04,-7.188622303659959467e-01,-6.043085503891419165e-03,1.219236557633698799e-04,7.188876303909961241e-01
3.813333333333333969e+09,-1.089894891244747558e-06,1.308733667625501995e-04,-7.188899546291079856e-01,-6.248547456765563869e-03,1.308779049291320903e-04,7.189171101121187846e-01
3.920000000000000000e+09,-7.423679008062854763e-07,1.389810854908973099e-04,-7.188876583872074733e-01,-6.459951366585360392e-03,1.389830681569818426e-04,7.189166824835134806e-01
4.026666666666666985e+09,-1.551254742882519624e-07,1.447395399777763711e-04,-7.189041148858423824e-01,-6.674613274657471493e-03,1.447396231060834790e-04,7.189350992003121776e-01
4.133333333333333015e+09,6.061096224961723900e-07,1.474615646255714933e-04,-7.189127176228735649e-01,-6.895625276177118346e-03,1.474628102631171320e-04,7.189457873914103514e-01
4.240000000000000000e+09,1.369684869447955757e-06,1.474244566251751206e-04,-7.189226109694786260e-01,-7.122670288411727876e-03,1.474308191928327255e-04,7.189578937567969730e-01
4.346666666666666985e+09,1.572508168217787168e-06,1.457042222713326866e-04,-7.189235285082180571e-01,-7.357604919428646292e-03,1.457127076463581136e-04,7.189611771110155924e-01
4.453333333333333015e+09,2.243581726217969521e-06,1.437921025676765826e-04,-7.189474753049532874e-01,-7.597708575406300624e-03,1.438096047550212935e-04,7.189876197981179828e-01
4.560000000000000000e+09,2.199059448186101723e-06,1.429864552835962538e-04,-7.189633017488010758e-01,-7.847552451497411333e-03,1.430033644954709689e-04,7.190061288619288282e-01
4.666666666666666985e+09,1.890358876681220365e-06,1.441192045347908853e-04,-7.189822266028442765e-01,-8.107224233721137610e-03,1.441316015744761663e-04,7.190279335711231568e-01
4.773333333333333015e+09,1.443507279593458880e-06,1.473568412736023659e-04,-7.190052044696639832e-01,-8.378304355534322082e-03,1.473639114009935665e-04,7.190540174690196462e-01
4.880000000000000000e+09,9.877655702260255877e-07,1.522880060975328141e-04,-7.190336447327266844e-01,-8.662754400503170499e-03,1.522912094704875416e-04,7.190858262901811404e-01
4.986666666666666985e+09,6.037801753186451361e-07,1.581437299560480741e-04,-7.190697226491534755e-01,-8.962966473826121730e-03,1.581448825441770709e-04,7.191255806872270950e-01
5.093333333333333969e+09,2.932363709634521316e-07,1.640539225435291414e-04,-7.191169311998423241e-01,-9.281661425385535902e-03,1.640541846143752584e-04,7.191768280312528239e-01
5.200000000000000000e+09,-2.465257038461103709e-08,1.692504121367035294e-04,-7.191808663476783048e-01,-9.621234832474930346e-03,1.692504139321178241e-04,7.192452201303104475e-01
5.306666666666666985e+09,-4.975026053271570803e-07,1.731641108824025547e-04,-7.192694687190371861e-01,-9.982039660323864874e-03,1.731648255464582451e-04,7.193387308821528325e-01
5.413333333333333015e+09,-1.328611483344475293e-06,1.754023570665701171e-04,-7.193913095611398356e-01,-1.036069881427522689e-02,1.754073888779553191e-04,7.194659132662309942e-01
5.520000000000000000e+09,-2.812240522175807805e-06,1.756328364119884181e-04,-7.195531730113871038e-01,-1.075069405579546708e-02,1.756553498270828405e-04,7.196334804700490473e-01
5.626666666666666985e+09,-5.455294927977982560e-06,1.734452201149581788e-04,-7.197593594979408982e-01,-1.114412547290030350e-02,1.735309903834975434e-04,7.198456272822957303e-01
5.733333333333333969e+09,-1.019165435585598343e-05,1.682850776592858817e-04,-7.200121096543286026e-01,-1.153275691635822185e-02,1.685934078821029066e-04,7.201044664012081764e-01
5.840000000000000954e+09,-1.865343225644796026e-05,1.595458202329719070e-04,-7.203120678652953357e-01,-1.190838983752791347e-02,1.606325598649218007e-04,7.204104974671734496e-01
5.946666666666666985e+09,-3.342639628168136707e-05,1.468764373552174118e-04,-7.206585648533422317e-01,-1.226298405367097846e-02,1.506320411417873143e-04,7.207628929643781213e-01
6.053333333333333969e+09,-5.818617187971984977e-05,1.307216528170348428e-04,-7.210497674894394970e-01,-1.258870918942210995e-02,1.430866210141035363e-04,7.211596513918610007e-01
6.160000000000000000e+09,-9.759313215317166478e-05,1.130568918852718774e-04,-7.214827484304071614e-01,-1.287798624806805146e-02,1.493528715700654980e-04,7.215976710137718131e-01
6.266666666666666985e+09,-1.568255603105131056e-04,9.821695831370284326e-05,-7.219535061378198337e-01,-1.312354050666886783e-02,1.850427714532562379e-04,7.220727749611678403e-01
6.373333333333333015e+09,-2.406612135940920444e-04,9.365115026967424199e-05,-7.224569531332548644e-01,-1.331847712943777864e-02,2.582408907888413658e-04,7.225797056129056317e-01
6.480000000000000000e+09,-3.520810961766188802e-04,1.103831889752887900e-04,-7.229868858782262375e-01,-1.345638898810295331e-02,3.689790599658520731e-04,7.231121016526376177e-01
6.586666666666666985e+09,-4.904643901383110060e-04,1.629238572821532912e-04,-7.235359501164108087e-01,-1.353150566355733504e-02,5.168166998708931389e-04,7.236624715683274145e-01
6.693333333333333015e+09,-6.495600513730788407e-04,2.683949440127613318e-04,-7.240956187601279570e-01,-1.353889086397740485e-02,7.028258008293449162e-04,7.242221804622109849e-01
6.799999999999999046e+09,-8.155429778191284479e-04,4.446813417893983721e-04,-7.246562038509494208e-01,-1.347469128923850512e-02,9.288981883961832525e-04,7.247814712622067113e-01
6.906666666666666031e+09,-9.655697442899483559e-04,7.075407806777411941e-04,-7.252069280588084865e-01,-1.333643260354503389e-02,1.197054254163203635e-03,7.253295450614725137e-01
7.013333333333333015e+09,-1.067318735494422570e-03,1.066761871388369285e-03,-7.257360826387942998e-01,-1.312334766800655333e-02,1.509022920099436149e-03,7.258547264418123701e-01
7.120000000000000000e+09,-1.080011317131449435e-03,1.521661813753313539e-03,-7.262312957964615068e-01,-1.283670935366245346e-02,1.865979399823865237e-03,7.263447364036157428e-01
7.226666666666666985e+09,-9.573466304405088036e-04,2.056438406386077843e-03,-7.266799262837921880e-01,-1.248012744025322855e-02,2.268358765732508050e-03,7.267870863222204436e-01
7.333333333333333015e+09,-6.526296715446108830e-04,2.636114403619468308e-03,-7.270695811193498281e-01,-1.205975910418709447e-02,2.715699658863338257e-03,7.271695906586838065e-01
7.440000000000000000e+09,-1.261211357904041836e-04,3.204009358624312822e-03,-7.273887344995266790e-01,-1.158437950355971184e-02,3.206490684696470736e-03,7.274809749576309770e-01
7.546666666666666985e+09,6.457180440961824211e-04,3.681810621215557064e-03,-7.276274006210685652e-01,-1.106526607854620668e-02,3.738004981666970435e-03,7.277115323038120254e-01
7.653333333333333969e+09,1.659877388655979502e-03,3.973346835431437567e-03,-7.277777914617934440e-01,-1.051586943884780419e-02,4.306120994584849461e-03,7.278537608991662022e-01
7.760000000000000954e+09,2.876696889333304683e-03,3.973030686883058903e-03,-7.278348779669171487e-01,-9.951273491778697688e-03,4.905135862747777437e-03,7.279029038472270008e-01
7.866666666666666985e+09,4.212003461964933075e-03,3.579542365232537583e-03,-7.277967752190005468e-01,-9.387483200241967390e-03,5.527576024633142071e-03,7.278573149045156621e-01
7.973333333333333969e+09,5.534082965126772835e-03,2.714558492303066530e-03,-7.276648911855774227e-01,-8.840611659085863966e-03,6.164000492621737881e-03,7.277185927806332222e-01
8.080000000000000954e+09,6.668484045207059147e-03,1.345083470044530598e-03,-7.274438128433146078e-01,-8.326060957727924455e-03,6.802788325574163700e-03,7.274914598365338492e-01
8.186666666666667938e+09,7.413495911575574554e-03,-4.938139864537238917e-04,-7.271409458407559478e-01,-7.857796031843562734e-03,7.429924217928812226e-03,7.271834019535011739e-01
8.293333333333334923e+09,7.567966773065105610e-03,-2.681120692952502615e-03,-7.267659649326578819e-01,-7.447795686704832864e-03,8.028856036098515683e-03,7.268041259136385213e-01
8.399999999999999046e+09,6.970468410469842641e-03,-5.003893421209573873e-03,-7.263301626807388001e-01,-7.105732199153621566e-03,8.580581520630313486e-03,7.263649197544679303e-01
8.506666666666666031e+09,5.544543572199531548e-03,-7.170591667043067080e-03,-7.258457958076990346e-01,-6.838887712268064065e-03,9.064179404639265136e-03,7.258780129449113883e-01
8.613333333333332062e+09,3.339644288345777930e-03,-8.848724751952731504e-03,-7.253255192407560559e-01,-6.652271850081812633e-03,9.457967736702294070e-03,7.253560240203700271e-01
8.720000000000000000e+09,5.534223259628816066e-04,-9.725572962878913791e-03,-7.247819685034191384e-01,-6.548871116530755911e-03,9.741306161247345261e-03,7.248115545302739049e-01
8.826666666666666031e+09,-2.478671276626146034e-03,-9.581370997977544865e-03,-7.242275093159287191e-01,-6.529946334982231204e-03,9.896791474940588862e-03,7.242569471182802587e-01
8.933333333333332062e+09,-5.333453003646149507e-03,-8.355167044658877440e-03,-7.236741313820743704e-01,-6.595304831655600906e-03,9.912342673972479590e-03,7.237041843719174139e-01
9.040000000000000000e+09,-7.583359885284230925e-03,-6.179957298032218507e-03,-7.231334373516957736e-01,-6.743505330368605201e-03,9.782597781532252623e-03,7.231648795953933284e-01
9.146666666666666031e+09,-8.892073817762561130e-03,-3.369977293602168314e-03,-7.226166782693036472e-01,-6.971990705296683861e-03,9.509244120324845603e-03,7.226503112622016944e-01
9.253333333333333969e+09,-9.093246348231907861e-03,-3.586196975771660782e-04,-7.221348116373093040e-01,-7.277166201824868293e-03,9.100315227349175390e-03,7.221714777851456768e-01
9.360000000000000000e+09,-8.226989858241481879e-03,2.396350760517843795e-03,-7.216985889848203106e-01,-7.654435032099062355e-03,8.568889023382356487e-03,7.217391798415416782e-01
9.466666666666666031e+09,-6.523494903343841911e-03,4.511878786284961168e-03,-7.213186942821676606e-01,-8.098172181587572072e-03,7.931773820280135084e-03,7.213641515307049890e-01
9.573333333333333969e+09,-4.341323615085519207e-03,5.754709566453312421e-03,-7.210059386142696480e-01,-8.601579088630679007e-03,7.208590217589599947e-03,7.210572450782682941e-01
9.680000000000000000e+09,-2.081155682192878907e-03,6.074681351801692990e-03,-7.207714711273822683e-01,-9.156336504895319292e-03,6.421289784727906083e-03,7.208296276439541961e-01
9.786666666666667938e+09,-9.968486670384525163e-05,5.592956755646145972e-03,-7.206269004132342948e-01,-9.751974014135298893e-03,5.593845041040878228e-03,7.206928822989427941e-01
9.893333333333333969e+09,1.355956589230332453e-03,4.554196460761336142e-03,-7.205841415578482234e-01,-1.037491145999483617e-02,4.751770583170892431e-03,7.206588262503025311e-01
1.000000000000000000e+10,2.181398725716278929e-03,3.258524260543406350e-03,-7.206547200226500749e-01,-1.100721838093642047e-02,3.921285600043251246e-03,7.207387767751988195e-01
1.010666666666666794e+10,2.555542488461390316e-03,1.981676739866447979e-03,-7.208482000981148996e-01,-1.162531290808967860e-02,3.233858393878610762e-03,7.209419362784377228e-01
1.021333333333333397e+10,2.194644832837251355e-03,9.625330065978368686e-04,-7.211694376672223017e-01,-1.219911260285015328e-02,2.396442307064686975e-03,7.212726087780920725e-01
1.031999999999999809e+10,1.724803093154275756e-03,2.792782360874347496e-04,-7.216146291931520018e-01,-1.269252458963014696e-02,1.747267021180983230e-03,7.217262453631768659e-01
1.042666666666666603e+10,1.222146469132213021e-03,-5.451877247605288641e-05,-7.222554130580335352e-01,-1.294684450028438759e-02,1.223361879643399420e-03,7.223714435622058394e-01
1.053333333333333206e+10,7.478461251088592892e-04,-1.423608700773206425e-04,-7.227925403270391014e-01,-1.328491654555530831e-02,7.612755376140148888e-04,7.229146183056729402e-01
1.064000000000000000e+10,4.409385230250207396e-04,-7.765103806471037933e-05,-7.234424086926376507e-01,-1.332440176222980839e-02,4.477236478007542509e-04,7.235651030676690798e-01
1.074666666666666603e+10,2.685924180119642415e-04,3.273905535876504326e-05,-7.240575783750913264e-01,-1.318234389746030834e-02,2.705803628486332210e-04,7.241775686894978969e-01
1.085333333333333206e+10,1.870241101920559637e-04,1.313690225780203948e-04,-7.245818016446802234e-01,-1.288125196819530326e-02,2.285516088025519243e-04,7.246962908190704988e-01
1.096000000000000000e+10,1.506291850577731663e-04,2.034427251389763392e-04,-7.249744723245693523e-01,-1.246432600176043161e-02,2.531365121888621748e-04,7.250816126098951209e-01
1.106666666666666603e+10,1.326578518806703351e-04,2.586510685925173954e-04,-7.252185016106604820e-01,-1.198379582443333952e-02,2.906862242171875292e-04,7.253175073309435783e-01
1.117333333333333397e+10,1.277426715542514146e-04,3.108038389221116416e-04,-7.253194085394104595e-01,-1.148738381278347626e-02,3.360315705771397708e-04,7.254103696466037698e-01
1.128000000000000000e+10,1.440427590597730589e-04,3.651666575324892788e-04,-7.252970608681441611e-01,-1.100903237414286272e-02,3.925493653172835431e-04,7.253806071972033198e-01
1.138666666666666603e+10,1.928593772323678520e-04,4.135228444367753764e-04,-7.251749464931019906e-01,-1.056691454202680902e-02,4.562848696346814836e-04,7.252519305070561639e-01
1.149333333333333397e+10,2.776316599010584109e-04,4.348240102083116769e-04,-7.249719170705720694e-01,-1.016778278668554851e-02,5.158984962500423469e-04,7.250432155035847481e-01
1.160000000000000000e+10,3.835312754745124481e-04,4.033471908191530939e-04,-7.246991949186191162e-01,-9.814238183342425745e-03,5.565835028176892123e-04,7.247656465277683147e-01
1.170666666666666794e+10,4.748280997145230982e-04,3.055099200604872479e-04,-7.243626584745178620e-01,-9.510897363920118794e-03,5.646220289130335097e-04,7.244250949276522800e-01
1.181333333333333397e+10,5.083273064257945017e-04,1.565430769350607885e-04,-7.239678947140425480e-01,-9.266566171430340795e-03,5.318856882774718620e-04,7.240271968823356330e-01
1.192000000000000000e+10,4.588310810169358750e-04,1.106365384304693750e-06,-7.235243476846852095e-01,-9.092191270647224585e-03,4.588324148875420742e-04,7.235814740819800361e-01
1.202666666666666794e+10,3.378082205413744307e-04,-1.080802306071254452e-04,-7.230461878151133170e-01,-8.997062653884375580e-03,3.546769376678151958e-04,7.231021621115276687e-01
1.213333333333333397e+10,1.888659574928460252e-04,-1.395840025123884606e-04,-7.225503827585787464e-01,-8.986274861056077826e-03,2.348489805323156730e-04,7.226062612242210026e-01
1.224000000000000191e+10,6.277648375430574797e-05,-9.893390304640078308e-05,-7.220543015248889196e-01,-9.060585648841400219e-03,1.171699794510063186e-04,7.221111469593134435e-01
1.234666666666666603e+10,-9.563533199222570445e-06,-2.082643852433316577e-05,-7.215747605540767662e-01,-9.217582985198152432e-03,2.291727970027116447e-05,7.216336320493677015e-01
1.245333333333333206e+10,-2.871822839010074147e-05,5.427791108222226163e-05,-7.211286756424072353e-01,-9.452184259092952581e-03,6.140707022253719344e-05,7.211906201698965457e-01
1.256000000000000000e+10,-1.807089974436819081e-05,1.022190079809509068e-04,-7.207337375631041043e-01,-9.755140130171830598e-03,1.038040606632549480e-04,7.207997525115007464e-01
1.266666666666666603e+10,8.660034555320886762e-05,1.253841287557458969e-04,-7.204066566074174283e-01,-1.011019275165862819e-02,1.523837248323214096e-04,7.204775963773982772e-01
1.277333333333333206e+10,-1.381169405503120085e-06,1.279268405651803886e-04,-7.201578945404727428e-01,-1.049316014550635140e-02,1.279342962849125236e-04,7.202343365036173450e-01
1.288000000000000000e+10,-1.039294049017324637e-05,1.337124548141814030e-04,-7.199860038824721364e-01,-1.087644229740467559e-02,1.341157477124397602e-04,7.200681514854687659e-01
1.298666666666666603e+10,-2.421808868680618064e-05,1.478195337336188136e-04,-7.198773199376220511e-01,-1.123743573912608026e-02,1.497902879791159099e-04,7.199650239578061495e-01
1.309333333333333397e+10,-3.379320401770554111e-05,1.715125414129650997e-04,-7.198122066312525602e-01,-1.156421591307917052e-02,1.748099897022945914e-04,7.199050936790469812e-01
1.320000000000000000e+10,-3.454200095166852199e-05,2.076633413870768586e-04,-7.198745201836185270e-01,-1.178710612609030518e-02,2.105165389839731773e-04,7.199710137779317121e-01
1.330666666666666603e+10,-1.702922085418228572e-05,2.296544630678889185e-04,-7.198516489290546216e-01,-1.205033805426849666e-02,2.302849686147597223e-04,7.199525033730358459e-01
1.341333333333333397e+10,1.502797005828132544e-06,2.321621767457331250e-04,-7.197154577918564167e-01,-1.234170291803947037e-02,2.321670405336591944e-04,7.198212679654989454e-01
1.352000000000000000e+10,1.661107846118496466e-05,2.314625065982417235e-04,-7.196798775101919121e-01,-1.255124992530510381e-02,2.320577942849253795e-04,7.197893163751266643e-01
1.362666666666666794e+10,2.262015244082359229e-05,2.259625372230409984e-04,-7.196679859863482909e-01,-1.263936893922986034e-02,2.270919186688955785e-04,7.197789686430333678e-01
1.373333333333333397e+10,2.445128906905633706e-05,2.233371465879919820e-04,-7.195719125583709408e-01,-1.295161961139936098e-02,2.246716416978448625e-04,7.196884616231318255e-01
1.384000000000000000e+10,2.312139147624128689e-05,2.226166193661587272e-04,-7.195070929188367437e-01,-1.316319001775453912e-02,2.238141147510915995e-04,7.196274913675541063e-01
