# Frequency, Real(S21), Imag(S21), Real(S11), Imag(S11), Amp(S21), Amp(S11)
2.000000000000000000e+09,4.615640543897049262e-05,5.610453187621157489e-05,-7.197407424136398335e-01,-3.188085529212720311e-03,7.265075539934506301e-05,7.197478031779458441e-01
2.106666666666666746e+09,3.640692494635696340e-05,6.077824131447832120e-05,-7.197486771195914512e-01,-3.372056998470172005e-03,7.084813901106102739e-05,7.197565762004559664e-01
2.213333333333333492e+09,4.383128054357463243e-05,6.730077076081973403e-05,-7.198023271389971667e-01,-3.547630776275089749e-03,8.031547110669246762e-05,7.198110695445303353e-01
2.320000000000000000e+09,4.407430725781439799e-05,7.094264359109919618e-05,-7.199019432512515637e-01,-3.708216347103704576e-03,8.351887954199313372e-05,7.199114937028059380e-01
2.426666666666666508e+09,1.706466529056407179e-05,6.929232158063255206e-05,-7.199946556450214086e-01,-3.856255045724233700e-03,7.136265572071137024e-05,7.200049825246841451e-01
2.533333333333333492e+09,1.638706378872266704e-05,7.438685938540314749e-05,-7.200801299836904201e-01,-4.027938056083172833e-03,7.617047137073135828e-05,7.200913955063704686e-01
2.640000000000000477e+09,9.513667158225947465e-06,8.702665790247104407e-05,-7.189192261192920430e-01,-4.193732319775981231e-03,8.754512578362791462e-05,7.189314578419362389e-01
2.746666666666666985e+09,8.320342410673211712e-06,8.048602581141854227e-05,-7.187129623294757907e-01,-4.333707349669187713e-03,8.091494576867229948e-05,7.187260279409692920e-01
2.853333333333333015e+09,1.621421113383001792e-05,8.382299911257497910e-05,-7.187809824799811231e-01,-4.502122766905918005e-03,8.537678737759556830e-05,7.187950819839373784e-01
2.960000000000000000e+09,4.869030612087621291e-06,8.665764673675745784e-05,-7.188027467536407533e-01,-4.678209163613141278e-03,8.679432698658418120e-05,7.188179702689388995e-01
3.066666666666666985e+09,6.793229571986573408e-07,9.049712323633781245e-05,-7.188253323831427233e-01,-4.857307683685438068e-03,9.049967289296182511e-05,7.188417433021468961e-01
3.173333333333333015e+09,1.685682609821592874e-06,9.382724399113919053e-05,-7.188470912731705909e-01,-5.039927819950456092e-03,9.384238509774685017e-05,7.188647588415558731e-01
3.280000000000000000e+09,-4.651383165404033946e-07,9.707618411562766829e-05,-7.188316108106787006e-01,-5.226708523862808216e-03,9.707729845903601516e-05,7.188506125633256083e-01
3.386666666666666508e+09,-3.474529382505911186e-07,1.007462037753619551e-04,-7.188417842679596381e-01,-5.413962106871277047e-03,1.007468029204453415e-04,7.188621716262710848e-01
3.493333333333333492e+09,-8.781192920752694688e-07,1.056577686137076956e-04,-7.188717212136293000e-01,-5.602991691377759605e-03,1.056614175653483774e-04,7.188935561517710848e-01
3.600000000000000000e+09,8.079819703642057035e-08,1.124224275547772698e-04,-7.188362710441080772e-01,-5.798167865309674512e-03,1.124224565896769036e-04,7.188596548139231102e-01
3.706666666666666985e+09,-4.750787058704295363e-07,1.208356694453322216e-04,-7.188781598450820765e-01,-5.992836749215226834e-03,1.208366033537783903e-04,7.189031386734614504e-01
3.813333333333333969e+09,8.953794863840568643e-06,1.295470833819366480e-04,-7.188856348440636479e-01,-6.192943101911297342e-03,1.298561406142588958e-04,7.189123093461510239e-01
3.920000000000000000e+09,-2.769282490917941581e-06,1.377631377447517506e-04,-7.189030302953440810e-01,-6.397244372213008526e-03,1.377909686691909143e-04,7.189314930529794312e-01
4.026666666666666985e+09,-1.641462731357479128e-07,1.435290865803357701e-04,-7.188978225219031515e-01,-6.604994031161727161e-03,1.435291804428092820e-04,7.189281641255164113e-01
4.133333333333333015e+09,4.798036356057486232e-07,1.461840756045356207e-04,-7.189050866441242249e-01,-6.817549784661829440e-03,1.461848630053102485e-04,7.189374121492511094e-01
4.240000000000000000e+09,1.127019019722107477e-06,1.460857497375023955e-04,-7.189133161552613283e-01,-7.034943540773186746e-03,1.460900970231692082e-04,7.189477356358920934e-01
4.346666666666666985e+09,1.158837620992777157e-06,1.443139996950208281e-04,-7.189103107735741460e-01,-7.258673757469566445e-03,1.443186523378260329e-04,7.189469544279843971e-01
4.453333333333333015e+09,1.592206673786600260e-06,1.423911447086033486e-04,-7.189226324936486279e-01,-7.487217201909354691e-03,1.424000463957735810e-04,7.189616192350091195e-01
4.560000000000000000e+09,1.756247571986410627e-06,1.416309235959095614e-04,-7.189366603632221242e-01,-7.722264027235976880e-03,1.416418120618501586e-04,7.189781324740894819e-01
4.666666666666666985e+09,1.542483556769646443e-06,1.428187630773279019e-04,-7.189603087392140157e-01,-7.963536075107429182e-03,1.428270924665934029e-04,7.190044112863324122e-01
4.773333333333333015e+09,1.162732065874707694e-06,1.462005064495197485e-04,-7.189773066725131390e-01,-8.214228977177251076e-03,1.462051299782366701e-04,7.190242284288830277e-01
4.880000000000000000e+09,7.918734484193302484e-07,1.513611764994718064e-04,-7.189975330386058072e-01,-8.474481499385198846e-03,1.513632479000849346e-04,7.190474736429330882e-01
4.986666666666666985e+09,5.095643593886192998e-07,1.575594303607704175e-04,-7.190219516336285865e-01,-8.745790889435355042e-03,1.575602543519361628e-04,7.190751391817922222e-01
5.093333333333333969e+09,3.314568801810490469e-07,1.639669960901028246e-04,-7.190519676723009512e-01,-9.029975555759016045e-03,1.639673311073739921e-04,7.191086654129160705e-01
5.200000000000000000e+09,2.070955265222163176e-07,1.698781237791185624e-04,-7.190897100067998871e-01,-9.329193080804387000e-03,1.698782500123857285e-04,7.191502241404104101e-01
5.306666666666666985e+09,3.523556067541764399e-08,1.748196482000397261e-04,-7.191385021264177224e-01,-9.645804480489850175e-03,1.748196517509698923e-04,7.192031888032084375e-01
5.413333333333333015e+09,-3.143781083597409335e-07,1.785565325950803049e-04,-7.192034671968684512e-01,-9.981764444824138202e-03,1.785568093520182285e-04,7.192727318962043315e-01
5.520000000000000000e+09,-9.853698354800659537e-07,1.810148416662981383e-04,-7.192916242998151910e-01,-1.033722369356237722e-02,1.810175236190896073e-04,7.193659006246801990e-01
5.626666666666666985e+09,-2.141700893162170311e-06,1.821541354839146870e-04,-7.194105020352526969e-01,-1.070923540490388050e-02,1.821667257119370946e-04,7.194902071338927785e-01
5.733333333333333969e+09,-4.021807565320819228e-06,1.818271436775574469e-04,-7.195662202058026313e-01,-1.109217044108469497e-02,1.818716171205160732e-04,7.196517084717855006e-01
5.840000000000000954e+09,-7.061830306308587143e-06,1.796763361010898091e-04,-7.197628248560703490e-01,-1.147909786818813484e-02,1.798150583293481861e-04,7.198543559169852113e-01
5.946666666666666985e+09,-1.208806004598948541e-05,1.751229689565822283e-04,-7.200025597073794748e-01,-1.186270122599185524e-02,1.755396691686625940e-04,7.201002775069286210e-01
6.053333333333333969e+09,-2.055063443155795953e-05,1.674958260345202257e-04,-7.202862450845932685e-01,-1.223564904490790847e-02,1.687518305516292596e-04,7.203901623187347614e-01
6.160000000000000000e+09,-3.474408085710890923e-05,1.563306000691593359e-04,-7.206135323690748828e-01,-1.259072592842575694e-02,1.601449583114896553e-04,7.207235180100899363e-01
6.266666666666666985e+09,-5.793616645653046674e-05,1.418473267428317782e-04,-7.209830491573446798e-01,-1.292088587420694816e-02,1.532229208955581919e-04,7.210988187925400084e-01
6.373333333333333015e+09,-9.430895400108324196e-05,1.255799459790129895e-04,-7.213924736071796184e-01,-1.321928673320975356e-02,1.570493605108605917e-04,7.215135830452674703e-01
6.480000000000000000e+09,-1.486121156116581112e-04,1.110881489390185797e-04,-7.218385630418920895e-01,-1.347932800908443335e-02,1.855428191584638457e-04,7.219644058940579701e-01
6.586666666666666985e+09,-2.254460826170472327e-04,1.046326143703405279e-04,-7.223171518506625866e-01,-1.369470344262327215e-02,2.485435981017110568e-04,7.224469619010343013e-01
6.693333333333333015e+09,-3.281360812082742941e-04,1.156470840865805524e-04,-7.228231295386183808e-01,-1.385947717175304433e-02,3.479188638870445399e-04,7.229559887735053092e-01
6.799999999999999046e+09,-4.572283557902974589e-04,1.568073710890726833e-04,-7.233504096305325426e-01,-1.396819145932655035e-02,4.833697559493818543e-04,7.234852627975940642e-01
6.906666666666666031e+09,-6.087314989397349559e-04,2.434893704183842787e-04,-7.238919021865923842e-01,-1.401601267399322712e-02,6.556226897447629516e-04,7.240275786616147125e-01
7.013333333333333015e+09,-7.719274878389460488e-04,3.918186677507862464e-04,-7.243630440492196954e-01,-1.399758448945584606e-02,8.656754096538419848e-04,7.244982760198890315e-01
7.120000000000000000e+09,-9.298809517469556682e-04,6.195364887936758488e-04,-7.249841382636441622e-01,-1.391393161415718609e-02,1.117364777218532402e-03,7.251176444045767111e-01
7.226666666666666985e+09,-1.054626790266283750e-03,9.367074115328936478e-04,-7.255158256987402909e-01,-1.375937302091369968e-02,1.410552530595021075e-03,7.256462868955187995e-01
7.333333333333333015e+09,-1.111492268126295854e-03,1.348093270938175402e-03,-7.260238712559744512e-01,-1.353514966172137367e-02,1.747217939827005843e-03,7.261500271361813752e-01
7.440000000000000000e+09,-1.058925222291576696e-03,1.845906324956685281e-03,-7.264971172667664678e-01,-1.324301891777408466e-02,2.128072552080957722e-03,7.266178080304517284e-01
7.546666666666666985e+09,-8.525443198525719472e-04,2.406486788168032791e-03,-7.269243079550192776e-01,-1.288681439481796295e-02,2.553039458946958565e-03,7.270385268203675144e-01
7.653333333333333969e+09,-4.507255991664828321e-04,2.987305441783805280e-03,-7.272945454740978866e-01,-1.247258711835428843e-02,3.021116907412740339e-03,7.274014856362335246e-01
7.760000000000000954e+09,1.780143930672477975e-04,3.525769212646919382e-03,-7.275978159056025740e-01,-1.200862378682221281e-02,3.530260282895296507e-03,7.276969072050921694e-01
7.866666666666666985e+09,1.046318056299346986e-03,3.940741440961672767e-03,-7.278255447190763450e-01,-1.150531053444904354e-02,4.077281518297544080e-03,7.279164757828430199e-01
7.973333333333333969e+09,2.138858229277211358e-03,4.137627012847690418e-03,-7.279711270380641031e-01,-1.097482636336129247e-02,4.657753946098242871e-03,7.280538500789451861e-01
8.080000000000000954e+09,3.404133575914472087e-03,4.017649406435955944e-03,-7.280303707959847603e-01,-1.043067264329522112e-02,5.265893291332766728e-03,7.281050883856881040e-01
8.186666666666667938e+09,4.749011334627894869e-03,3.491499818970659856e-03,-7.280017938167021585e-01,-9.887070792182973272e-03,5.894376951154071953e-03,7.280689294079137897e-01
8.293333333333334923e+09,6.038228892655298288e-03,2.496799106021712743e-03,-7.278867301683010771e-01,-9.358283651805875125e-03,6.534080955721933287e-03,7.279468864058755706e-01
8.399999999999999046e+09,7.101206253785630196e-03,1.017733841735463281e-03,-7.276892256101638035e-01,-8.857932676181904524e-03,7.173765568473628763e-03,7.277431360311243935e-01
8.506666666666666031e+09,7.748159422477531380e-03,-8.961604058266726264e-04,-7.274157322386858304e-01,-8.398387590998328614e-03,7.799812684231512312e-03,7.274642124685393174e-01
8.613333333333332062e+09,7.786685923258550995e-03,-3.110940326244184418e-03,-7.270921573769476565e-01,-7.899778116192598607e-03,8.385131327589636502e-03,7.271350712304758268e-01
8.720000000000000000e+09,7.104839810752969914e-03,-5.434091235995138630e-03,-7.266757317007427330e-01,-7.642302882913011054e-03,8.944724495342462611e-03,7.267159168727240770e-01
8.826666666666666031e+09,5.613491285406011291e-03,-7.572242176967089282e-03,-7.262295763963146911e-01,-7.360966227758766744e-03,9.426035009375284546e-03,7.262668803247033233e-01
8.933333333333332062e+09,3.376763651802878671e-03,-9.221855377110454999e-03,-7.257470465972347684e-01,-7.150867490993359672e-03,9.820649131115423078e-03,7.257822748941190616e-01
9.040000000000000000e+09,5.818562014325993946e-04,-1.009377365982952988e-02,-7.252389151433455972e-01,-7.014851005556654862e-03,1.011053031917782258e-02,7.252728398147327837e-01
9.146666666666666031e+09,-2.460313888075797359e-03,-9.981730746579837305e-03,-7.247156295658891967e-01,-6.954331540504231877e-03,1.028047144468948598e-02,7.247489954903409970e-01
9.253333333333333969e+09,-5.356894996784997490e-03,-8.819821369331213440e-03,-7.241872393881363390e-01,-6.969591282407560685e-03,1.031918470585208893e-02,7.242207763487965577e-01
9.360000000000000000e+09,-7.692203408478628414e-03,-6.664827363412379954e-03,-7.237026031267053128e-01,-7.118789730064069461e-03,1.017791319777785509e-02,7.237376147054886966e-01
9.466666666666666031e+09,-9.167854256787929049e-03,-3.946153224334674955e-03,-7.231536924500273633e-01,-7.224176962683833379e-03,9.981065922216500116e-03,7.231897756722621695e-01
9.573333333333333969e+09,-9.562868265239792345e-03,-9.069171480524845829e-04,-7.226673214551294633e-01,-7.459958481092423752e-03,9.605776812510374851e-03,7.227058243017493444e-01
9.680000000000000000e+09,-8.887972850838681688e-03,1.965091819881322963e-03,-7.222136407204169384e-01,-7.764433090382101381e-03,9.102617604722829450e-03,7.222553767635478961e-01
9.786666666666667938e+09,-7.325265713770689330e-03,4.282588403244172795e-03,-7.218020302340906191e-01,-8.133830419722648877e-03,8.485286159520249311e-03,7.218478579640946746e-01
9.893333333333333969e+09,-5.193331331455332614e-03,5.782616211746575974e-03,-7.214420281485426356e-01,-8.563402467452692346e-03,7.772344599323291123e-03,7.214928494731616127e-01
1.000000000000000000e+10,-2.873392039090978504e-03,6.368152297805759407e-03,-7.211434289677103315e-01,-9.047215761583996332e-03,6.986397175823901538e-03,7.212001783529616850e-01
1.010666666666666794e+10,-7.287704776875778652e-04,6.109440945228790040e-03,-7.209163630043815552e-01,-9.577804658387815279e-03,6.152753454542692069e-03,7.209799836261332473e-01
1.021333333333333397e+10,9.626993114345012547e-04,5.209589038509730707e-03,-7.207712778215479288e-01,-1.014563000931606278e-02,5.297792739849040491e-03,7.208426796054691055e-01
1.031999999999999809e+10,2.049968886670605096e-03,3.946768255657729166e-03,-7.207186812189134706e-01,-1.073831954048556567e-02,4.447398351866523741e-03,7.207986743637112559e-01
1.042666666666666603e+10,2.513979748162740047e-03,2.632200078526804755e-03,-7.207522606475356142e-01,-1.134363437040907495e-02,3.639858709835989189e-03,7.208415216046192286e-01
1.053333333333333206e+10,2.469568233677681482e-03,1.432674333074907165e-03,-7.209284428704538783e-01,-1.192911127273638822e-02,2.855052189617824331e-03,7.210271308594251582e-01
1.064000000000000000e+10,2.078713268201413163e-03,5.675063412774845276e-04,-7.212023202887265505e-01,-1.248050851953726517e-02,2.154788225971814106e-03,7.213103006908671011e-01
1.074666666666666603e+10,1.541229216059786028e-03,5.713285806697261313e-05,-7.215864685896644648e-01,-1.296349424637491081e-02,1.542287800608940730e-03,7.217029055191468423e-01
1.085333333333333206e+10,1.022031317335160387e-03,-1.447821022781942525e-04,-7.220667070520927489e-01,-1.334556648872945589e-02,1.032235375655153956e-03,7.221900259474356432e-01
1.096000000000000000e+10,6.215165700831455295e-04,-1.392688284491264746e-04,-7.226159446936666342e-01,-1.359698625302909608e-02,6.369290804049613890e-04,7.227438561210225432e-01
1.106666666666666603e+10,3.753370517008511212e-04,-4.133413561625896675e-05,-7.232978321970855440e-01,-1.356044848335814096e-02,3.776061614256720402e-04,7.234249372423328106e-01
1.117333333333333397e+10,2.338102764155749580e-04,8.013779992553258721e-05,-7.237555166201977697e-01,-1.364294707094839375e-02,2.471625221072811722e-04,7.238840914420968664e-01
1.128000000000000000e+10,1.723047954803217188e-04,1.732629043997873828e-04,-7.242523781483426459e-01,-1.344857609252623695e-02,2.443542031285022577e-04,7.243772300759089289e-01
1.138666666666666603e+10,1.421043575554744795e-04,2.402533032122397723e-04,-7.245849742033781959e-01,-1.315064327624012111e-02,2.791331190322040006e-04,7.247043012566498632e-01
1.149333333333333397e+10,1.300858641649040763e-04,2.964163424002437129e-04,-7.249309091598454824e-01,-1.277765409230727407e-02,3.237050819765861960e-04,7.250435100733078064e-01
1.160000000000000000e+10,1.335612238552496894e-04,3.514776352209243596e-04,-7.250961492942186171e-01,-1.238111429898821995e-02,3.759988411926362727e-04,7.252018461866933663e-01
1.170666666666666794e+10,1.635631742601016073e-04,4.049142074501408122e-04,-7.251598195334956198e-01,-1.198603314712504489e-02,4.367017602082868427e-04,7.252588702363149675e-01
1.181333333333333397e+10,2.267312153255870402e-04,4.436311401807518755e-04,-7.251407332491245361e-01,-1.160830887215614365e-02,4.982124371601853773e-04,7.252336422505160085e-01
1.192000000000000000e+10,3.187937343328785169e-04,4.473388441454085544e-04,-7.250546529145969199e-01,-1.125276694677660935e-02,5.493100094948681188e-04,7.251419684979383273e-01
1.202666666666666794e+10,4.200110130791068902e-04,3.974099119299956450e-04,-7.249099786933387302e-01,-1.091888043446912794e-02,5.782247739486302395e-04,7.249922062747427010e-01
1.213333333333333397e+10,4.970617130019552507e-04,2.890688137671377318e-04,-7.247080012666285986e-01,-1.060716134076804783e-02,5.750053266059178356e-04,7.247856227682644148e-01
1.224000000000000191e+10,5.151409689421937096e-04,1.413381250611612096e-04,-7.244468845694874704e-01,-1.032329339989094749e-02,5.341785127450435341e-04,7.245204337691633079e-01
1.234666666666666603e+10,4.569710097140830258e-04,-4.923763913264995150e-06,-7.241268143600104734e-01,-1.007832741015354285e-02,4.569975351904888793e-04,7.241969455600895111e-01
1.245333333333333206e+10,3.360440306148197850e-04,-1.045773356342567545e-04,-7.237533505475459705e-01,-9.885558557002497096e-03,3.519403495483487839e-04,7.238208595341687479e-01
1.256000000000000000e+10,1.922170418302545714e-04,-1.316155697830972428e-04,-7.233375567535551554e-01,-9.756555954935982808e-03,2.329593298824994129e-04,7.234033531815459162e-01
1.266666666666666603e+10,7.092783951529501641e-05,-9.203077596706843054e-05,-7.228937775611394834e-01,-9.698735519270798230e-03,1.161913169880098419e-04,7.229588363850925070e-01
1.277333333333333206e+10,8.556994869743624944e-08,-1.744071489217512995e-05,-7.224371073168233126e-01,-9.715194520550939072e-03,1.744092480822790136e-05,7.225024283923697777e-01
1.288000000000000000e+10,-2.048643003286036159e-05,5.502022040311425552e-05,-7.219821023273796934e-01,-9.805877447505457339e-03,5.871046302575507202e-05,7.220486904036170772e-01
1.298666666666666603e+10,-1.209693186153016599e-05,1.024914372495731965e-04,-7.215429931950170239e-01,-9.968532724778532764e-03,1.032028607643494786e-04,7.216118504248036913e-01
1.309333333333333397e+10,2.870597649759296782e-07,1.236787118983600359e-04,-7.211344382506772455e-01,-1.019831931908508904e-02,1.236790450324799892e-04,7.212065472165749558e-01
1.320000000000000000e+10,2.784939980986784048e-06,1.313131348654666757e-04,-7.207711808768039186e-01,-1.048610096238909196e-02,1.313426635899163646e-04,7.208474550804322423e-01
1.330666666666666603e+10,-4.833572344144028876e-06,1.386675177200644160e-04,-7.204654875243835521e-01,-1.081708965204112097e-02,1.387517347360041071e-04,7.205466869969551214e-01
1.341333333333333397e+10,-1.634605273223864235e-05,1.520906361120476279e-04,-7.202233992010789176e-01,-1.117215209718777115e-02,1.529665160513646847e-04,7.203100455631862298e-01
1.352000000000000000e+10,-2.563165754214547377e-05,1.722230906362149175e-04,-7.200428604824791190e-01,-1.153205374502503863e-02,1.741200011964384221e-04,7.201352020248482644e-01
1.362666666666666794e+10,-2.791786960835990076e-05,1.967218093203027126e-04,-7.199155805255755824e-01,-1.188174760313490640e-02,1.986929231395092395e-04,7.200136241833074990e-01
1.373333333333333397e+10,-2.033005470239560819e-05,2.203841841837640887e-04,-7.198308784511044944e-01,-1.221171138304390398e-02,2.213199036746258113e-04,7.199344549794735038e-01
1.384000000000000000e+10,-4.500109022617262793e-06,2.364052224719665732e-04,-7.197783335398449944e-01,-1.251646786715244347e-02,2.364480496710333422e-04,7.198871518517786505e-01
