# Frequency, Real(S21), Imag(S21), Real(S11), Imag(S11), Amp(S21), Amp(S11)
2.000000000000000000e+09,3.753345700823855897e-05,5.358013811116827958e-05,-7.197423131223485981e-01,-3.189053962979057025e-03,6.541858753443977677e-05,7.197493781615150743e-01
2.106666666666666746e+09,3.535058919883143311e-05,5.982444240649892873e-05,-7.198041185143957410e-01,-3.351805945577210951e-03,6.948833043003008127e-05,7.198119224029170260e-01
2.213333333333333492e+09,4.378809145449100192e-05,6.742971984815289541e-05,-7.198354564562237101e-01,-3.546661541404863647e-03,8.040002532354857223e-05,7.198441936833478438e-01
2.320000000000000000e+09,4.462970012648416788e-05,7.065618480534905234e-05,-7.198737665019402376e-01,-3.709010671477457402e-03,8.357096735486277243e-05,7.198833214194165775e-01
2.426666666666666508e+09,1.865603562097174734e-05,6.992375085889583966e-05,-7.199897809981948837e-01,-3.865892211914616176e-03,7.236973538204975384e-05,7.200001596280537486e-01
2.533333333333333492e+09,1.560911545790871879e-05,7.399358178783808752e-05,-7.200850472168905947e-01,-4.023523299167146988e-03,7.562205122298527383e-05,7.200962879817466300e-01
2.640000000000000477e+09,1.021378253406266678e-05,8.602924568469787268e-05,-7.189381441261208927e-01,-4.167381128546593892e-03,8.663343734800802397e-05,7.189502222998346292e-01
2.746666666666666985e+09,8.543299292667742736e-06,8.088127696954198749e-05,-7.187277118099566486e-01,-4.330068084636081414e-03,8.133122971545345755e-05,7.187407552192888183e-01
2.853333333333333015e+09,1.376639341633307016e-05,8.377647448265220301e-05,-7.187810621175938497e-01,-4.504043913678111577e-03,8.490000744661765344e-05,7.187951736555224791e-01
2.960000000000000000e+09,1.632066565437856147e-05,8.718788828152777793e-05,-7.187955364932719915e-01,-4.681767559054972327e-03,8.870226598229709249e-05,7.188107833290536819e-01
3.066666666666666985e+09,2.594301154095108711e-06,9.032425530439470193e-05,-7.188079858378900733e-01,-4.861407172442305108e-03,9.036150449595011294e-05,7.188244248660590197e-01
3.173333333333333015e+09,2.706403380461259435e-06,9.380569993546454153e-05,-7.188564879271429620e-01,-5.041793890841816256e-03,9.384473325467010819e-05,7.188741683497775758e-01
3.280000000000000000e+09,-1.075628208146669011e-06,9.709036403192722255e-05,-7.188496727277250420e-01,-5.227816419789020966e-03,9.709632209251958693e-05,7.188686820590227677e-01
3.386666666666666508e+09,-5.067849469745056725e-07,1.007671196596905824e-04,-7.188498275930961245e-01,-5.416065167957902216e-03,1.007683940305336058e-04,7.188702305649661284e-01
3.493333333333333492e+09,-4.314881674664040571e-07,1.057073672573127733e-04,-7.188689654256004147e-01,-5.605621931110383108e-03,1.057082479020017812e-04,7.188908209521858161e-01
3.600000000000000000e+09,1.182846247195984613e-05,1.128471618714695015e-04,-7.188475822476519950e-01,-5.800315583919988215e-03,1.134653888500638819e-04,7.188709829755043357e-01
3.706666666666666985e+09,-4.642719508705765924e-07,1.208703802033208664e-04,-7.188774704490965561e-01,-5.995697777300751895e-03,1.208712718512538310e-04,7.189024731569146898e-01
3.813333333333333969e+09,3.178171160228129762e-05,1.286856872742054474e-04,-7.188370938345729488e-01,-6.198104858962348584e-03,1.325521908593184492e-04,7.188638146244233917e-01
3.920000000000000000e+09,-2.885095885943847458e-06,1.377878285551675916e-04,-7.189031023852778812e-01,-6.400401959747110785e-03,1.378180303016239767e-04,7.189315932440468737e-01
4.026666666666666985e+09,-2.680514614013403311e-07,1.435590440460912632e-04,-7.188979095345932047e-01,-6.608298457502864882e-03,1.435592942968637331e-04,7.189282815008125604e-01
4.133333333333333015e+09,3.926996597850779893e-07,1.462165775040395006e-04,-7.189051810213636928e-01,-6.821013881477373635e-03,1.462171048476120915e-04,7.189375393799735114e-01
4.240000000000000000e+09,1.057252367789441196e-06,1.461219595564370807e-04,-7.189134181531673384e-01,-7.038574347357392548e-03,1.461257843338479114e-04,7.189478731657212851e-01
4.346666666666666985e+09,1.102811496163447753e-06,1.443549904065720966e-04,-7.189104182833231382e-01,-7.262512424285776265e-03,1.443592028534294391e-04,7.189471006986644097e-01
4.453333333333333015e+09,1.811382820455763094e-06,1.424375711775114619e-04,-7.189335582884289755e-01,-7.490133426121548151e-03,1.424490884164264742e-04,7.189725748121432725e-01
4.560000000000000000e+09,1.766277029898987335e-06,1.416614765012476503e-04,-7.189459780651970000e-01,-7.725352112480899161e-03,1.416724873045570798e-04,7.189874828127291728e-01
4.666666666666666985e+09,2.186568000648628525e-06,1.429150398607244722e-04,-7.189690930231211752e-01,-7.969007485861268059e-03,1.429317658815349812e-04,7.190132556516598550e-01
4.773333333333333015e+09,1.115316495406046368e-06,1.462629003353059325e-04,-7.189774373778731187e-01,-8.218804018161976824e-03,1.462671526535625074e-04,7.190244114061374869e-01
4.880000000000000000e+09,7.509962367705386651e-07,1.514271157154670059e-04,-7.189976598562833887e-01,-8.479265276793473277e-03,1.514289779707076995e-04,7.190476568478935127e-01
4.986666666666666985e+09,4.857336340441161191e-07,1.576282148441203207e-04,-7.190220642991759226e-01,-8.750787373813913306e-03,1.576289632399686795e-04,7.190753126263688122e-01
5.093333333333333969e+09,3.378009847209001494e-07,1.640385296377396213e-04,-7.190520477771455976e-01,-9.035186763464063409e-03,1.640388774504899561e-04,7.191088109683799745e-01
5.200000000000000000e+09,2.578719266674167694e-07,1.699532380181466729e-04,-7.190897242901108655e-01,-9.334620419709430475e-03,1.699534336539964782e-04,7.191503088492751106e-01
5.306666666666666985e+09,1.449186937137972325e-07,1.749006811884933304e-04,-7.191383914961150259e-01,-9.651456371012090071e-03,1.749007412266362447e-04,7.192031540070588091e-01
5.413333333333333015e+09,-1.311068721622595864e-07,1.786484586533407584e-04,-7.192031375750801425e-01,-9.987680375052277945e-03,1.786485067618152108e-04,7.192724844293113540e-01
5.520000000000000000e+09,-7.123802318872980560e-07,1.811277396376702591e-04,-7.192909656557566755e-01,-1.034351353392408759e-02,1.811291405374807482e-04,7.193653324606471555e-01
5.626666666666666985e+09,-1.757823815420905093e-06,1.823077640283577393e-04,-7.194094454324969634e-01,-1.071608852016931943e-02,1.823162383595751542e-04,7.194892526860042770e-01
5.733333333333333969e+09,-3.492447507620691634e-06,1.820574228816597656e-04,-7.195647766132794443e-01,-1.109981484987996973e-02,1.820909179940201686e-04,7.196503829167468780e-01
5.840000000000000954e+09,-6.322560183764126547e-06,1.800414118812628808e-04,-7.197610822283158072e-01,-1.148775822451126964e-02,1.801523931550060476e-04,7.198527516648812741e-01
5.946666666666666985e+09,-1.101758272892849232e-05,1.757034587608312793e-04,-7.200006661077543724e-01,-1.187257742000723607e-02,1.760485516830738364e-04,7.200985469296574681e-01
6.053333333333333969e+09,-1.893294989443838991e-05,1.683810783829314112e-04,-7.202843935686680243e-01,-1.224690750953072102e-02,1.694421557614993559e-04,7.203885023805771670e-01
6.160000000000000000e+09,2.230002268569888685e-05,1.556683471125870470e-04,-7.206119496548346604e-01,-1.260349636657268069e-02,1.572575127125809980e-04,7.207221587449661460e-01
6.266666666666666985e+09,-5.397969784675319533e-05,1.434221348099572343e-04,-7.209819872960893106e-01,-1.293526033234029989e-02,1.532439771510525465e-04,7.210980148116368227e-01
6.373333333333333015e+09,-8.818441312864993675e-05,1.272260409731536398e-04,-7.213922039854188117e-01,-1.323531972596204455e-02,1.547997293942950504e-04,7.215136073971083475e-01
6.480000000000000000e+09,-1.394193911697230248e-04,1.121889359278513778e-04,-7.218393723435532205e-01,-1.349703692178184575e-02,1.789528540670971997e-04,7.219655459029902245e-01
6.586666666666666985e+09,-2.122205387062100091e-04,1.040325933080632113e-04,-7.223193397262251958e-01,-1.371406854754411361e-02,2.363479162572728590e-04,7.224495167267098727e-01
6.693333333333333015e+09,-3.100549562046881120e-04,1.114812670405335377e-04,-7.228270076484620832e-01,-1.388044056369964509e-02,3.294877065507206522e-04,7.229602683524678497e-01
6.799999999999999046e+09,-4.339372839505265195e-04,1.463831587569078318e-04,-7.233563015322688194e-01,-1.399065423781238951e-02,4.579624390384106247e-04,7.234915876307371763e-01
6.906666666666666031e+09,-5.807900659774167546e-04,2.232845645770381408e-04,-7.239001432876620568e-01,-1.403982977438050957e-02,6.222323501043718324e-04,7.240362796655919198e-01
7.013333333333333015e+09,-7.417445650904940565e-04,3.582874775410957446e-04,-7.244504423150049943e-01,-1.402389166933464167e-02,8.237444484814738068e-04,7.245861666551187685e-01
7.120000000000000000e+09,-9.006675463471955270e-04,5.670837602885570646e-04,-7.249981235679104907e-01,-1.393979509302895221e-02,1.064324208230784784e-03,7.251321238672486791e-01
7.226666666666666985e+09,-1.033269045714794434e-03,8.621620312166918595e-04,-7.255332130587143213e-01,-1.378578579618825080e-02,1.345722218328899381e-03,7.256641724250413317e-01
7.333333333333333015e+09,-1.107179592567745976e-03,1.249322584686932743e-03,-7.260450004925129708e-01,-1.356167749053231730e-02,1.669327280915075019e-03,7.261716476402327869e-01
7.440000000000000000e+09,-1.083368605861224823e-03,1.723799766793074166e-03,-7.265222944480054235e-01,-1.326912144149969622e-02,2.035969835769074060e-03,7.266434572153137594e-01
7.546666666666666985e+09,-9.191984577591956517e-04,2.266463142985539019e-03,-7.269537769152971673e-01,-1.291183469777000895e-02,2.445767974125667450e-03,7.270684350504278415e-01
7.653333333333333969e+09,-5.732652382054463560e-04,2.840729297593793962e-03,-7.273284511610972336e-01,-1.249574808747006688e-02,2.897995164858367841e-03,7.274357838247071939e-01
7.760000000000000954e+09,-1.196474804342770662e-05,3.390943640376646237e-03,-7.276361608651824575e-01,-1.202903518091847680e-02,3.390964748770851529e-03,7.277355840454727831e-01
7.866666666666666985e+09,7.825602942338376680e-04,3.843062964529382966e-03,-7.278681416876137122e-01,-1.152199055743908032e-02,3.921929826430952531e-03,7.279593312474165190e-01
7.973333333333333969e+09,1.803788409132719203e-03,4.108455324809609337e-03,-7.280175523598909626e-01,-1.098674076798502111e-02,4.486987606499261844e-03,7.281004498122422008e-01
8.080000000000000954e+09,3.012615103961547008e-03,4.091492166326472953e-03,-7.280799249719910327e-01,-1.043679285622167545e-02,5.080960333610973732e-03,7.281547251733959669e-01
8.186666666666667938e+09,4.331141816070404986e-03,3.701280039162211603e-03,-7.280534764994300856e-01,-9.886450225464795891e-03,5.697215403968352090e-03,7.281205988989507549e-01
8.293333333333334923e+09,5.640447125094195241e-03,2.867290851484302974e-03,-7.279392371099611125e-01,-9.350148685763608192e-03,6.327400777411602492e-03,7.279992844808833574e-01
8.399999999999999046e+09,6.784589007993738208e-03,1.557736328810381586e-03,-7.277409743159010125e-01,-8.841781750178233715e-03,6.961119915465118629e-03,7.277946845112119867e-01
8.506666666666666031e+09,7.582956253702395968e-03,-2.017219824928797797e-04,-7.274649211363551915e-01,-8.374089009602476291e-03,7.585638885669758469e-03,7.275131179921530133e-01
8.613333333333332062e+09,7.852262247724183658e-03,-2.312791577921366817e-03,-7.271193459885306742e-01,-7.958173075862115878e-03,8.185782020670868617e-03,7.271628949757364957e-01
8.720000000000000000e+09,7.429406806638982549e-03,-4.611161237177573494e-03,-7.267176239459115505e-01,-7.638166815906224580e-03,8.744077621669574599e-03,7.267577633200068554e-01
8.826666666666666031e+09,6.236887051617632030e-03,-6.816377210668907866e-03,-7.262550750845484515e-01,-7.286682273204081808e-03,9.239142729320838632e-03,7.262916286345407757e-01
8.933333333333332062e+09,4.298629494937374063e-03,-8.650974982728041815e-03,-7.257675347796631593e-01,-7.102368720328437919e-03,9.660102674740676798e-03,7.258022858751472794e-01
9.040000000000000000e+09,1.716687703404679933e-03,-9.854683380380598046e-03,-7.251766431055971518e-01,-6.947475860781976778e-03,1.000308958265247114e-02,7.252099221099631565e-01
9.146666666666666031e+09,-1.225044644595697785e-03,-1.011347691668594215e-02,-7.247145141469616414e-01,-6.905360636628640573e-03,1.018740151979845993e-02,7.247474118758814310e-01
9.253333333333333969e+09,-4.180722919755754628e-03,-9.379599773812970914e-03,-7.241753891164540713e-01,-6.924237793964263012e-03,1.026914485479114326e-02,7.242084915761448638e-01
9.360000000000000000e+09,-6.752602095687413632e-03,-7.668841568827662082e-03,-7.236417592553083811e-01,-7.020735310462771113e-03,1.021806077836989388e-02,7.236758158612303093e-01
9.466666666666666031e+09,-8.585877927140057875e-03,-5.187334919911474294e-03,-7.231236364282548346e-01,-7.193146014092106910e-03,1.003123837574822208e-02,7.231594118248084735e-01
9.573333333333333969e+09,-9.439986298845142246e-03,-2.276408131303833422e-03,-7.226307697982863321e-01,-7.438891832735149492e-03,9.710580585250823404e-03,7.226690574329047712e-01
9.680000000000000000e+09,-9.239821938737952448e-03,6.532294736712694876e-04,-7.221727211165409610e-01,-7.754559580241495755e-03,9.262883903237479136e-03,7.222143534430430778e-01
9.786666666666667938e+09,-8.088309323909685655e-03,3.204147257288650092e-03,-7.217589571304277030e-01,-8.135893956601509755e-03,8.699845249522242599e-03,7.218048108515733308e-01
9.893333333333333969e+09,-6.237844647260321930e-03,5.069125913900339800e-03,-7.213989708618684382e-01,-8.577730760458382453e-03,8.037832007098070358e-03,7.214499654345835067e-01
1.000000000000000000e+10,-4.030598386403750830e-03,6.083070581087240275e-03,-7.211024292352473664e-01,-9.073828139922530955e-03,7.297223516308759886e-03,7.211595162001869230e-01
1.010666666666666794e+10,-1.825201110480134409e-03,6.239797520562966049e-03,-7.208793104847762701e-01,-9.616538185617223844e-03,6.501263891838390645e-03,7.209434499956858255e-01
1.021333333333333397e+10,7.175849256978281306e-05,5.674127333042790558e-03,-7.207399473277558144e-01,-1.019626533476286623e-02,5.674581065844347925e-03,7.208120667003246052e-01
1.031999999999999809e+10,1.455235688067296317e-03,4.617826184587473133e-03,-7.206948360584037871e-01,-1.080068865766191551e-02,4.841696973054632896e-03,7.207757637412132157e-01
1.042666666666666603e+10,2.244594022573257429e-03,3.342077475265760496e-03,-7.207540150252976785e-01,-1.141379427952450218e-02,4.025876820873976712e-03,7.208443832582329680e-01
1.053333333333333206e+10,2.478671958051122809e-03,2.099770159893953048e-03,-7.209257782439441042e-01,-1.201489157266744101e-02,3.248514953022390694e-03,7.210258909055481391e-01
1.064000000000000000e+10,2.287169610803671017e-03,1.079198171963975791e-03,-7.212145209871303475e-01,-1.257798720694270657e-02,2.528994567600769457e-03,7.213241927489150163e-01
1.074666666666666603e+10,1.846471074132822847e-03,3.777547577226987151e-04,-7.216177036078168516e-01,-1.307214066995853949e-02,1.884715916150589334e-03,7.217360951358288146e-01
1.085333333333333206e+10,1.330942783243414243e-03,1.103390745488177366e-07,-7.221223688101302551e-01,-1.346359820344383493e-02,1.330942787817131299e-03,7.222478688182731865e-01
1.096000000000000000e+10,8.622231471421103058e-04,-1.206622837843294820e-04,-7.227147670278719627e-01,-1.373225296968134425e-02,8.706251444770563832e-04,7.228452180458653231e-01
1.106666666666666603e+10,5.377226637114287250e-04,-8.307629206635944868e-05,-7.233179966984135678e-01,-1.381874396387351885e-02,5.441023188449111694e-04,7.234499858542712269e-01
1.117333333333333397e+10,3.333984115742272768e-04,1.692333497566245659e-05,-7.239200561010377122e-01,-1.375087269602311493e-02,3.338276503031412253e-04,7.240506433428753885e-01
1.128000000000000000e+10,2.265929964726505030e-04,1.179066102574947441e-04,-7.244580593076146435e-01,-1.352887791953327583e-02,2.554336602581331120e-04,7.245843706798518191e-01
1.138666666666666603e+10,1.752495951844322726e-04,1.961861563898127702e-04,-7.248907176527915608e-01,-1.318396630987078016e-02,2.630616440519511828e-04,7.250105995824054350e-01
1.149333333333333397e+10,1.492569331112258014e-04,2.548347614408327561e-04,-7.251941405563765430e-01,-1.275916371410621732e-02,2.953275939027287674e-04,7.253063750967483347e-01
1.160000000000000000e+10,1.373378099934523190e-04,3.062091078673681360e-04,-7.253642393893237061e-01,-1.229876066118758444e-02,3.355975145836558840e-04,7.254684964205222464e-01
1.170666666666666794e+10,1.428314592454353019e-04,3.585431489961527223e-04,-7.254127327529945601e-01,-1.183893782380635029e-02,3.859456120261737242e-04,7.255093337021677469e-01
1.181333333333333397e+10,1.752361294412168875e-04,4.095336458609436761e-04,-7.253592686418798285e-01,-1.140300915803275049e-02,4.454497818539096825e-04,7.254488935979852560e-01
1.192000000000000000e+10,2.412652414780873649e-04,4.452828022274332156e-04,-7.252233878497602593e-01,-1.100208755280230981e-02,5.064441634622667172e-04,7.253068372866777747e-01
1.202666666666666794e+10,1.534405120427147012e-04,4.411631754768940874e-04,-7.250193122387285083e-01,-1.063966465173628827e-02,4.670855790246444253e-04,7.250973766212510663e-01
1.213333333333333397e+10,4.379369553400528237e-04,3.865893598305125082e-04,-7.247548784646979936e-01,-1.031742780959721620e-02,5.841576071461202424e-04,7.248283128955336219e-01
1.224000000000000191e+10,5.105540058765673309e-04,2.699715557913517244e-04,-7.244340977629993850e-01,-1.003957904255530116e-02,5.775379068537517431e-04,7.245036612392256048e-01
1.234666666666666603e+10,5.192591473391280910e-04,1.175379661457565204e-04,-7.240612680332980666e-01,-9.813950266229229738e-03,5.323957509043807362e-04,7.241277742814561380e-01
1.245333333333333206e+10,4.506761572105254200e-04,-2.695454694370569846e-05,-7.236440637981763624e-01,-9.650114574592060998e-03,4.514815015911357015e-04,7.237084052169366899e-01
1.256000000000000000e+10,3.231143552522920985e-04,-1.196838880034610867e-04,-7.231941276490646553e-01,-9.556384706584056254e-03,3.445680188551013029e-04,7.232572645710182435e-01
1.266666666666666603e+10,1.782615931328396979e-04,-1.389630792934232585e-04,-7.227256152553952484e-01,-9.537775304085945732e-03,2.260263988851043840e-04,7.227885472972305214e-01
1.277333333333333206e+10,5.956860028325436092e-05,-9.436670702493796942e-05,-7.222533215849190613e-01,-9.595716947065771954e-03,1.115952218261902608e-04,7.223170621854205775e-01
1.288000000000000000e+10,-8.373990236865673118e-06,-1.799680567617415426e-05,-7.217917488886635979e-01,-9.728832785164183428e-03,1.984965307084977489e-05,7.218573120438119828e-01
1.298666666666666603e+10,-2.750809779810374370e-05,5.487852399802414197e-05,-7.213553577956443030e-01,-9.933447149884701635e-03,6.138687026288073211e-05,7.214237489802796111e-01
1.309333333333333397e+10,-1.857879315566529583e-05,1.031599360843582405e-04,-7.209590884845081815e-01,-1.020282207307154736e-02,1.048195781714936735e-04,7.210312786881494240e-01
1.320000000000000000e+10,-5.188670183132048117e-06,1.255158583288084532e-04,-7.206175668690509850e-01,-1.052526073471610202e-02,1.256230591503281358e-04,7.206944281689743326e-01
1.330666666666666603e+10,-1.117654607438692434e-06,1.334037754006669975e-04,-7.203419303519610351e-01,-1.088286436254781893e-02,1.334084571643534729e-04,7.204241343541477605e-01
1.341333333333333397e+10,-8.018684450458695562e-06,1.397194998472414326e-04,-7.201354877480313776e-01,-1.125344876490383568e-02,1.399494120669298380e-04,7.202234103548700306e-01
1.352000000000000000e+10,-2.056565397955743526e-05,1.522839753766669856e-04,-7.199917594885848482e-01,-1.161592257411553711e-02,1.536663765438887636e-04,7.200854556153151176e-01
1.362666666666666794e+10,-3.145010251236452870e-05,1.732282608907714859e-04,-7.198971993063472130e-01,-1.195566481418110748e-02,1.760600446418193667e-04,7.199964690818084767e-01
1.373333333333333397e+10,-3.431110195393164287e-05,1.958252346992440647e-04,-7.197914318276508183e-01,-1.228608621519930791e-02,1.988083857947322858e-04,7.198962795062820996e-01
1.384000000000000000e+10,-2.530901386944045170e-05,2.245866421080559426e-04,-7.197965293810419940e-01,-1.254638167688399211e-02,2.260081989583907324e-04,7.199058656534028655e-01
