# Frequency, Real(S21), Imag(S21), Real(S11), Imag(S11), Amp(S21), Amp(S11)
2.000000000000000000e+09,3.750138579131076158e-05,5.356266761247125980e-05,-7.197524456891237765e-01,-3.185156552621192915e-03,6.538587995915328506e-05,7.197594933710425025e-01
2.106666666666666746e+09,4.327163612272749075e-05,5.657535920764436208e-05,-7.197988211548671522e-01,-3.356631046774287679e-03,7.122644005010866908e-05,7.198066475852529233e-01
2.213333333333333492e+09,4.377417353079181869e-05,6.744610853806921598e-05,-7.198354598489020706e-01,-3.547555433833990413e-03,8.040619270449812653e-05,7.198442014807345801e-01
2.320000000000000000e+09,4.435266416528125567e-05,7.060391894092430580e-05,-7.198735097998549826e-01,-3.710844770941414041e-03,8.337908723639779549e-05,7.198830741727965110e-01
2.426666666666666508e+09,1.898494102222094776e-05,6.977462332655412253e-05,-7.199639142880758236e-01,-3.863492973793344627e-03,7.231131340239727468e-05,7.199742804121312956e-01
2.533333333333333492e+09,1.498439572593669700e-05,7.412676232582693652e-05,-7.200802512389672394e-01,-4.030816779101998627e-03,7.562611326903627819e-05,7.200915328680659311e-01
2.640000000000000477e+09,9.510024150856962019e-06,8.654755362800826144e-05,-7.189315743102090428e-01,-4.176072382232264360e-03,8.706847649030531556e-05,7.189437030259722139e-01
2.746666666666666985e+09,8.583156745020712863e-06,8.091179447116731869e-05,-7.187220330851190608e-01,-4.331470661828096258e-03,8.136577329721642656e-05,7.187350850487967957e-01
2.853333333333333015e+09,1.386851212875420261e-05,8.359268590806088074e-05,-7.187936926498386114e-01,-4.503294966212423138e-03,8.473531003064261864e-05,7.188077992472976518e-01
2.960000000000000000e+09,1.630472182763088583e-05,8.722801623409552846e-05,-7.187956047270211979e-01,-4.683735326036326044e-03,8.873877827653508621e-05,7.188108643805326547e-01
3.066666666666666985e+09,7.348665376723141905e-09,9.045158436946071747e-05,-7.188080735061899151e-01,-4.863601543138574429e-03,9.045158466797888566e-05,7.188245273762231546e-01
3.173333333333333015e+09,2.690314046265321021e-06,9.386003809960116414e-05,-7.188566041762380898e-01,-5.044228529085195353e-03,9.389858647352533020e-05,7.188743016753668114e-01
3.280000000000000000e+09,-1.092017188539283402e-06,9.715136720443563289e-05,-7.188498112913216387e-01,-5.230530650391060181e-03,9.715750434851215035e-05,7.188688403627280232e-01
3.386666666666666508e+09,-5.228725137664655356e-07,1.008347921261232435e-04,-7.188499915465318413e-01,-5.419085797036165934e-03,1.008361477783842103e-04,7.188704172779155632e-01
3.493333333333333492e+09,-4.476789193178307356e-07,1.057814891909626090e-04,-7.188691677287797344e-01,-5.608978530934330929e-03,1.057824364999811369e-04,7.188910494304605603e-01
3.600000000000000000e+09,1.183627226665296886e-05,1.129242402441469825e-04,-7.188561915109653588e-01,-5.803594490343779062e-03,1.135428614043532206e-04,7.188796184220679342e-01
3.706666666666666985e+09,7.026633301315816425e-06,1.207214556080360923e-04,-7.188692163036505267e-01,-6.000530212524749982e-03,1.209257764898542657e-04,7.188942596180999400e-01
3.813333333333333969e+09,3.176143560607253089e-05,1.287646736395109425e-04,-7.188374066835742093e-01,-6.202739445940616547e-03,1.326240173168059984e-04,7.188641674365195966e-01
3.920000000000000000e+09,-2.895377112486652863e-06,1.378854032713959304e-04,-7.189035284128535430e-01,-6.405576194619126001e-03,1.379157991092354720e-04,7.189320653377728743e-01
4.026666666666666985e+09,-2.691240482230236530e-07,1.436637257869002621e-04,-7.188984150411643625e-01,-6.614076777044242302e-03,1.436639778605862156e-04,7.189288401227974523e-01
4.133333333333333015e+09,4.013426131171804123e-07,1.463276983051670240e-04,-7.189057901803371786e-01,-6.827474320755376296e-03,1.463282486985376606e-04,7.189382098347643080e-01
4.240000000000000000e+09,1.075545437143061837e-06,1.462392950867813925e-04,-7.189141547802829768e-01,-7.045808829335383980e-03,1.462432501877132139e-04,7.189486806201873526e-01
4.346666666666666985e+09,1.129035393598626210e-06,1.444776700623261060e-04,-7.189113156311985886e-01,-7.270643952658458441e-03,1.444820814757260988e-04,7.189480801880391292e-01
4.453333333333333015e+09,1.841457712797898245e-06,1.425635287575529708e-04,-7.189346506708600426e-01,-7.499259855972017531e-03,1.425754210876252546e-04,7.189737622706540154e-01
4.560000000000000000e+09,1.796724461673024210e-06,1.417880358309552599e-04,-7.189473206975238728e-01,-7.735640962067615901e-03,1.417994193344649268e-04,7.189889359922322365e-01
4.666666666666666985e+09,1.522573991804950477e-06,1.430002229518727633e-04,-7.189621012289386659e-01,-7.979542830941249026e-03,1.430083284142774592e-04,7.190063811311562247e-01
4.773333333333333015e+09,1.368080165686124238e-06,1.464194391674325990e-04,-7.189755622470191954e-01,-8.233093947643531710e-03,1.464258304038097019e-04,7.190226998811428683e-01
4.880000000000000000e+09,2.693349451810342224e-05,1.503379452898355104e-04,-7.190002989548550660e-01,-8.494311046962053219e-03,1.527314994391343079e-04,7.190504733447670160e-01
4.986666666666666985e+09,4.973089051234422367e-07,1.577107826985556054e-04,-7.190254629499547301e-01,-8.768011700025663338e-03,1.577115667778940624e-04,7.190789208421899392e-01
5.093333333333333969e+09,3.423414156976799469e-07,1.640905425005179065e-04,-7.190565144918971141e-01,-9.055002898175365175e-03,1.640908996128644906e-04,7.191135265802762744e-01
5.200000000000000000e+09,2.521523432958841930e-07,1.699607010204681615e-04,-7.190957471091412589e-01,-9.357520134290123540e-03,1.699608880659700513e-04,7.191566287628291532e-01
5.306666666666666985e+09,1.224566908661838425e-07,1.748440753198280740e-04,-7.191467575310832583e-01,-9.677960205066888158e-03,1.748441182027203795e-04,7.192118754450607110e-01
5.413333333333333015e+09,-1.810486848207779308e-07,1.785003136245752323e-04,-7.192150527438567753e-01,-1.001814883737492910e-02,1.785004054412705923e-04,7.192848221667662578e-01
5.520000000000000000e+09,-8.064222667750128114e-07,1.808478833121110485e-04,-7.193079679747917954e-01,-1.037782029769943222e-02,1.808496812696756720e-04,7.193828271137387986e-01
5.626666666666666985e+09,-1.924006124502152792e-06,1.818349347989198792e-04,-7.194330324476273519e-01,-1.075348662300763466e-02,1.818451135249296959e-04,7.195133950464994710e-01
5.733333333333333969e+09,-3.785332247550552543e-06,1.812991619646087983e-04,-7.195961306817466596e-01,-1.113913489279030021e-02,1.813386744996604339e-04,7.196823407714691978e-01
5.840000000000000954e+09,-6.852019441630669716e-06,1.788692514446915227e-04,-7.198010444299337562e-01,-1.152762535182055674e-02,1.790004449235050351e-04,7.198933460650094318e-01
5.946666666666666985e+09,-1.199052205067640913e-05,1.739633367415247889e-04,-7.200497894636807006e-01,-1.191151642911850682e-02,1.743760739014756631e-04,7.201483066218596907e-01
6.053333333333333969e+09,-2.070157410730515666e-05,1.659291587532666257e-04,-7.203429855209637633e-01,-1.228338335476206883e-02,1.672155521926325114e-04,7.204477068433873255e-01
6.160000000000000000e+09,-3.532850604904176639e-05,1.543528360028717625e-04,-7.206800937380133387e-01,-1.263593127736182230e-02,1.583442494118008780e-04,7.207908602843670076e-01
6.266666666666666985e+09,-5.916679592272240575e-05,1.395389663455646079e-04,-7.210595496857252762e-01,-1.296204437289029572e-02,1.515646161495145757e-04,7.211760456277688247e-01
6.373333333333333015e+09,-9.883692275513929399e-05,1.216305622938611438e-04,-7.214661369362903587e-01,-1.326060645965732726e-02,1.567250170956322028e-04,7.215879921599666069e-01
6.480000000000000000e+09,-1.516439141047372147e-04,1.088025248539103529e-04,-7.219344749161065167e-01,-1.350761598560061560e-02,1.866383296635251677e-04,7.220608296826582784e-01
6.586666666666666985e+09,-2.293987355687922519e-04,1.028903924883473367e-04,-7.224220843039953488e-01,-1.371409577653173555e-02,2.514164130421218469e-04,7.225522433105421305e-01
6.693333333333333015e+09,-3.327565747465752264e-04,1.148252845826481768e-04,-7.229362922086832732e-01,-1.386832341281262100e-02,3.520110566680530097e-04,7.230693002656944923e-01
6.799999999999999046e+09,-4.620254998945670611e-04,1.571530353719816477e-04,-7.234707365365632414e-01,-1.396487296645854657e-02,4.880211461396441637e-04,7.236055032279167243e-01
6.906666666666666031e+09,-6.130214777707249443e-04,2.449642937079299062e-04,-7.240180338724184761e-01,-1.399898490029818747e-02,6.601536468126404690e-04,7.241533573427118009e-01
7.013333333333333015e+09,-7.767618904716306217e-04,3.962380553444060701e-04,-7.245153185324368916e-01,-1.396733981075195218e-02,8.719883204448200661e-04,7.246499385010306549e-01
7.120000000000000000e+09,-9.311220679656189662e-04,6.213194930952045929e-04,-7.251165758462589928e-01,-1.386541824404137653e-02,1.119386536435315865e-03,7.252491285000525201e-01
7.226666666666666985e+09,-1.054009595478060590e-03,9.366294301471136952e-04,-7.256481590577983365e-01,-1.369352861788317166e-02,1.410039331642040303e-03,7.257773511690623902e-01
7.333333333333333015e+09,-1.109812459863904286e-03,1.344321510615987961e-03,-7.261535620949227665e-01,-1.345133224589081973e-02,1.743239518819494254e-03,7.262781382379165374e-01
7.440000000000000000e+09,-1.058126166438702826e-03,1.836684079776032454e-03,-7.266214097420767848e-01,-1.314098989013648931e-02,2.119679077833481161e-03,7.267402278055451470e-01
7.546666666666666985e+09,-8.558494332728296128e-04,2.390728927666420194e-03,-7.270403011228628865e-01,-1.276680229284976771e-02,2.539303656125918053e-03,7.271523847843777144e-01
7.653333333333333969e+09,-4.624884542227152614e-04,2.965331752667173682e-03,-7.273992860666363969e-01,-1.233533470046786068e-02,3.001181096446112282e-03,7.275038706786548515e-01
7.760000000000000954e+09,1.528397729682843143e-04,3.500048427196794827e-03,-7.276884060988088043e-01,-1.185541079582769566e-02,3.503383933987788690e-03,7.277849731450648507e-01
7.866666666666666985e+09,1.003128890118394623e-03,3.916458750349087817e-03,-7.278992561939499062e-01,-1.133794671385855886e-02,4.042884701964193431e-03,7.279875522310746971e-01
7.973333333333333969e+09,2.074728837142523780e-03,4.122851511448269446e-03,-7.280255102381599785e-01,-1.079561309485162733e-02,4.615452776610550964e-03,7.281055478566461625e-01
8.080000000000000954e+09,3.319352766440303824e-03,4.022884066412990567e-03,-7.280633478822495785e-01,-1.024233671368814623e-02,5.215524805796097410e-03,7.281353885033099438e-01
8.186666666666667938e+09,4.648548889007877473e-03,3.528460909673270494e-03,-7.280117258964150517e-01,-9.692678851714863278e-03,5.836012608330168154e-03,7.280762467393092630e-01
8.293333333333334923e+09,5.932753210023370902e-03,2.576399208958880197e-03,-7.278724541597417774e-01,-9.161150011674406082e-03,6.468028566338166266e-03,7.279301039207417556e-01
8.399999999999999046e+09,7.007237693596028195e-03,1.147427413699274616e-03,-7.276500626155828488e-01,-8.661534311532177038e-03,7.100561228822802745e-03,7.277016117895379610e-01
8.506666666666666031e+09,7.686995116158345381e-03,-7.152991095236210448e-04,-7.273514763634360003e-01,-8.206298112664042049e-03,7.720203801191230682e-03,7.273977684161424540e-01
8.613333333333332062e+09,7.784632356598943613e-03,-2.897609919536095480e-03,-7.269867092373405448e-01,-7.772696841344137533e-03,8.306421863425984820e-03,7.270282595772498135e-01
8.720000000000000000e+09,7.178357301037351090e-03,-5.185294095101425881e-03,-7.265624946083790725e-01,-7.469754309306723787e-03,8.855285901316227448e-03,7.266008916874464596e-01
8.826666666666666031e+09,5.780780679266475652e-03,-7.327819972781779781e-03,-7.260933751103432199e-01,-7.203712092829330296e-03,9.333507958708780333e-03,7.261291089379670050e-01
8.933333333333332062e+09,3.641717530687162661e-03,-9.019023578670876118e-03,-7.255895785836107281e-01,-7.012605344771529782e-03,9.726504659225502711e-03,7.256234651545271364e-01
9.040000000000000000e+09,1.218853586179507054e-03,-9.967283673973040964e-03,-7.250624729089795162e-01,-6.899232074442723621e-03,1.004153115326503198e-02,7.250952965121906235e-01
9.146666666666666031e+09,-2.053447110182391334e-03,-9.979646309011207250e-03,-7.245231743335319718e-01,-6.864860482966597677e-03,1.018871853999694238e-02,7.245556958963114136e-01
9.253333333333333969e+09,-4.939993794026130598e-03,-8.960878313767243336e-03,-7.239824463324743276e-01,-6.909477362062287943e-03,1.023234473809208310e-02,7.240154166003448521e-01
9.360000000000000000e+09,-7.333559392781267491e-03,-7.004605154099292907e-03,-7.234506900719434030e-01,-7.031984597687650912e-03,1.014128131610028509e-02,7.234848649232085149e-01
9.466666666666666031e+09,-8.903150432815393200e-03,-4.362010041420979860e-03,-7.229379853690472979e-01,-7.230330267098976707e-03,9.914293682900381446e-03,7.229741408689720483e-01
9.573333333333333969e+09,-9.451245712414913999e-03,-1.404429398303837836e-03,-7.224541535321256092e-01,-7.501582652580812000e-03,9.555023152837537059e-03,7.224930987200595123e-01
9.680000000000000000e+09,-8.955233492444335253e-03,1.450422779499223238e-03,-7.220088354415945542e-01,-7.841960137003490400e-03,9.071931059233586878e-03,7.220514211567746754e-01
9.786666666666667938e+09,-7.567476049196761312e-03,3.822688915918004068e-03,-7.216115952975314940e-01,-8.246814923854154517e-03,8.478186380532630115e-03,7.216587174171990027e-01
9.893333333333333969e+09,-5.575556184958103262e-03,5.442256659085770686e-03,-7.212720591436566631e-01,-8.710542291854559555e-03,7.791340341365404591e-03,7.213246542634936809e-01
1.000000000000000000e+10,-3.335849014998833878e-03,6.191095295235392315e-03,-7.210000746953229012e-01,-9.226363825651309053e-03,7.032606174495661250e-03,7.210591054137687195e-01
1.010666666666666794e+10,-1.199170816681195163e-03,6.109114041645887817e-03,-7.208058383156199511e-01,-9.785923839664865606e-03,6.225695545191299932e-03,7.208722638965098239e-01
1.021333333333333397e+10,5.537086028918170684e-04,5.366885115826058004e-03,-7.206998828501692822e-01,-1.037865136394890662e-02,5.395372930891032502e-03,7.207746093921331143e-01
1.031999999999999809e+10,1.754255270689278855e-03,4.215606609091657533e-03,-7.206927612681450768e-01,-1.099088325898264253e-02,4.566043214574121156e-03,7.207765643104082631e-01
1.042666666666666603e+10,2.360443554814328423e-03,2.927651005179681201e-03,-7.207942057535720037e-01,-1.160483373876516205e-02,3.760695970640820420e-03,7.208876189906627818e-01
1.053333333333333206e+10,2.475608346742952728e-03,1.704695369994613068e-03,-7.210115193310842052e-01,-1.219765240028546777e-02,3.005764959364661676e-03,7.211146883348006353e-01
1.064000000000000000e+10,2.292155915312851268e-03,7.997149083035848868e-04,-7.213470334084147728e-01,-1.274104493102029036e-02,2.427657857826490562e-03,7.214595462207530341e-01
1.074666666666666603e+10,1.673508998458660135e-03,2.235603967715214888e-04,-7.217947448665053001e-01,-1.320218456118811383e-02,1.688375437788274588e-03,7.219154738569406593e-01
1.085333333333333206e+10,1.175327330185789183e-03,-7.303175160221708154e-05,-7.224105624068188902e-01,-1.352398369472870149e-02,1.177594144781529987e-03,7.225371400917129927e-01
1.096000000000000000e+10,7.646047037306270486e-04,-1.257457157128817789e-04,-7.230588200098543306e-01,-1.362591290599473280e-02,7.748756919578422180e-04,7.231871975474708503e-01
1.106666666666666603e+10,4.561110490228343327e-04,-5.279849753863719367e-05,-7.235638010677210019e-01,-1.377634535053199466e-02,4.591568036989628022e-04,7.236949370465332043e-01
1.117333333333333397e+10,2.890509468118109796e-04,5.187638402983691830e-05,-7.241521709596450140e-01,-1.364185434830065581e-02,2.936692171011723632e-04,7.242806547848886778e-01
1.128000000000000000e+10,2.051972831035679668e-04,1.459014400989453353e-04,-7.246574123673974466e-01,-1.336119854066635838e-02,2.517799738184750124e-04,7.247805784687220143e-01
1.138666666666666603e+10,1.647742560417001759e-04,2.162173124680290921e-04,-7.250434950458338745e-01,-1.297196255169550533e-02,2.718464302965795760e-04,7.251595283251269786e-01
1.149333333333333397e+10,1.438236852612352970e-04,2.708008004738662509e-04,-7.252939231930597419e-01,-1.251985390522235807e-02,3.066240792557061888e-04,7.254019725383907824e-01
1.160000000000000000e+10,1.366819840393481496e-04,3.217909263968468420e-04,-7.254115465413311092e-01,-1.204781177544541476e-02,3.496160251937452780e-04,7.255115861404712874e-01
1.170666666666666794e+10,1.497696592531573903e-04,3.744404481223530539e-04,-7.254125046925249398e-01,-1.158797036485738167e-02,4.032822832990254390e-04,7.255050537532177213e-01
1.181333333333333397e+10,1.928651710432907141e-04,4.225432663209425631e-04,-7.253176757402102215e-01,-1.115902849162022682e-02,4.644779716140785592e-04,7.254035116113358717e-01
1.192000000000000000e+10,2.700188201236340593e-04,4.486841309849893232e-04,-7.251453543869328389e-01,-1.076878048185370140e-02,5.236674637770753499e-04,7.252253109358614003e-01
1.202666666666666794e+10,3.709796976185114744e-04,4.300638701126671985e-04,-7.249075910651379129e-01,-1.041961324264693151e-02,5.679620307920303646e-04,7.249824714598191999e-01
1.213333333333333397e+10,4.675489969496877648e-04,3.510118023788559344e-04,-7.246107585023339182e-01,-1.011406217379032073e-02,5.846463460570947360e-04,7.246813407222397752e-01
1.224000000000000191e+10,5.212894166004675318e-04,2.174014973914077252e-04,-7.242590712402026121e-01,-9.857934705888757657e-03,5.648062206878408853e-04,7.243261566106711236e-01
1.234666666666666603e+10,5.024644447457668993e-04,6.174547887940345665e-05,-7.238585440054178255e-01,-9.660024248444289141e-03,5.062440344297586183e-04,7.239229985282440438e-01
1.245333333333333206e+10,4.087348551154173387e-04,-6.880997215115148809e-05,-7.234190640741504641e-01,-9.529474916505641796e-03,4.144864220377592209e-04,7.234818264186766434e-01
1.256000000000000000e+10,2.690817209483919222e-04,-1.359222530854601316e-04,-7.229539243317433250e-01,-9.473024744760595237e-03,3.014628193200218293e-04,7.230159852344089089e-01
1.266666666666666603e+10,1.290410443557274379e-04,-1.291396854485967654e-04,-7.224779744728222486e-01,-9.493774395191022231e-03,1.825613581407065740e-04,7.225403485969615902e-01
1.277333333333333206e+10,2.734290795330281674e-05,-6.830539676986982533e-05,-7.220060859590071711e-01,-9.591544383151715675e-03,7.357487236300266041e-05,7.220697929462907005e-01
1.288000000000000000e+10,-2.108959978579819051e-05,1.061873877566581472e-05,-7.215528416018259783e-01,-9.763686678113669970e-03,2.361204845647594004e-05,7.216188972035156857e-01
1.298666666666666603e+10,-2.680976024679017708e-05,7.587710653114507632e-05,-7.211331093950389404e-01,-1.000503161123147793e-02,8.047421040326589801e-05,7.212025111737333516e-01
1.309333333333333397e+10,-1.369370492007695032e-05,1.137555210563659120e-04,-7.207621324967056209e-01,-1.030639816667975120e-02,1.145767695706396174e-04,7.208358159001041487e-01
1.320000000000000000e+10,-2.779072801626287809e-06,1.289970738323791195e-04,-7.204535327743561979e-01,-1.065261826353630301e-02,1.290270060993163202e-04,7.205322832204806849e-01
1.330666666666666603e+10,-3.113637247261932491e-06,1.348709245635154705e-04,-7.202150544824640344e-01,-1.102257666088860000e-02,1.349068605724891231e-04,7.202993974032074753e-01
1.341333333333333397e+10,-1.304782322594434148e-05,1.428837002511734061e-04,-7.200447419222497647e-01,-1.139321733047190220e-02,1.434782125913292223e-04,7.201348733195876983e-01
1.352000000000000000e+10,-2.597226394511498588e-05,1.587978946029636662e-04,-7.199312843106309145e-01,-1.174580810186539107e-02,1.609078302158371409e-04,7.200270954187212302e-01
1.362666666666666794e+10,-3.429909488190508555e-05,1.827783778637668102e-04,-7.198587936772323781e-01,-1.206990216365229872e-02,1.859687159826293101e-04,7.199599748407409239e-01
1.373333333333333397e+10,-3.224513691658257772e-05,2.098689703623396246e-04,-7.198121254611880016e-01,-1.236267266762512348e-02,2.123316593815386386e-04,7.199182812211674110e-01
1.384000000000000000e+10,-1.918491431729102872e-05,2.319985401290303661e-04,-7.197792807720396757e-01,-1.262568538349791679e-02,2.327904284101112045e-04,7.198900061537997219e-01
