# Frequency, Real(S21), Imag(S21), Real(S11), Imag(S11), Amp(S21), Amp(S11)
2.000000000000000000e+09,3.776290494024034589e-05,5.356159570113498334e-05,-7.197612035677785070e-01,-3.179033964987750677e-03,6.553534560508146101e-05,7.197682240959846212e-01
2.106666666666666746e+09,4.291668645356904366e-05,5.665026697555502057e-05,-7.198097214217173967e-01,-3.350876643807167762e-03,7.107105405547054660e-05,7.198175209228325766e-01
2.213333333333333492e+09,4.376673551423053573e-05,6.745488518312597111e-05,-7.198354610963525468e-01,-3.548032881111537907e-03,8.040950610867670517e-05,7.198442050812966508e-01
2.320000000000000000e+09,4.434339794334223132e-05,7.061361398278977717e-05,-7.198735150871068411e-01,-3.711377922696394629e-03,8.338236876505758879e-05,7.198830822084598680e-01
2.426666666666666508e+09,1.897474246452552092e-05,6.978674138654358643e-05,-7.199639185380263262e-01,-3.864094601203540286e-03,7.232032995601847980e-05,7.199742878906973953e-01
2.533333333333333492e+09,1.511682607351827392e-05,7.415244765506974196e-05,-7.200879102995679792e-01,-4.027286886402100738e-03,7.567763159464533187e-05,7.200991720584493105e-01
2.640000000000000477e+09,9.734565334190683816e-06,8.652180541475221957e-05,-7.189321220787304734e-01,-4.175404929541362900e-03,8.706770109790354015e-05,7.189442469085848275e-01
2.746666666666666985e+09,8.929275762178754612e-06,8.078507234642940456e-05,-7.187355830198445261e-01,-4.328735680073155130e-03,8.127705629299615824e-05,7.187486182605596907e-01
2.853333333333333015e+09,1.386050580424995094e-05,8.361242548182163520e-05,-7.187937226581742056e-01,-4.504238698707059910e-03,8.475347377012238314e-05,7.188078351681005396e-01
2.960000000000000000e+09,1.629623785858479222e-05,8.724943858347311879e-05,-7.187956412906619796e-01,-4.684786685384404424e-03,8.875827793211640122e-05,7.188109077947700820e-01
3.066666666666666985e+09,-1.015015586879497201e-09,9.047814346369576735e-05,-7.188081205395960849e-01,-4.864774196966323121e-03,9.047814346938917046e-05,7.188245823437411364e-01
3.173333333333333015e+09,2.681764362350322234e-06,9.388904827799073104e-05,-7.188566664824225239e-01,-5.045529856322281299e-03,9.392734025107943795e-05,7.188743731124039860e-01
3.280000000000000000e+09,-1.100716940846996885e-06,9.718393693305415223e-05,-7.188498855925410380e-01,-5.231981743260144535e-03,9.719017015928983923e-05,7.188689252216784453e-01
3.386666666666666508e+09,-5.314020874095251378e-07,1.008709208353345530e-04,-7.188500795117802600e-01,-5.420701084102915596e-03,1.008723205757993514e-04,7.188705174190522795e-01
3.493333333333333492e+09,-4.562528482426442680e-07,1.058210562552878650e-04,-7.188692762907318290e-01,-5.610773944366816840e-03,1.058220398293584707e-04,7.188911719996395888e-01
3.600000000000000000e+09,1.182665139115373579e-05,1.129648562757295865e-04,-7.188563174765868480e-01,-5.805596841264005180e-03,1.135822540563626964e-04,7.188797605515701017e-01
3.706666666666666985e+09,7.017531409533433453e-06,1.207657550967126958e-04,-7.188693691100263017e-01,-6.002763002897776139e-03,1.209694728068324497e-04,7.188944310594680420e-01
3.813333333333333969e+09,3.097371633696286087e-05,1.287754642995241202e-04,-7.188407357773404227e-01,-6.204998588750993901e-03,1.324480702361519806e-04,7.188675159028919959e-01
3.920000000000000000e+09,-2.900705656091612758e-06,1.379374374780027214e-04,-7.189037575706064276e-01,-6.408347335581146206e-03,1.379679337791981048e-04,7.189323191822096781e-01
4.026666666666666985e+09,-2.695188024142441522e-07,1.437195198821002845e-04,-7.188986871320044436e-01,-6.617172672943653217e-03,1.437197725976710309e-04,7.189291406907242221e-01
4.133333333333333015e+09,4.061727707344194203e-07,1.463868848441494529e-04,-7.189061183379945597e-01,-6.830937166635732589e-03,1.463874483372599696e-04,7.189385708712373591e-01
4.240000000000000000e+09,1.085568344042751209e-06,1.463017371703152357e-04,-7.189145519816775298e-01,-7.049688401191004164e-03,1.463057646085129003e-04,7.189491158333599641e-01
4.346666666666666985e+09,1.143356027613143622e-06,1.445428810879855570e-04,-7.189118005724614013e-01,-7.275006791410632001e-03,1.445474030767118702e-04,7.189486092386253580e-01
4.453333333333333015e+09,1.590990993490896181e-06,1.426316617856017389e-04,-7.189244365151526983e-01,-7.505293519540023536e-03,1.426405348982667418e-04,7.189636116309672254e-01
4.560000000000000000e+09,1.757368332123632297e-06,1.418788240021524936e-04,-7.189388621514640754e-01,-7.742326301003282091e-03,1.418897073211743381e-04,7.189805498956095553e-01
4.666666666666666985e+09,1.537713845625844105e-06,1.430653839312640593e-04,-7.189630031868425863e-01,-7.985797655938466078e-03,1.430736476199269142e-04,7.190073524767639501e-01
4.773333333333333015e+09,1.150884889027171963e-06,1.464398714302604968e-04,-7.189806507768916610e-01,-8.239111870131259063e-03,1.464443938173770339e-04,7.190278570097066169e-01
4.880000000000000000e+09,1.414913819507825943e-06,1.516002578939405223e-04,-7.190235789129229005e-01,-8.503217408966676910e-03,1.516068605790183506e-04,7.190738569431185390e-01
4.986666666666666985e+09,5.036971160687787157e-07,1.577527694533365399e-04,-7.190273196138523559e-01,-8.777297131516727940e-03,1.577535735917962988e-04,7.190808906486222396e-01
5.093333333333333969e+09,3.447955216089258667e-07,1.641154573073258201e-04,-7.190589641423503764e-01,-9.065697103238228027e-03,1.641158195030095572e-04,7.191161107758868853e-01
5.200000000000000000e+09,2.488376973133343291e-07,1.699607964391035568e-04,-7.190990660944999169e-01,-9.369890229039772034e-03,1.699609785992478930e-04,7.191601085300033391e-01
5.306666666666666985e+09,1.097579342977175438e-07,1.748085471789453125e-04,-7.191513920966999818e-01,-9.692281225437488629e-03,1.748085816360789649e-04,7.192167024409086284e-01
5.413333333333333015e+09,-2.090801736539964769e-07,1.784138616642616851e-04,-7.192216771587379709e-01,-1.003458923254752465e-02,1.784139841729714862e-04,7.192916751055122848e-01
5.520000000000000000e+09,-8.590844887734050468e-07,1.806879360261259252e-04,-7.193174136674850283e-01,-1.039626650046615412e-02,1.806899782819739743e-04,7.193925381614884040e-01
5.626666666666666985e+09,-2.017400912347981753e-06,1.815669071674478805e-04,-7.194460799205338875e-01,-1.077349951114852343e-02,1.815781145534719348e-04,7.195267404375879083e-01
5.733333333333333969e+09,-3.951356592222282686e-06,1.808711470895691049e-04,-7.196133829723944109e-01,-1.116006914423981616e-02,1.809143031062371407e-04,7.196999153093448509e-01
5.840000000000000954e+09,-7.154805941007818897e-06,1.782102403424224942e-04,-7.198229254715702297e-01,-1.154873768239329801e-02,1.783538085126232166e-04,7.199155626714194289e-01
5.946666666666666985e+09,-1.254951317578605665e-05,1.729903911485258501e-04,-7.200765733877871888e-01,-1.193201469291325749e-02,1.734449933283437073e-04,7.201754262098430948e-01
6.053333333333333969e+09,-2.171735480008322961e-05,1.645688994923709685e-04,-7.203748176860221841e-01,-1.230244525248900232e-02,1.659956812078037061e-04,7.204798596181299919e-01
6.160000000000000000e+09,-3.710437024564846003e-05,1.525812845161292114e-04,-7.207170008474084177e-01,-1.265271255537592579e-02,1.570279678143932827e-04,7.208280560893091105e-01
6.266666666666666985e+09,-6.211614011980617900e-05,1.374408721497900085e-04,-7.211014422519052003e-01,-1.297568429618194651e-02,1.508257544343084486e-04,7.212181766987934006e-01
6.373333333333333015e+09,-1.010100099377437806e-04,1.209756657665489866e-04,-7.215254994740075700e-01,-1.326444835442143824e-02,1.576011859577296269e-04,7.216474152807333953e-01
6.480000000000000000e+09,-1.584907725323350680e-04,1.071236927088581401e-04,-7.219855879533789711e-01,-1.351235574998184419e-02,1.912977012864457930e-04,7.221120224524033571e-01
6.586666666666666985e+09,-2.389388160799130732e-04,1.025615802182526038e-04,-7.224771727997013615e-01,-1.371308122174942634e-02,2.600204522081591774e-04,7.226073026293353685e-01
6.693333333333333015e+09,-3.452470748659991115e-04,1.170990820535141143e-04,-7.229947433893886277e-01,-1.386071006576759281e-02,3.645651350874139825e-04,7.231275947246206259e-01
6.799999999999999046e+09,-4.773144589765554967e-04,1.636464958396190768e-04,-7.235317820434190583e-01,-1.394985911649650190e-02,5.045882166169443671e-04,7.236662477940336569e-01
6.906666666666666031e+09,-6.303322972178106338e-04,2.575625291617001603e-04,-7.240807406413213299e-01,-1.397583818961750657e-02,6.809238293260516791e-04,7.242156053419360751e-01
7.013333333333333015e+09,-7.930955599395681909e-04,4.152265556847515617e-04,-7.246330423746087934e-01,-1.393485483934022752e-02,8.952171020158625724e-04,7.247670151714100673e-01
7.120000000000000000e+09,-9.466572088442492400e-04,6.517567736345618746e-04,-7.251791287537835418e-01,-1.382425962345211826e-02,1.149324481178104051e-03,7.253108843345956736e-01
7.226666666666666985e+09,-1.063704798657889774e-03,9.779140585668682356e-04,-7.257085731712040744e-01,-1.364282132760802346e-02,1.444916538984361565e-03,7.258367996650223475e-01
7.333333333333333015e+09,-1.109057416896663123e-03,1.396383212216857107e-03,-7.262102804069255901e-01,-1.339101218197228348e-02,1.783225849222292575e-03,7.263337322305519761e-01
7.440000000000000000e+09,-1.041644339341285964e-03,1.897795853310911378e-03,-7.266727855612368225e-01,-1.307127357731413878e-02,2.164867670442199160e-03,7.267903380399743929e-01
7.546666666666666985e+09,-8.182257172359850205e-04,2.457034098849229884e-03,-7.270846551953056291e-01,-1.268822487915577391e-02,2.589693010233875062e-03,7.271953567447061451e-01
7.653333333333333969e+09,-3.989449384026900070e-04,3.030510887367731960e-03,-7.274349785827782799e-01,-1.224877413715507943e-02,3.056657210472166122e-03,7.275380955892207790e-01
7.760000000000000954e+09,2.454402542640689820e-04,3.555238936515761269e-03,-7.277139195017960915e-01,-1.176209211957365136e-02,3.563700999541197581e-03,7.278089690624153230e-01
7.866666666666666985e+09,1.125116628603148273e-03,3.950549784121683630e-03,-7.279132819847855540e-01,-1.123942177657387582e-02,4.107643001136199006e-03,7.280000485520131681e-01
7.973333333333333969e+09,2.222421341287536458e-03,4.123272549803333811e-03,-7.280270309320545641e-01,-1.069371389752193230e-02,4.684072281484560549e-03,7.281055646571208406e-01
8.080000000000000954e+09,3.484000933906821352e-03,3.976978870883078263e-03,-7.280517044960239659e-01,-1.013910417812421277e-02,5.287213202332023340e-03,7.281223014391886572e-01
8.186666666666667938e+09,4.815702190563376540e-03,3.425474741590303455e-03,-7.279866622605347670e-01,-9.590272914284431530e-03,5.909726287525511775e-03,7.280498291764131435e-01
8.293333333333334923e+09,6.082376337545580477e-03,2.409996999644606862e-03,-7.278341322240511335e-01,-9.061750345388414410e-03,6.542429781803576518e-03,7.278905407749571843e-01
8.399999999999999046e+09,7.114936841819191268e-03,9.184838188792722197e-04,-7.275990470730885340e-01,-8.567242953115453835e-03,7.173976497634983879e-03,7.276494835794801164e-01
8.506666666666666031e+09,7.698796528072079925e-03,-1.004454551526772713e-03,-7.272886504258718743e-01,-8.070784175225815746e-03,7.764045139406233753e-03,7.273334301374363431e-01
8.613333333333332062e+09,7.739423045312816482e-03,-3.203113159525841375e-03,-7.269122139287502726e-01,-7.727666052346060001e-03,8.376073243892195874e-03,7.269532884452850618e-01
8.720000000000000000e+09,7.018491447155827088e-03,-5.492438304333621332e-03,-7.264800647044844517e-01,-7.401495154719315607e-03,8.912132220782560330e-03,7.265177675346675690e-01
8.826666666666666031e+09,5.321937341559229359e-03,-7.571342051055342248e-03,-7.260034515000168831e-01,-7.146858279475951786e-03,9.254633300221108347e-03,7.260386278795394333e-01
8.933333333333332062e+09,3.276221303447934483e-03,-9.191969917927781883e-03,-7.254938662232803814e-01,-6.968083438488995897e-03,9.758377785331706286e-03,7.255273283029446407e-01
9.040000000000000000e+09,5.064144507638695426e-04,-1.001893562636305829e-02,-7.249627377752805302e-01,-6.867731850980769541e-03,1.003172600708120490e-02,7.249952668144856727e-01
9.146666666666666031e+09,-2.489407512232073502e-03,-9.876085620904499415e-03,-7.244212227022504003e-01,-6.846858698674155794e-03,1.018499960497761155e-02,7.244535784820604896e-01
9.253333333333333969e+09,-5.326314585009400693e-03,-8.708352288296805632e-03,-7.238801178694388438e-01,-6.905255226686040498e-03,1.020808633562471715e-02,7.239130525114313430e-01
9.360000000000000000e+09,-7.613850004987378697e-03,-6.629662727472337286e-03,-7.233498579142296769e-01,-7.041635703292652496e-03,1.009569907329265978e-02,7.233841314114611842e-01
9.466666666666666031e+09,-9.036281942382873300e-03,-3.913968660088402649e-03,-7.228405576574356006e-01,-7.253760429461944895e-03,9.847514509478469749e-03,7.228769527622807001e-01
9.573333333333333969e+09,-9.420701737101914303e-03,-9.461472861493505724e-04,-7.223620749955151910e-01,-7.538505207900434747e-03,9.468094629149140587e-03,7.224014095034669847e-01
9.680000000000000000e+09,-8.772710642023517219e-03,1.855356369781336039e-03,-7.219240920597335132e-01,-7.891888357585504291e-03,8.966760801290555444e-03,7.219672268172006024e-01
9.786666666666667938e+09,-7.269758411891423175e-03,4.122760029521785677e-03,-7.215362267566363119e-01,-8.309047944139983169e-03,8.357424102454569584e-03,7.215840677287311822e-01
9.893333333333333969e+09,-5.215828981701778506e-03,5.607443180933058616e-03,-7.212081810707189344e-01,-8.784134827504641932e-03,7.658217220329602802e-03,7.212616733668875124e-01
1.000000000000000000e+10,-2.972099011195248469e-03,6.216836535048436869e-03,-7.209499055912083065e-01,-9.310065796690480261e-03,6.890749526420244901e-03,7.210100163639274751e-01
1.010666666666666794e+10,-8.827219271520239316e-04,6.014510088050969983e-03,-7.207717158748354613e-01,-9.878075474810732448e-03,6.078941486800302357e-03,7.208394015175922931e-01
1.021333333333333397e+10,7.870068729416354603e-04,5.188249910019778095e-03,-7.206842417883112528e-01,-1.047702405796879614e-02,5.247601065904077509e-03,7.207603931925674612e-01
1.031999999999999809e+10,1.888677806166238864e-03,3.997325364388019248e-03,-7.206980309465154111e-01,-1.109246902432484312e-02,4.421053485797783386e-03,7.207833895694600868e-01
1.042666666666666603e+10,2.395361009217087528e-03,2.740878598709118284e-03,-7.208029315657580316e-01,-1.171055214000244621e-02,3.640078276265383116e-03,7.208980532538664665e-01
1.053333333333333206e+10,2.409807572895716898e-03,1.561819293591909779e-03,-7.210645087957371357e-01,-1.229239714480047027e-02,2.871663637026710889e-03,7.211692789299910533e-01
1.064000000000000000e+10,2.075931829458003194e-03,6.923348820615584124e-04,-7.214248661503409599e-01,-1.282331649785344897e-02,2.188337393885148724e-03,7.215388242818548958e-01
1.074666666666666603e+10,1.581013423265769042e-03,1.552968183670391453e-04,-7.218955590780845588e-01,-1.326466270468087440e-02,1.588622216369099758e-03,7.220174163365653541e-01
1.085333333333333206e+10,1.083284539553883456e-03,-8.363653764854232873e-05,-7.224559523348631496e-01,-1.358207801824256461e-02,1.086508381958604637e-03,7.225836117068858977e-01
1.096000000000000000e+10,6.899311385745609702e-04,-1.218793286997911030e-04,-7.233140659721254417e-01,-1.350589440712265422e-02,7.006136929429097535e-04,7.234401476396403741e-01
1.106666666666666603e+10,4.040452613736912569e-04,-2.888547113034830834e-05,-7.237387277208003900e-01,-1.376360758263028318e-02,4.050764664615270471e-04,7.238695897028769588e-01
1.117333333333333397e+10,2.694175470305643322e-04,6.971671084849036248e-05,-7.242717038179454780e-01,-1.357313048462443703e-02,2.782916355543197935e-04,7.243988754978173406e-01
1.128000000000000000e+10,1.958430613835399222e-04,1.594863116665677140e-04,-7.247567092361161256e-01,-1.326304951404919108e-02,2.525675915494356659e-04,7.248780559964387304e-01
1.138666666666666603e+10,1.600635076568245930e-04,2.259882906456300595e-04,-7.251162344536382642e-01,-1.285278153018786299e-02,2.769314608207960817e-04,7.252301341376310440e-01
1.149333333333333397e+10,1.414891964977688077e-04,2.790137760226962371e-04,-7.253378501048581839e-01,-1.238881546472452543e-02,3.128384246476566266e-04,7.254436432579424165e-01
1.160000000000000000e+10,1.371427472282765508e-04,3.301017854093895600e-04,-7.254278358331202048e-01,-1.191282586192609488e-02,3.574567412258239114e-04,7.255256442204789380e-01
1.170666666666666794e+10,1.547227059753591321e-04,3.827302092838237948e-04,-7.254042059045594515e-01,-1.145455324007334762e-02,4.128214248834197989e-04,7.254946372882119521e-01
1.181333333333333397e+10,2.037928395807235777e-04,4.285729664255778044e-04,-7.252880406242478983e-01,-1.103033639568665875e-02,4.745590679938525673e-04,7.253719116381351917e-01
1.192000000000000000e+10,2.865531766171711299e-04,4.484981412845063663e-04,-7.250967302309533347e-01,-1.064652116984780676e-02,5.322248639109682404e-04,7.251748869097991435e-01
1.202666666666666794e+10,3.894962749436185713e-04,4.196592743827732988e-04,-7.248412101662179419e-01,-1.030525503156287659e-02,5.725567699105746367e-04,7.249144627033543564e-01
1.213333333333333397e+10,4.813324055601888446e-04,3.291922612969476903e-04,-7.245273316678185749e-01,-1.000971532496885627e-02,5.831367159939048394e-04,7.245964730348720684e-01
1.224000000000000191e+10,5.232860919003293372e-04,1.880564811088146829e-04,-7.241597146708188548e-01,-9.766502869780268464e-03,5.560517728263708300e-04,7.242255704754059220e-01
1.234666666666666603e+10,4.894334293737292270e-04,3.320345903044610056e-05,-7.237454371282094900e-01,-9.584675949291604491e-03,4.905584078171688032e-04,7.238089000398902906e-01
1.245333333333333206e+10,3.837322011223833059e-04,-8.769284846779198321e-05,-7.232955005365548917e-01,-9.472894518318387275e-03,3.936247424268758612e-04,7.233575304280592810e-01
1.256000000000000000e+10,2.401480669947863244e-04,-1.404006969918494331e-04,-7.228238901555316120e-01,-9.436938630418133245e-03,2.781788090367947166e-04,7.228854902336124821e-01
1.266666666666666603e+10,1.049398167548418388e-04,-1.207376946007219305e-04,-7.223456667015115684e-01,-9.478920070655826730e-03,1.599686095396124388e-04,7.224078571888300493e-01
1.277333333333333206e+10,1.325925124999475710e-05,-5.328845907959489083e-05,-7.218757035954918022e-01,-9.597882848853492993e-03,5.491327357559506041e-05,7.219395063276885516e-01
1.288000000000000000e+10,-3.075056976660786535e-05,2.894696944029651585e-05,-7.217176707634822552e-01,-9.662259644598970854e-03,4.223179585038361046e-05,7.217823463854639021e-01
1.298666666666666603e+10,-2.527750663625868445e-05,8.544973851445422230e-05,-7.210197459867313530e-01,-1.005065657923312310e-02,8.911010130133790216e-05,7.210897931606329303e-01
1.309333333333333397e+10,-1.119166718466647210e-05,1.180340890569997459e-04,-7.206641121845487330e-01,-1.036760334346958044e-02,1.185634833913380216e-04,7.207386834282112353e-01
1.320000000000000000e+10,-2.153978365637031689e-06,1.302622247213017551e-04,-7.203744165884455875e-01,-1.072421524532454588e-02,1.302800322848538059e-04,7.204542378720326656e-01
1.330666666666666603e+10,-4.769442881301057995e-06,1.357486142406246063e-04,-7.201560634792308901e-01,-1.109798124720469924e-02,1.358323741000204486e-04,7.202415712479149912e-01
1.341333333333333397e+10,-1.596489725471897408e-05,1.450542586308083766e-04,-7.200041259169678298e-01,-1.146606936522624742e-02,1.459301747113570154e-04,7.200954187357013758e-01
1.352000000000000000e+10,-2.861481330896005639e-05,1.628555141174829323e-04,-7.199050931493160554e-01,-1.181159790209363944e-02,1.653503130301733773e-04,7.200019840162430462e-01
1.362666666666666794e+10,-3.511312190112969415e-05,1.881981609850203613e-04,-7.198424133925145352e-01,-1.212647876201477723e-02,1.914457602763436383e-04,7.199445475909415082e-01
1.373333333333333397e+10,-3.042937592561530612e-05,2.150570244314113459e-04,-7.198013965303997619e-01,-1.240967734742116045e-02,2.171991498061515656e-04,7.199083625983107027e-01
1.384000000000000000e+10,-1.543804025814144218e-05,2.351619784132690850e-04,-7.197707592850955960e-01,-1.266378884403251102e-02,2.356681759980647759e-04,7.198821552655193523e-01
