# Frequency, Real(S21), Imag(S21), Real(S11), Imag(S11), Amp(S21), Amp(S11)
2.000000000000000000e+09,3.795635318227686149e-05,5.359578791271690031e-05,-7.197699614907059340e-01,-3.175275844554125391e-03,6.567490562522849040e-05,7.197769653448360394e-01
2.106666666666666746e+09,4.295481186672263558e-05,5.683537887303528782e-05,-7.198097525675274388e-01,-3.352882966450575555e-03,7.124167427950442812e-05,7.198175614108840437e-01
2.213333333333333492e+09,3.353331603118316903e-05,6.438171330251928363e-05,-7.198490232907953645e-01,-3.540771298658768138e-03,7.259124115080960431e-05,7.198577313567601221e-01
2.320000000000000000e+09,3.443543593075789325e-05,6.803559142295212436e-05,-7.199192759818354714e-01,-3.707197637464675413e-03,7.625379300737903168e-05,7.199288209569980612e-01
2.426666666666666508e+09,2.997330341112156406e-05,7.280135877035939177e-05,-7.199539345247545352e-01,-3.872203757970175183e-03,7.873015150617796473e-05,7.199643475892523181e-01
2.533333333333333492e+09,3.200763251678672142e-06,7.160439654249075268e-05,-7.200329520246203652e-01,-4.040363348187569863e-03,7.167589894523512535e-05,7.200442878999003815e-01
2.640000000000000477e+09,1.000302050355131271e-05,8.645158324157901865e-05,-7.189435091564422287e-01,-4.177320186272586756e-03,8.702836700852276911e-05,7.189556449198504229e-01
2.746666666666666985e+09,8.649517426866608564e-07,7.994541753515236183e-05,-7.187974216059148658e-01,-4.328920550763214539e-03,7.995009647515770193e-05,7.188104568385508264e-01
2.853333333333333015e+09,1.341205680252428596e-05,8.378892252174191774e-05,-7.187901646111087839e-01,-4.510228548625422676e-03,8.485556437281298249e-05,7.188043147500060570e-01
2.960000000000000000e+09,1.616467307732754601e-05,8.742659735812883615e-05,-7.187782541639399225e-01,-4.695139718932764099e-03,8.890841681931614660e-05,7.187935885885055054e-01
3.066666666666666985e+09,-9.414405057990193846e-07,9.067820026777156537e-05,-7.188171567494161529e-01,-4.872822041445292254e-03,9.068308725461461108e-05,7.188336728562194633e-01
3.173333333333333015e+09,2.679105533821120471e-06,9.409275757884467462e-05,-7.188505965727639557e-01,-5.055222402690223889e-03,9.413089097237199330e-05,7.188683714467895003e-01
3.280000000000000000e+09,-1.161459495508427655e-06,9.741510452690013071e-05,-7.188504194995715135e-01,-5.242321300074907937e-03,9.742202819766474691e-05,7.188695344409326005e-01
3.386666666666666508e+09,-7.669329559198070781e-08,1.011716586212270798e-04,-7.188338827839190204e-01,-5.433595283222214176e-03,1.011716876899446598e-04,7.188544184992583519e-01
3.493333333333333492e+09,-5.156974531234317231e-07,1.061018070956480652e-04,-7.188700580738260904e-01,-5.623585022098055546e-03,1.061030603367559471e-04,7.188920538603600363e-01
3.600000000000000000e+09,5.475384462096992774e-06,1.128597263143910480e-04,-7.188586764965069209e-01,-5.819787414637618388e-03,1.129924672655970697e-04,7.188822342358037742e-01
3.706666666666666985e+09,1.041833394059133629e-05,1.210137116532421155e-04,-7.188821492625928622e-01,-6.018008514444565978e-03,1.214613522491483829e-04,7.189073382257860079e-01
3.813333333333333969e+09,1.092173793722772126e-05,1.299527000272513268e-04,-7.188332013720868385e-01,-6.223099129079773945e-03,1.304108454230024853e-04,7.188601382449951727e-01
3.920000000000000000e+09,-8.227463566050131831e-07,1.383886150480108433e-04,-7.188937448952203990e-01,-6.427845507612464822e-03,1.383910607173520957e-04,7.189224809722839504e-01
4.026666666666666985e+09,-2.687121262989862305e-07,1.441135380542499385e-04,-7.189006636145393037e-01,-6.639368003142248273e-03,1.441137885725046253e-04,7.189313217219751584e-01
4.133333333333333015e+09,-1.072930694111730517e-07,1.467851029837244380e-04,-7.188949398261709200e-01,-6.856834497112797126e-03,1.467851421968359015e-04,7.189276393956450795e-01
4.240000000000000000e+09,1.161905571123873308e-06,1.467406887105982298e-04,-7.189174522560377589e-01,-7.077574200440238730e-03,1.467452886733230032e-04,7.189522899434114267e-01
4.346666666666666985e+09,1.713284497820102548e-06,1.450157206888425811e-04,-7.189277164310171608e-01,-7.305251892332526031e-03,1.450258411134887153e-04,7.189648309604075305e-01
4.453333333333333015e+09,1.980912668393480432e-06,1.430961475906963648e-04,-7.189395812395730223e-01,-7.539489114990554318e-03,1.431098580472294477e-04,7.189791133051416372e-01
4.560000000000000000e+09,1.938499826634471040e-06,1.423183628356629652e-04,-7.189534121843489389e-01,-7.781098752403838199e-03,1.423315642498222298e-04,7.189955176420177452e-01
4.666666666666666985e+09,1.820612214478881544e-06,1.435546323551396884e-04,-7.189640355903608171e-01,-8.032265111519613227e-03,1.435661767250727818e-04,7.190089024172088283e-01
4.773333333333333015e+09,1.247434689281276411e-06,1.468483293754146253e-04,-7.189890950730698505e-01,-8.290666944692777485e-03,1.468536275808475988e-04,7.190368933458002321e-01
4.880000000000000000e+09,8.523397612027741828e-07,1.519306869309223454e-04,-7.190125462613579099e-01,-8.561374245206225184e-03,1.519330777492856172e-04,7.190635151432784866e-01
4.986666666666666985e+09,5.526840984535327132e-07,1.580063765129217565e-04,-7.190414160912580455e-01,-8.845065231273605347e-03,1.580073431156156115e-04,7.190958164483138848e-01
5.093333333333333969e+09,3.618996333496976815e-07,1.642318164862036599e-04,-7.190777861501894686e-01,-9.143984553739187282e-03,1.642322152249755596e-04,7.191359224709725773e-01
5.200000000000000000e+09,2.186237549289316038e-07,1.698790911495610479e-04,-7.191249415123136535e-01,-9.460659463333244770e-03,1.698792318270455476e-04,7.191871700625434016e-01
5.306666666666666985e+09,3.319629484520193600e-09,1.744433893096625069e-04,-7.191880553277080201e-01,-9.797330011565954719e-03,1.744433893412485146e-04,7.192547855950670588e-01
5.413333333333333015e+09,-4.388274836325318004e-07,1.776420134956609056e-04,-7.192744443678407151e-01,-1.015447638159747840e-02,1.776425555106460731e-04,7.193461195497271587e-01
5.520000000000000000e+09,-1.289155986999493460e-06,1.793230779078198750e-04,-7.193921855860314629e-01,-1.052925478779073894e-02,1.793277117276994128e-04,7.194692362350411097e-01
5.626666666666666985e+09,-2.792003460574213764e-06,1.793220330207428396e-04,-7.195479207322516002e-01,-1.091580524217002253e-02,1.793437671345626816e-04,7.196307143488190894e-01
5.733333333333333969e+09,-5.365628737130776258e-06,1.773265718239053408e-04,-7.197460288810061391e-01,-1.130679550964546441e-02,1.774077310789002487e-04,7.198348350244485605e-01
5.840000000000000954e+09,-9.791753085462000532e-06,1.728216900313268140e-04,-7.199889217896645599e-01,-1.169446805561857698e-02,1.730988589614924575e-04,7.200838896149166501e-01
5.946666666666666985e+09,-1.745569187040738892e-05,1.651767765923333061e-04,-7.202774708026811190e-01,-1.207105235030489498e-02,1.660965643958603867e-04,7.203786124329004670e-01
6.053333333333333969e+09,-3.058041794123561076e-05,1.539153849443367886e-04,-7.206112879096200352e-01,-1.242890561562824854e-02,1.569238913742073305e-04,7.207184651148903498e-01
6.160000000000000000e+09,-5.237320882841740312e-05,1.391793269880792357e-04,-7.209888825590783368e-01,-1.276056979187825506e-02,1.487072226350814972e-04,7.211017964997743501e-01
6.266666666666666985e+09,-8.698600028647347857e-05,1.223608536973444657e-04,-7.214077403055477733e-01,-1.305881008350861378e-02,1.501290869997593241e-04,7.215259248935922409e-01
6.373333333333333015e+09,-1.391872107387615725e-04,1.068298349293930012e-04,-7.218643521820443665e-01,-1.331665859777949115e-02,1.754585229171777116e-04,7.219871718717808529e-01
6.480000000000000000e+09,-2.136608660356795414e-04,9.863179961404892242e-05,-7.223542116404180202e-01,-1.352747487973512963e-02,2.353278512420969306e-04,7.224808645571670906e-01
6.586666666666666985e+09,-3.138933442966666820e-04,1.069858974647960349e-04,-7.228717910580390038e-01,-1.368503250527371845e-02,3.316248088579827440e-04,7.230013184096745205e-01
6.693333333333333015e+09,-4.434579050898901538e-04,1.487872548290773787e-04,-7.233801581899144129e-01,-1.367263785502747034e-02,4.677526705282257068e-04,7.235093601943103359e-01
6.799999999999999046e+09,-5.903642435843251424e-04,2.260577767012710015e-04,-7.239627057607713745e-01,-1.381830526562456002e-02,6.321645818218654808e-04,7.240945690259464884e-01
6.906666666666666031e+09,-7.530614694453887769e-04,3.687162712290097902e-04,-7.245196348428404320e-01,-1.378494196462356006e-02,8.384827162394421990e-04,7.246507613311193863e-01
7.013333333333333015e+09,-9.111371382727049325e-04,5.883217969545051496e-04,-7.250715085787525771e-01,-1.368062587784523408e-02,1.084570616194054961e-03,7.252005598984860857e-01
7.120000000000000000e+09,-1.038377425092839885e-03,8.970489130572319343e-04,-7.256076042782245716e-01,-1.350388213762163982e-02,1.372196935341132894e-03,7.257332500438238299e-01
7.226666666666666985e+09,-1.100243441475848814e-03,1.299515966089340255e-03,-7.261164630603984538e-01,-1.325498915848162020e-02,1.702726453847396839e-03,7.262374354609754112e-01
7.333333333333333015e+09,-1.055613940333887312e-03,1.788660557651840580e-03,-7.265861942467309875e-01,-1.293626663551926230e-02,2.076927389565323689e-03,7.267013448896414429e-01
7.440000000000000000e+09,-8.603182203549620318e-04,2.341788081372585782e-03,-7.270048910545652276e-01,-1.255230781187986235e-02,2.494818401874859121e-03,7.271132456836860714e-01
7.546666666666666985e+09,-4.725969080215442798e-04,2.917498210402270833e-03,-7.273611465353091443e-01,-1.211011071362369691e-02,2.955527642430700978e-03,7.274619524556976691e-01
7.653333333333333969e+09,1.396150800077873393e-04,3.454333862999859912e-03,-7.276446393595904505e-01,-1.161906511802582309e-02,3.457154148665216465e-03,7.277374003464198715e-01
7.760000000000000954e+09,9.900135803546739142e-04,3.872071504202737220e-03,-7.278467396326310235e-01,-1.109076301473475162e-02,3.996631659653604798e-03,7.279312339899284279e-01
7.866666666666666985e+09,2.064695633186894048e-03,4.076546194704811638e-03,-7.279610703026170304e-01,-1.053862065213823779e-02,4.569594832724593880e-03,7.280373495923003757e-01
7.973333333333333969e+09,3.313695616017169315e-03,3.968723416382951945e-03,-7.279839546151588570e-01,-9.977327547943075706e-03,5.170236376739247366e-03,7.280523231486351055e-01
8.080000000000000954e+09,4.645130838831956072e-03,3.458314608371050244e-03,-7.279146876674700284e-01,-9.422166756950253394e-03,5.791129461542047531e-03,7.279756656293026040e-01
8.186666666666667938e+09,5.924272787684292316e-03,2.481489927776267188e-03,-7.277555911575953607e-01,-8.888275542681949026e-03,6.422989983220562735e-03,7.278098665882895002e-01
8.293333333333334923e+09,6.980094099858103612e-03,1.021092968128708631e-03,-7.275118412749334018e-01,-8.389928729691223733e-03,7.054384770654050472e-03,7.275602175073436761e-01
8.399999999999999046e+09,7.590622616345812923e-03,-8.912759769711237588e-04,-7.271975130870267368e-01,-7.859043565907192219e-03,7.642769430704185636e-03,7.272399793780092159e-01
8.506666666666666031e+09,7.667073235658198628e-03,-3.078058064255954993e-03,-7.266989280044768851e-01,-7.536662265624699715e-03,8.261867431027769895e-03,7.267380086667836192e-01
8.613333333333332062e+09,6.968024678296448268e-03,-5.366212274238463947e-03,-7.263584602979359373e-01,-7.226298906264474846e-03,8.794862255290634631e-03,7.263944054315608634e-01
8.720000000000000000e+09,5.474571611663404079e-03,-7.471429132270048998e-03,-7.258693580947992441e-01,-6.977890406160540578e-03,9.262461206923590720e-03,7.259028970705905248e-01
8.826666666666666031e+09,3.244665041714332818e-03,-9.078020011772689607e-03,-7.253477690227034813e-01,-6.808330218547456632e-03,9.640451159933775827e-03,7.253797208266701269e-01
8.933333333333332062e+09,4.739166476502942957e-04,-9.898999997165695841e-03,-7.248057500555687982e-01,-6.720160055534643052e-03,9.910337932321306928e-03,7.248369029407840669e-01
9.040000000000000000e+09,-2.519167121029570154e-03,-9.736487765201584654e-03,-7.242550886286515111e-01,-6.714311024961806644e-03,1.005710679000658588e-02,7.242862109532638426e-01
9.146666666666666031e+09,-5.357487188473331746e-03,-8.526535934483311929e-03,-7.236905034370049172e-01,-6.770042612025893060e-03,1.006997934539545503e-02,7.237221692347652890e-01
9.253333333333333969e+09,-7.589415362878914814e-03,-6.428931582816158757e-03,-7.231731009256148202e-01,-6.946628825286272312e-03,9.946375563331276079e-03,7.232064639882622714e-01
9.360000000000000000e+09,-8.952917949069310460e-03,-3.694941582789166949e-03,-7.226634372065930956e-01,-7.180495808771329702e-03,9.685418581713024430e-03,7.226991095852458580e-01
9.466666666666666031e+09,-9.264905722204843166e-03,-7.341194558627580063e-04,-7.221885292062598660e-01,-7.488308672126561816e-03,9.293944771560688767e-03,7.222273509663490465e-01
9.573333333333333969e+09,-8.545269122130562042e-03,2.028101844152797612e-03,-7.217584628069990682e-01,-7.865523372759369511e-03,8.782643193247350114e-03,7.218013196797645747e-01
9.680000000000000000e+09,-6.987999640104450294e-03,4.225459454862133188e-03,-7.213832275778353509e-01,-8.306674042089302532e-03,8.166189232119454647e-03,7.214310513585178164e-01
9.786666666666667938e+09,-4.910885397245230884e-03,5.619336817385709414e-03,-7.210729052019670959e-01,-8.805247963176042816e-03,7.462823973008006137e-03,7.211266650236268783e-01
9.893333333333333969e+09,-2.682184477124314667e-03,6.132980069478101773e-03,-7.208378693487454969e-01,-9.353379690240552422e-03,6.693844792190976022e-03,7.208985501434087562e-01
1.000000000000000000e+10,-6.445535665972160514e-04,5.847402384969160524e-03,-7.206889069490152178e-01,-9.941298565624950845e-03,5.882819388010838806e-03,7.207574696224363642e-01
1.010666666666666794e+10,9.462816653637434738e-04,4.965121952127921935e-03,-7.206371087556633359e-01,-1.055649344452540793e-02,5.054491565895245092e-03,7.207144247686222416e-01
1.021333333333333397e+10,1.957118001402952286e-03,3.754007748747600556e-03,-7.206933104761331643e-01,-1.118262806696804744e-02,4.233542848380362350e-03,7.207800628038570911e-01
1.031999999999999809e+10,2.361266266373693388e-03,2.540928292514947184e-03,-7.208454849369867468e-01,-1.180403526629913297e-02,3.468702202325430004e-03,7.209421255569739007e-01
1.042666666666666603e+10,2.355727850037438176e-03,1.348356979476131486e-03,-7.211631146360449884e-01,-1.237655458944440443e-02,2.714317639397424708e-03,7.212693096306447282e-01
1.053333333333333206e+10,1.906614642021302710e-03,5.483749119591565385e-04,-7.215724999239040427e-01,-1.292707676225218240e-02,1.983908878259340192e-03,7.216882858686634039e-01
1.064000000000000000e+10,1.458325091097647771e-03,9.520571073386594678e-05,-7.221065207012945519e-01,-1.328502164697186079e-02,1.461429505204169281e-03,7.222287165707894641e-01
1.074666666666666603e+10,9.779623120655463360e-04,-9.990699698641527463e-05,-7.227064025188167928e-01,-1.356456047842296599e-02,9.830522325224803210e-04,7.228336887159195756e-01
1.085333333333333206e+10,6.408337738235549792e-04,-1.126408463176419494e-04,-7.233594413214200491e-01,-1.363289272013604343e-02,6.506580407034818483e-04,7.234878970050263591e-01
1.096000000000000000e+10,5.075206703877378550e-04,-4.233050873016436840e-05,-7.239901496901105515e-01,-1.354371027761750931e-02,5.092829300498627606e-04,7.241168199513063897e-01
1.106666666666666603e+10,2.472929066253919247e-04,8.933529421370175246e-05,-7.245500529989639116e-01,-1.328871311971752817e-02,2.629345478621694090e-04,7.246719045176096552e-01
1.117333333333333397e+10,1.852919802371859890e-04,1.723145446009723277e-04,-7.249933887729491655e-01,-1.290225695539506251e-02,2.530324489492567167e-04,7.251081864101573959e-01
1.128000000000000000e+10,1.546158485319479759e-04,2.336921438482955507e-04,-7.252938260808668991e-01,-1.243211679043213641e-02,2.802107755131246674e-04,7.254003664728283507e-01
1.138666666666666603e+10,1.387972024479211855e-04,2.846228081422850251e-04,-7.254472010926572567e-01,-1.192748646717451538e-02,3.166619748598956986e-04,7.255452477320727400e-01
1.149333333333333397e+10,1.378367348795448170e-04,3.356257648217230295e-04,-7.254668779574551252e-01,-1.142845573208988233e-02,3.628272584776679540e-04,7.255568899912380187e-01
1.160000000000000000e+10,1.610667281840032412e-04,3.880709880828862521e-04,-7.253748371332316980e-01,-1.096092316989198158e-02,4.201685170494420048e-04,7.254576460295932838e-01
1.170666666666666794e+10,2.218349266641033384e-05,4.175420811983531844e-04,-7.251928996322370979e-01,-1.053764838008493070e-02,4.181309566611073839e-04,7.252694559337200531e-01
1.181333333333333397e+10,3.088582183481378184e-04,4.411138026992163165e-04,-7.249374008772958566e-01,-1.016343114723233798e-02,5.384930695681692820e-04,7.250086416887826513e-01
1.192000000000000000e+10,4.139682309952017717e-04,3.960256287203807609e-04,-7.246185023298907790e-01,-9.841213997106792663e-03,5.728926556316371729e-04,7.246853271674201791e-01
1.202666666666666794e+10,4.964833094062654027e-04,2.874137418246917159e-04,-7.242431568458823632e-01,-9.576132715468635079e-03,5.736744159439812266e-04,7.243064631465562231e-01
1.213333333333333397e+10,5.171470898322876866e-04,1.355798383820621897e-04,-7.238191663782341800e-01,-9.376031137991651040e-03,5.346241718232634449e-04,7.238798902969900695e-01
1.224000000000000191e+10,4.574845437591534532e-04,-1.474496696752354216e-05,-7.233576585823379146e-01,-9.249194796562928977e-03,4.577221010934409435e-04,7.234167884657549674e-01
1.234666666666666603e+10,3.330738393643828225e-04,-1.159135701815932782e-04,-7.228729391030080942e-01,-9.201592232290316947e-03,3.526671776919052198e-04,7.229315011721585416e-01
1.245333333333333206e+10,1.861566611215622106e-04,-1.422080243182351743e-04,-7.223807480598989361e-01,-9.235545150144193471e-03,2.342593107230189103e-04,7.224397832773327144e-01
1.256000000000000000e+10,6.284794256853983734e-05,-1.010397214549061849e-04,-7.218967445810581252e-01,-9.350058770172493122e-03,1.189911307484028946e-04,7.219572933600263420e-01
1.266666666666666603e+10,-9.431641144315818567e-06,-2.467998491731969760e-05,-7.214362739392883306e-01,-9.541626175920013900e-03,2.642077800130569046e-05,7.214993693590346924e-01
1.277333333333333206e+10,-3.102776519550015655e-05,4.999754718982859331e-05,-7.210150589836842316e-01,-9.804034922148787551e-03,5.884281551749736037e-05,7.210817113073942908e-01
1.288000000000000000e+10,-2.258050321345157757e-05,1.001677491227279798e-04,-7.206492427079175256e-01,-1.012653292946220744e-02,1.026813375920204344e-04,7.207203880040209398e-01
1.298666666666666603e+10,-8.497501227649751206e-06,1.234690848377137785e-04,-7.203529022070667143e-01,-1.049151086096354428e-02,1.237611507613615752e-04,7.204292994585169696e-01
1.309333333333333397e+10,-3.636339340640118260e-06,1.311862049177576627e-04,-7.201328882277213683e-01,-1.087475557513436185e-02,1.312365929324751609e-04,7.202149936067830938e-01
1.320000000000000000e+10,-1.049733754196974174e-05,1.368925892538819656e-04,-7.199844245334515724e-01,-1.125060598762195503e-02,1.372944830941946021e-04,7.200723211635441379e-01
1.330666666666666603e+10,-2.366042626823258558e-05,1.495914068221868573e-04,-7.198921032774124873e-01,-1.159963526091322555e-02,1.514509979043898128e-04,7.199855497851070929e-01
1.341333333333333397e+10,-3.458142597227816179e-05,1.718944723439972397e-04,-7.198362490533657398e-01,-1.191300492548457574e-02,1.753384859199410921e-04,7.199348200619093419e-01
1.352000000000000000e+10,-3.557572510837230971e-05,1.997823765043863354e-04,-7.197994261993712062e-01,-1.219093795591411414e-02,2.029251836976545670e-04,7.199026551730371981e-01
1.362666666666666794e+10,-2.470628952061434134e-05,2.330878268170914498e-04,-7.198799126352308786e-01,-1.237732881983976373e-02,2.343935488706778340e-04,7.199863102062580289e-01
1.373333333333333397e+10,-5.896590755482918929e-06,2.386274286337464071e-04,-7.197362677259204755e-01,-1.266201628194942551e-02,2.387002712166272020e-04,7.198476378625981997e-01
1.384000000000000000e+10,1.091985749504423791e-05,2.410135743301688636e-04,-7.196953200634887970e-01,-1.286954995416294927e-02,2.412608262837460731e-04,7.198103771392229122e-01
