# Frequency, Real(S21), Imag(S21), Real(S11), Imag(S11), Amp(S21), Amp(S11)
2.000000000000000000e+09,3.761808615598270279e-05,5.363398846478278274e-05,-7.197497860219949084e-01,-3.183902374645837096e-03,6.551125952597300827e-05,7.197568281809063606e-01
2.106666666666666746e+09,3.535532040351454765e-05,5.981646314334397292e-05,-7.198041148460136984e-01,-3.351425271090949926e-03,6.948386822719501222e-05,7.198119169620637026e-01
2.213333333333333492e+09,4.379463701217491649e-05,6.742200056402384992e-05,-7.198354555195470850e-01,-3.546241915281373152e-03,8.039711680827486785e-05,7.198441906793132672e-01
2.320000000000000000e+09,4.438466199168229721e-05,7.078264095436331599e-05,-7.198725720720501320e-01,-3.711076365501834746e-03,8.354747441179893983e-05,7.198821376513100390e-01
2.426666666666666508e+09,1.866525344359668096e-05,6.991320211783994074e-05,-7.199897717068046710e-01,-3.865364737951522411e-03,7.236192034823037318e-05,7.200001475048279920e-01
2.533333333333333492e+09,1.540589204924241196e-05,7.400636009844256962e-05,-7.200755384935616510e-01,-4.027973694022545827e-03,7.559287562233138718e-05,7.200868042874223329e-01
2.640000000000000477e+09,1.026862848015487172e-05,8.624169914917952594e-05,-7.189378007870005360e-01,-4.162833251982044069e-03,8.685088026612649409e-05,7.189498526191744343e-01
2.746666666666666985e+09,8.550587968069244419e-06,8.086643928647696685e-05,-7.187276816205290242e-01,-4.329335373023548809e-03,8.131724022292662784e-05,7.187407206165465912e-01
2.853333333333333015e+09,1.377375764349555063e-05,8.375916930528296413e-05,-7.187810367218516738e-01,-4.503215028147567259e-03,8.488412597378150503e-05,7.187951430668751973e-01
2.960000000000000000e+09,1.632717022731434899e-05,8.716909007074928541e-05,-7.187955046101862644e-01,-4.680845498080703736e-03,8.868498605397702938e-05,7.188107454416560183e-01
3.066666666666666985e+09,2.601737308497665981e-06,9.030153213250029687e-05,-7.188079449206399296e-01,-4.860379115242014457e-03,9.033900454675938916e-05,7.188243769977320508e-01
3.173333333333333015e+09,2.713981713529953602e-06,9.378021947578689616e-05,-7.188564336187716064e-01,-5.040653500664618245e-03,9.381948231400626993e-05,7.188741060455670073e-01
3.280000000000000000e+09,-1.067901335064220396e-06,9.706175866527858736e-05,-7.188496080237065655e-01,-5.226545337504500018e-03,9.706763316604673068e-05,7.188686081141681949e-01
3.386666666666666508e+09,-4.991916107546134758e-07,1.007353860832524081e-04,-7.188497510742338781e-01,-5.414650921977332172e-03,1.007366229412430287e-04,7.188701433945458019e-01
3.493333333333333492e+09,-4.238375713982945775e-07,1.056726068295730148e-04,-7.188688710257177261e-01,-5.604050774295007628e-03,1.056734568018121182e-04,7.188907143056382232e-01
3.600000000000000000e+09,1.183703972719140078e-05,1.128114623123558659e-04,-7.188474784926154326e-01,-5.798559901430091167e-03,1.134307786209510019e-04,7.188708650600061922e-01
3.706666666666666985e+09,-4.567299100379039620e-07,1.208296044376041124e-04,-7.188773358872790897e-01,-5.993750686792025974e-03,1.208304676427208188e-04,7.189023223635373494e-01
3.813333333333333969e+09,3.179179514203761569e-05,1.286485892905171594e-04,-7.188369476910710931e-01,-6.195937429043282124e-03,1.325185940341711173e-04,7.188636498018523557e-01
3.920000000000000000e+09,-2.880141096024238866e-06,1.377420281601010111e-04,-7.189029040292684858e-01,-6.397982919226810096e-03,1.377721362772279276e-04,7.189313733640717574e-01
4.026666666666666985e+09,-2.673994488452367957e-07,1.435098783224716089e-04,-7.188976743311136230e-01,-6.605598019326168989e-03,1.435101274426158814e-04,7.189280214902440402e-01
4.133333333333333015e+09,3.888270716860255739e-07,1.461643557958586010e-04,-7.189048978168932624e-01,-6.817995896135412709e-03,1.461648729746994240e-04,7.189372275610419472e-01
4.240000000000000000e+09,1.048888984242717382e-06,1.460667718167005106e-04,-7.189130759958873851e-01,-7.035196290363487232e-03,1.460705377447941034e-04,7.189474979612298089e-01
4.346666666666666985e+09,1.090922600962043755e-06,1.442972356572359035e-04,-7.189100060867340547e-01,-7.258717037377067187e-03,1.443013594199346508e-04,7.189466501936403464e-01
4.453333333333333015e+09,1.797559169333243898e-06,1.423781698198166811e-04,-7.189330519995940083e-01,-7.485876422592328133e-03,1.423895166794515374e-04,7.189720242146180329e-01
4.560000000000000000e+09,1.752300730317473073e-06,1.416016556889514459e-04,-7.189453566398583684e-01,-7.720555865746683150e-03,1.416124975124082497e-04,7.189868099046665684e-01
4.666666666666666985e+09,2.174481351679252559e-06,1.428562903570781593e-04,-7.189683324542560650e-01,-7.963572290217720007e-03,1.428728387893745972e-04,7.190124349103256263e-01
4.773333333333333015e+09,1.104851876044459621e-06,1.462075367934221356e-04,-7.189764770328754828e-01,-8.212658029990122649e-03,1.462117112712517624e-04,7.190233808983700348e-01
4.880000000000000000e+09,7.430720613875403452e-07,1.513775311979387013e-04,-7.189964455101450769e-01,-8.472268027597085888e-03,1.513793549585653231e-04,7.190463601060466114e-01
4.986666666666666985e+09,4.804885393193402395e-07,1.575877597653491254e-04,-7.190205049891643663e-01,-8.742784777430654547e-03,1.575884922736993799e-04,7.190736560885382378e-01
5.093333333333333969e+09,3.357110291059724048e-07,1.640117794666307656e-04,-7.190500059133982935e-01,-9.025989538095096146e-03,1.640121230449316124e-04,7.191066537664632108e-01
5.200000000000000000e+09,2.603564957245201411e-07,1.699465394945639878e-04,-7.190869835667914600e-01,-9.324002052543998303e-03,1.699467389262949643e-04,7.191474306075652523e-01
5.306666666666666985e+09,1.548905231909644487e-07,1.749228567299817877e-04,-7.191346038022432552e-01,-9.639171551012187464e-03,1.749229253061241923e-04,7.191992019002796388e-01
5.413333333333333015e+09,-1.087895114264339559e-07,1.787118969642050492e-04,-7.191977635650699252e-01,-9.973542383813647702e-03,1.787119300765968382e-04,7.192669147574354271e-01
5.520000000000000000e+09,-6.702500828238324396e-07,1.812503815729710969e-04,-7.192832959843018514e-01,-1.032754388023565499e-02,1.812516208355697514e-04,7.193574341345468914e-01
5.626666666666666985e+09,-1.683589991833978552e-06,1.825168241592282480e-04,-7.193987641254244725e-01,-1.069860154341563570e-02,1.825245889638742419e-04,7.194783123209294029e-01
5.733333333333333969e+09,-3.362658994252734428e-06,1.823941445257220672e-04,-7.195505054824479219e-01,-1.108133926484405202e-02,1.824251392565773007e-04,7.196358287494786232e-01
5.840000000000000954e+09,-6.090015092042617019e-06,1.805639144344300723e-04,-7.197428051180799757e-01,-1.146893000772487500e-02,1.806665865059322348e-04,7.198341766509593898e-01
5.946666666666666985e+09,-1.059248908530645051e-05,1.764831198817969917e-04,-7.199781054239832168e-01,-1.185408413836153835e-02,1.768007138793140488e-04,7.200756846336832107e-01
6.053333333333333969e+09,-1.816044937218551521e-05,1.694876775694738476e-04,-7.202573890425566505e-01,-1.222946651712139392e-02,1.704578386853876565e-04,7.203612054529964226e-01
6.160000000000000000e+09,-3.086353149880927127e-05,1.590524912635464928e-04,-7.205804469107647270e-01,-1.258784583661069073e-02,1.620192968560181285e-04,7.206903872904950603e-01
6.266666666666666985e+09,-5.169332181571437092e-05,1.452179108374824796e-04,-7.209460338689995806e-01,-1.292215410321546389e-02,1.541442219103461033e-04,7.210618321739876713e-01
6.373333333333333015e+09,-8.454609581939998117e-05,1.291636225553802501e-04,-7.213519503763322627e-01,-1.322552253277854174e-02,1.543738439954511581e-04,7.214731809000273222e-01
6.480000000000000000e+09,-1.339527915278086094e-04,1.138730594513291802e-04,-7.217950766198013568e-01,-1.349131841789989565e-02,1.758136059208686606e-04,7.219211510305250101e-01
6.586666666666666985e+09,-2.044759805303163073e-04,1.047871447469091318e-04,-7.222713746847556626e-01,-1.371319500863864109e-02,2.297624258185919756e-04,7.224015437458254363e-01
6.693333333333333015e+09,-2.997287870846674349e-04,1.103023097691417632e-04,-7.227758696651888082e-01,-1.388516324773395386e-02,3.193805650750427693e-04,7.229092304907208666e-01
6.799999999999999046e+09,-4.210306227431570352e-04,1.419343404572572485e-04,-7.233026200242955728e-01,-1.400169341002166848e-02,4.443108622220789516e-04,7.234381297335374938e-01
6.906666666666666031e+09,-5.657941802838055683e-04,2.139570648909900133e-04,-7.238446893424584916e-01,-1.405785348127509132e-02,6.048972475220818976e-04,7.239811858976593628e-01
7.013333333333333015e+09,-7.258295071043127438e-04,3.423438353917257915e-04,-7.243941345630401374e-01,-1.404948869767380822e-02,8.025134111116190641e-04,7.245303653553809564e-01
7.120000000000000000e+09,-8.858403348344485138e-04,5.428971716278190290e-04,-7.249420289061613287e-01,-1.397344208926787346e-02,1.038966042650621641e-03,7.250766872258436191e-01
7.226666666666666985e+09,-1.022459587761535274e-03,8.285504569892267884e-04,-7.254785395197627107e-01,-1.382780941022021537e-02,1.316024113906179684e-03,7.256103083727609704e-01
7.333333333333333015e+09,-1.104208521001422312e-03,1.205960545349978562e-03,-7.259930795358299216e-01,-1.361221349729156184e-02,1.635119963425609455e-03,7.261206813541490890e-01
7.440000000000000000e+09,-1.092752898093087531e-03,1.671671403442898454e-03,-7.264745504040225343e-01,-1.332807408856187363e-02,1.997146508741807786e-03,7.265968001193212622e-01
7.546666666666666985e+09,-9.457594596590943254e-04,2.208299530939705334e-03,-7.269116823904220315e-01,-1.297884071817066547e-02,2.402300516980168752e-03,7.270275402638207707e-01
7.653333333333333969e+09,-6.215205184650665323e-04,2.781353100101296039e-03,-7.272934688678068804e-01,-1.257015065891792238e-02,2.849949617504873682e-03,7.274020886314221945e-01
7.760000000000000954e+09,-8.531095746860798724e-05,3.337427252149241606e-03,-7.276096745509897934e-01,-1.210987325349963811e-02,3.338517428867587757e-03,7.277104420924664918e-01
7.866666666666666985e+09,6.828308452020586707e-04,3.804595326880203486e-03,-7.278513811506319708e-01,-1.160800812633539479e-02,3.865385306082440471e-03,7.279439393906261824e-01
7.973333333333333969e+09,1.679548636554213745e-03,4.095811753992128698e-03,-7.280115196029208757e-01,-1.107641871856853907e-02,4.426799921691875958e-03,7.280957764787425734e-01
8.080000000000000954e+09,2.869896344728049744e-03,4.116017580810359469e-03,-7.280853297048791584e-01,-1.052840310192701065e-02,5.017759037162245611e-03,7.281614481715845688e-01
8.186666666666667938e+09,4.180850520520629915e-03,3.773337819700978406e-03,-7.280706889355738065e-01,-9.978128407509879311e-03,5.631837122691258843e-03,7.281390602993619288e-01
8.293333333333334923e+09,5.498535941957954053e-03,2.994211517665341677e-03,-7.279682643127166619e-01,-9.439978500896624436e-03,6.260926458402401099e-03,7.280294685248439590e-01
8.399999999999999046e+09,6.671374975630367174e-03,1.741427447874033686e-03,-7.277814630688977937e-01,-8.927881667285801626e-03,6.894912154746872003e-03,7.278362213147752113e-01
8.506666666666666031e+09,7.521300138340087510e-03,3.284114995049996696e-05,-7.275161863204936408e-01,-8.454691450291988014e-03,7.521371837113538864e-03,7.275653119588885165e-01
8.613333333333332062e+09,7.864448447242589763e-03,-2.042884991721204309e-03,-7.271804193290635210e-01,-8.031687331698506363e-03,8.125449431799826663e-03,7.272247728570492287e-01
8.720000000000000000e+09,7.541084994095163807e-03,-4.318492357217011343e-03,-7.267837161302551641e-01,-7.668243177681113680e-03,8.690071295881812707e-03,7.268241685480302250e-01
8.826666666666666031e+09,6.451740605113505389e-03,-6.553834614063667671e-03,-7.263366504620011321e-01,-7.371683581887028547e-03,9.196613778134288958e-03,7.263740575785940790e-01
8.933333333333332062e+09,4.593009581737111068e-03,-8.459566192152009542e-03,-7.258503055736811316e-01,-7.147316903031076911e-03,9.626006294270234367e-03,7.258854938902682408e-01
9.040000000000000000e+09,2.061079567128162524e-03,-9.735082630206894419e-03,-7.253174856421628069e-01,-6.993952605505598247e-03,9.950873469147780356e-03,7.253512048320572836e-01
9.146666666666666031e+09,-8.332346448904086236e-04,-1.014892341369083399e-02,-7.248043186499746326e-01,-6.927411273729968885e-03,1.018307057966346720e-02,7.248374227098165479e-01
9.253333333333333969e+09,-3.810471765745838436e-03,-9.550392691969144740e-03,-7.242663461466013475e-01,-6.934260179676146607e-03,1.028249462184949864e-02,7.242995403317524783e-01
9.360000000000000000e+09,-6.456273719778495707e-03,-7.961270856704170604e-03,-7.237322533581029838e-01,-7.018561297186267332e-03,1.025013677950248683e-02,7.237662846205809020e-01
9.466666666666666031e+09,-8.406902375056221274e-03,-5.565710436581288237e-03,-7.232120196251584643e-01,-7.178765954954941658e-03,1.008231819610925541e-02,7.232476477742161292e-01
9.573333333333333969e+09,-9.403188507239040525e-03,-2.689031378062852005e-03,-7.227153588079143764e-01,-7.412458529433442640e-03,9.780124940657915558e-03,7.227533703818357358e-01
9.680000000000000000e+09,-9.345828294378688561e-03,2.638567597169169557e-04,-7.222517944109169141e-01,-7.716395535622688588e-03,9.349552229794621389e-03,7.222930134577320027e-01
9.786666666666667938e+09,-8.313691262431132170e-03,2.889671741848317058e-03,-7.218307482087958915e-01,-8.086502044786895299e-03,8.801571745015796672e-03,7.218760423888511690e-01
9.893333333333333969e+09,-6.540794259261565290e-03,4.865424116699031652e-03,-7.214616542463949678e-01,-8.517813704158447644e-03,8.151953224678463311e-03,7.215119345501108672e-01
1.000000000000000000e+10,-4.360307282325427691e-03,6.004469226728155473e-03,-7.211540997984907664e-01,-9.004326882283709629e-03,7.420642175110289847e-03,7.212103116004198178e-01
1.010666666666666794e+10,-2.132321923005654936e-03,6.278408302254828016e-03,-7.209179641482386103e-01,-9.538701684821347324e-03,6.630626485721608475e-03,7.209810662295321748e-01
1.021333333333333397e+10,-1.739376098509562863e-04,5.803837127630384618e-03,-7.207634810266481118e-01,-1.011176284479423787e-02,5.806442946949670787e-03,7.208344077036561437e-01
1.031999999999999809e+10,1.325068870758418704e-03,4.761919524992878038e-03,-7.206758160009476555e-01,-1.071365809907280295e-02,4.942841801510684113e-03,7.207554469017182219e-01
1.042666666666666603e+10,2.170776048020834400e-03,3.540075499145583105e-03,-7.207409359788455872e-01,-1.132347920003652121e-02,4.152638100089122916e-03,7.208298814400357912e-01
1.053333333333333206e+10,2.480713161053739631e-03,2.277985530971339979e-03,-7.208916568104852818e-01,-1.192716934184186867e-02,3.367960193758236156e-03,7.209903177071627089e-01
1.064000000000000000e+10,2.341786541858776813e-03,1.214953175506474541e-03,-7.211584670767262617e-01,-1.249791852422227866e-02,2.638195486749257950e-03,7.212667555099788741e-01
1.074666666666666603e+10,1.881265443510196471e-03,4.727519375385352916e-04,-7.215402577358682734e-01,-1.300575010443208793e-02,1.939756186584297437e-03,7.216574624219735945e-01
1.085333333333333206e+10,1.351010694268496137e-03,3.435695687151142305e-05,-7.220261791379416483e-01,-1.341739149872139651e-02,1.351447481966397109e-03,7.221508358751411727e-01
1.096000000000000000e+10,8.679197401119991212e-04,-1.573212344751138926e-04,-7.227137584225195033e-01,-1.366271627225218444e-02,8.820627223122253033e-04,7.228428919406623132e-01
1.106666666666666603e+10,5.594820087629860314e-04,-9.416554754605624238e-05,-7.232461620844440331e-01,-1.389045933876223264e-02,5.673510980637250104e-04,7.233795378848641988e-01
1.117333333333333397e+10,3.580492599211061635e-04,1.185042172349552465e-07,-7.238082300752219922e-01,-1.379284681953917360e-02,3.580492795318841715e-04,7.239396359835623684e-01
1.128000000000000000e+10,2.387198502600346368e-04,1.036219361546325221e-04,-7.243591170444110272e-01,-1.359971452047169758e-02,2.602396444829421112e-04,7.244867719154002295e-01
1.138666666666666603e+10,1.810706777321512151e-04,1.858884987338864576e-04,-7.248119388926784756e-01,-1.327768641846870795e-02,2.595016845724101330e-04,7.249335443459566930e-01
1.149333333333333397e+10,1.522976177421254875e-04,2.469786522132015431e-04,-7.251395275913420368e-01,-1.286800274399212823e-02,2.901603332969138584e-04,7.252536935238689253e-01
1.160000000000000000e+10,1.382686023432894075e-04,2.988668156689162068e-04,-7.253343863630119515e-01,-1.241508754088688389e-02,3.293016548729214041e-04,7.254406291622044201e-01
1.170666666666666794e+10,1.405581740232426393e-04,3.509877249515605665e-04,-7.254057795068320491e-01,-1.195674694708546634e-02,3.780859470430241983e-04,7.255043133844699677e-01
1.181333333333333397e+10,1.682302557395890723e-04,4.028217903129897859e-04,-7.253723706773417268e-01,-1.151847754735144808e-02,4.365395900684952615e-04,7.254638181653690898e-01
1.192000000000000000e+10,2.289035671320256682e-04,4.422086663751737153e-04,-7.252540247728932465e-01,-1.111318632788695603e-02,4.979411086293995380e-04,7.253391643635678232e-01
1.202666666666666794e+10,3.200877831476351071e-04,4.483525485223697842e-04,-7.250659554719598443e-01,-1.074519063934960619e-02,5.508867367135202638e-04,7.251455708382572585e-01
1.213333333333333397e+10,4.227434644603758683e-04,4.007634912822435631e-04,-7.248168686460567667e-01,-1.041599143151410688e-02,5.825147317353390015e-04,7.248917063612857481e-01
1.224000000000000191e+10,5.057000834941681629e-04,2.981551896250441086e-04,-7.245947620983160808e-01,-1.025060293735232178e-02,5.870511830721019666e-04,7.246672644192605484e-01
1.234666666666666603e+10,5.218400968049331876e-04,1.518755811233337446e-04,-7.241793973447439026e-01,-9.850691675356551893e-03,5.434917467404011809e-04,7.242463915443965172e-01
1.245333333333333206e+10,4.677141204361327884e-04,-4.767526669566658857e-06,-7.237462028348543575e-01,-9.713055004254301725e-03,4.677384180991448100e-04,7.238113770557809135e-01
1.256000000000000000e+10,3.478285072313292087e-04,-1.085278551141527720e-04,-7.233047461216566276e-01,-9.602463259462920217e-03,3.643665266986710876e-04,7.233684835979262706e-01
1.266666666666666603e+10,2.027905707115867148e-04,-1.405636895026842121e-04,-7.228411484460051106e-01,-9.565683383755397423e-03,2.467431181940806678e-04,7.229044391794380298e-01
1.277333333333333206e+10,7.725112068299091334e-05,-1.051943425894907077e-04,-7.223701007860913181e-01,-9.604970392966835288e-03,1.305127785299706341e-04,7.224339540511350855e-01
1.288000000000000000e+10,-2.739438736417505391e-08,-3.174396155438570635e-05,-7.219061002285690476e-01,-9.719578630268156660e-03,3.174397337478056187e-05,7.219715283554959395e-01
1.298666666666666603e+10,-2.653660224573427143e-05,4.372692144578940200e-05,-7.214634706450178125e-01,-9.906447325821183050e-03,5.114914386257648859e-05,7.215314803761327944e-01
1.309333333333333397e+10,-2.073789066307128525e-05,9.690238511361905617e-05,-7.210569415882948086e-01,-1.015978283506964452e-02,9.909658091912979081e-05,7.211285143439561951e-01
1.320000000000000000e+10,-6.820220726587244926e-06,1.232067076282060848e-04,-7.207013034308434873e-01,-1.046935740743576426e-02,1.233953330371194684e-04,7.207773416329353866e-01
1.330666666666666603e+10,-7.263702311216860795e-07,1.326714929707612216e-04,-7.204088289299170889e-01,-1.081891595180869275e-02,1.326734813774154494e-04,7.204900622094290163e-01
1.341333333333333397e+10,-5.943741093939437716e-06,1.385766721602794038e-04,-7.201850258945581285e-01,-1.118718312559893215e-02,1.387040811411450103e-04,7.202719101763104259e-01
1.352000000000000000e+10,-1.793919232586806660e-05,1.497159961152278449e-04,-7.200258557901938472e-01,-1.155252346245619517e-02,1.507869162562833318e-04,7.201185276083039710e-01
1.362666666666666794e+10,-2.961719618616882329e-05,1.691113849474130851e-04,-7.199193382198475488e-01,-1.189860303350871555e-02,1.716852900768209148e-04,7.200176597119353206e-01
1.373333333333333397e+10,-3.416603623874064379e-05,1.948097186810931775e-04,-7.198505026718599042e-01,-1.221695271270833820e-02,1.977830744145555317e-04,7.199541652983986184e-01
1.384000000000000000e+10,-2.764667814402848006e-05,2.205433460250253840e-04,-7.198057514838404058e-01,-1.250546439253927625e-02,2.222694452422860291e-04,7.199143744285769753e-01
