# Frequency, Real(S21), Imag(S21), Real(S11), Imag(S11), Amp(S21), Amp(S11)
2.000000000000000000e+09,3.762176665893087683e-05,5.362672341500599035e-05,-7.197497808711721401e-01,-3.183578600789377291e-03,6.550742546283279269e-05,7.197568215979670558e-01
2.106666666666666746e+09,3.535983128250283307e-05,5.980883456739555888e-05,-7.198041075681913536e-01,-3.351062405504046712e-03,6.947959672189494955e-05,7.198119079949191201e-01
2.213333333333333492e+09,4.379563418698769774e-05,6.727773673856768117e-05,-7.198024645352186779e-01,-3.548129525085999113e-03,8.027671788572615414e-05,7.198112093973679793e-01
2.320000000000000000e+09,4.413495593689261299e-05,7.070701284061397434e-05,-7.198723555477770653e-01,-3.711468563951177742e-03,8.335092081311520342e-05,7.198819231518501782e-01
2.426666666666666508e+09,1.867412490109369039e-05,6.990312425199614115e-05,-7.199897690850419751e-01,-3.864855414655427989e-03,7.235447270909835141e-05,7.200001421489500286e-01
2.533333333333333492e+09,1.541511999783186219e-05,7.399506951752369437e-05,-7.200755337729712879e-01,-4.027402200994073186e-03,7.558370351769434781e-05,7.200867963703528885e-01
2.640000000000000477e+09,1.007812867962930532e-05,8.615644752739921928e-05,-7.189442573808707548e-01,-4.154910358364516387e-03,8.674388813181400199e-05,7.189562632740726933e-01
2.746666666666666985e+09,8.558518635222374347e-06,8.085206215040139342e-05,-7.187276703599722039e-01,-4.328630657908593901e-03,8.130377725051781681e-05,7.187407051116873058e-01
2.853333333333333015e+09,1.378083448387835717e-05,8.374256545920670601e-05,-7.187810124062521400e-01,-4.502420066888457480e-03,8.486889105415228532e-05,7.187951137718003869e-01
2.960000000000000000e+09,1.633440174001320758e-05,8.715103387673184330e-05,-7.187954740894240135e-01,-4.679961269725078053e-03,8.866857045192172828e-05,7.188107091640509871e-01
3.066666666666666985e+09,2.557869705628066681e-06,9.028086760792731114e-05,-7.188142341680395786e-01,-4.859009476766167415e-03,9.031709557703385930e-05,7.188306568418465492e-01
3.173333333333333015e+09,2.721272285923911185e-06,9.375577341927363874e-05,-7.188563816368767068e-01,-5.039560163981054650e-03,9.379525772820456061e-05,7.188740463994436336e-01
3.280000000000000000e+09,-1.060463067921277519e-06,9.703431503541105397e-05,-7.188495461087721639e-01,-5.225326862961039188e-03,9.704010962643140603e-05,7.188685373429639647e-01
3.386666666666666508e+09,-4.918768270139087167e-07,1.007049408424153588e-04,-7.188496778784594365e-01,-5.413295402132083968e-03,1.007061420812421516e-04,7.188700599921210577e-01
3.493333333333333492e+09,-4.613997192713506860e-07,1.056470859316932119e-04,-7.188542603228915695e-01,-5.603382475516067995e-03,1.056480934781102102e-04,7.188760988373020799e-01
3.600000000000000000e+09,1.184528809904036793e-05,1.127772051039188964e-04,-7.188473727356485821e-01,-5.796878022415761188e-03,1.133975698205241925e-04,7.188707457420639990e-01
3.706666666666666985e+09,-4.494439900988826274e-07,1.207904740321384532e-04,-7.188772072624525222e-01,-5.991885383075831219e-03,1.207913101874838826e-04,7.189021781938812472e-01
3.813333333333333969e+09,3.226635812351594192e-05,1.287470414579855828e-04,-7.188173237233869139e-01,-6.196046113237564483e-03,1.327287404850179279e-04,7.188440274999089441e-01
3.920000000000000000e+09,-2.875307686578031330e-06,1.376980565019377131e-04,-7.189027145664234064e-01,-6.395666426252703644e-03,1.377280732410910010e-04,7.189311632972995580e-01
4.026666666666666985e+09,-2.666850060491273326e-07,1.434626632277290193e-04,-7.188974497701319244e-01,-6.603012666692628305e-03,1.434629110999956225e-04,7.189277731888481515e-01
4.133333333333333015e+09,2.489215458633492158e-05,1.468514646433744018e-04,-7.189046275610930792e-01,-6.815107264153382263e-03,1.489462051475438974e-04,7.189369299290279125e-01
4.240000000000000000e+09,1.040993298710424220e-06,1.460137268515787753e-04,-7.189127496651451787e-01,-7.031963924549677718e-03,1.460174376440547526e-04,7.189471400233370391e-01
4.346666666666666985e+09,1.079672553196654239e-06,1.442416864665717140e-04,-7.189096134059066445e-01,-7.255086443909202799e-03,1.442457271725679409e-04,7.189462208863321990e-01
4.453333333333333015e+09,1.784463570070239584e-06,1.423209814414953540e-04,-7.189325697853595765e-01,-7.481805676062018226e-03,1.423321680742037029e-04,7.189714996537451830e-01
4.560000000000000000e+09,1.739072048966322118e-06,1.415439830248361162e-04,-7.189447652615464923e-01,-7.715971224862195992e-03,1.415546661262940783e-04,7.189861693446704116e-01
4.666666666666666985e+09,2.056059239184801990e-06,1.427513373088199974e-04,-7.189751949860162528e-01,-7.958133673618302678e-03,1.427661433360568721e-04,7.190192368057667371e-01
4.773333333333333015e+09,1.094992956427578383e-06,1.461538784063321503e-04,-7.189755650998822523e-01,-8.206788557914667173e-03,1.461579802227286730e-04,7.190224020078437306e-01
4.880000000000000000e+09,7.356289285778493765e-07,1.513292177203155319e-04,-7.189952940304682460e-01,-8.465589226268343398e-03,1.513310056986446456e-04,7.190451300432452175e-01
4.986666666666666985e+09,4.755697133819846291e-07,1.575479312266433107e-04,-7.190190290238643867e-01,-8.735151005981937195e-03,1.575486489956274248e-04,7.190720874582172684e-01
5.093333333333333969e+09,3.337364369615360371e-07,1.639847294563460424e-04,-7.190480774868691638e-01,-9.017221876169908071e-03,1.639850690608152901e-04,7.191046154961923120e-01
5.200000000000000000e+09,2.626341572408008342e-07,1.699382336713918995e-04,-7.190844022801278212e-01,-9.313885752811395732e-03,1.699384366176561855e-04,7.191447184471183585e-01
5.306666666666666985e+09,1.641392892038879783e-07,1.749415824202576021e-04,-7.191310477322583328e-01,-9.627471141430740675e-03,1.749416594222486486e-04,7.191954894276483268e-01
5.413333333333333015e+09,-8.801138446396912249e-08,1.787692296861292018e-04,-7.191927310909151938e-01,-9.960069548748617940e-03,1.787692513509406939e-04,7.192616960741239351e-01
5.520000000000000000e+09,-6.309605452504963341e-07,1.813630393070728196e-04,-7.192761154254835310e-01,-1.031229744282551389e-02,1.813641368570658211e-04,7.193500355877677777e-01
5.626666666666666985e+09,-1.614460858386810785e-06,1.827100498129536385e-04,-7.193887418039472958e-01,-1.068186048186508738e-02,1.827171825158084757e-04,7.194680423602012320e-01
5.733333333333333969e+09,-3.242365945977903875e-06,1.827062627012508169e-04,-7.195370725164659254e-01,-1.106359782499590286e-02,1.827350304872771497e-04,7.196221243975196025e-01
5.840000000000000954e+09,-5.875704258863134527e-06,1.810493685148813648e-04,-7.197255488281901759e-01,-1.145079251140943173e-02,1.811446873087227383e-04,7.198166337930645975e-01
5.946666666666666985e+09,-1.020216589844237829e-05,1.772097253889197248e-04,-7.199567482128207407e-01,-1.183620749136086309e-02,1.775031576097610691e-04,7.200540362396127270e-01
6.053333333333333969e+09,-1.745156380182120797e-05,1.705234737529933581e-04,-7.202317672928508774e-01,-1.221253738144862863e-02,1.714141539661087925e-04,7.203353001811563239e-01
6.160000000000000000e+09,-2.961263545370659551e-05,1.604382920995925312e-04,-7.205504992307181222e-01,-1.257257136507858308e-02,1.631482569638679938e-04,7.206601775402655674e-01
6.266666666666666985e+09,-4.958421090093050011e-05,1.469234834599708714e-04,-7.209117966991472892e-01,-1.290925683201470976e-02,1.550648379313643277e-04,7.210273694749371742e-01
6.373333333333333015e+09,-8.117577366238172554e-05,1.310287939734123999e-04,-7.213135585873327038e-01,-1.321573585930624697e-02,1.541364690130573169e-04,7.214346162170376386e-01
6.480000000000000000e+09,-1.288652265923630170e-04,1.155395989247357945e-04,-7.217527676112512891e-01,-1.348538105574033537e-02,1.730769931111292292e-04,7.218787384711641275e-01
6.586666666666666985e+09,-1.972320883048614545e-04,1.056326170976277525e-04,-7.222254950251202343e-01,-1.371184331455129780e-02,2.237381202477367538e-04,7.223556466944539567e-01
6.693333333333333015e+09,-2.900170928352524503e-04,1.093922796896972774e-04,-7.227268834324123148e-01,-1.388912047026422299e-02,3.099622315578470593e-04,7.228603293191329104e-01
6.799999999999999046e+09,-4.088163036374281318e-04,1.380130354036498280e-04,-7.232511178572270660e-01,-1.401165486846449142e-02,4.314839140235692634e-04,7.233868300943012697e-01
6.906666666666666031e+09,-5.514953075101569234e-04,2.054980093239302218e-04,-7.237913968572764478e-01,-1.407446681593588732e-02,5.885375995141013195e-04,7.239282262633225384e-01
7.013333333333333015e+09,-7.104990635742699416e-04,3.276792510381724456e-04,-7.243399183461478597e-01,-1.407332859272536485e-02,7.824209933922095630e-04,7.244766220433775938e-01
7.120000000000000000e+09,-8.713226563856737907e-04,5.204382960273567279e-04,-7.248878978466744005e-01,-1.400497938796338090e-02,1.014918317650659752e-03,7.250231747276965066e-01
7.226666666666666985e+09,-1.011481813679441805e-03,7.970994652660699266e-04,-7.254256389171808150e-01,-1.386737533972639755e-02,1.287813269434551124e-03,7.255581725108006808e-01
7.333333333333333015e+09,-1.100363294436707256e-03,1.165099450219194560e-03,-7.259426753664294241e-01,-1.365996075042714107e-02,1.602577957119301344e-03,7.260711827678277830e-01
7.440000000000000000e+09,-1.100329607399580870e-03,1.622194978296190998e-03,-7.264280015238724353e-01,-1.338393773489991723e-02,1.960163715746594381e-03,7.265512859993153993e-01
7.546666666666666985e+09,-9.693889379951969865e-04,2.152639658245145051e-03,-7.268703993841505451e-01,-1.304250305548352272e-02,2.360841462563132570e-03,7.269874031830446670e-01
7.653333333333333969e+09,-6.656134117545112498e-04,2.723922739040837791e-03,-7.272588597960005785e-01,-1.264101497090565525e-02,2.804067813404522488e-03,7.273687128350198039e-01
7.760000000000000954e+09,-1.532937112761968874e-04,3.284795666849180985e-03,-7.275830798799682864e-01,-1.218705167642908198e-02,3.288370650469314791e-03,7.276851395735550732e-01
7.866666666666666985e+09,5.894454159670642519e-04,3.765394994752278846e-03,-7.278340023820425442e-01,-1.169032813368893128e-02,3.811252466697804750e-03,7.279278802157095329e-01
7.973333333333333969e+09,1.562176303702066723e-03,4.080275446320450611e-03,-7.280043481327860277e-01,-1.116245100428621927e-02,4.369100882526495352e-03,7.280899197301565762e-01
8.080000000000000954e+09,2.733849155782592556e-03,4.135057356899598559e-03,-7.280890836283949730e-01,-1.061651093493636011e-02,4.957078832480142291e-03,7.281664809665902016e-01
8.186666666666667938e+09,4.036064615529197722e-03,3.837115244643261695e-03,-7.280857655582311239e-01,-1.006653534060873191e-02,5.568956004620665735e-03,7.281553523406109063e-01
8.293333333333334923e+09,5.359807728022070866e-03,3.110219857002510628e-03,-7.279947145384437768e-01,-9.526848140322797739e-03,6.196854560198894121e-03,7.280570480610698558e-01
8.399999999999999046e+09,6.557815249254654935e-03,1.912226336295690674e-03,-7.278189910069352564e-01,-9.011400898313287611e-03,6.830926028334645579e-03,7.278747756424200910e-01
8.506666666666666031e+09,7.454923589647352231e-03,2.610959936478907811e-04,-7.274947623152295817e-01,-8.536912950654078694e-03,7.459494409501192178e-03,7.275448495308172170e-01
8.613333333333332062e+09,7.866543558687936338e-03,-1.785631649824482182e-03,-7.272379698540375470e-01,-8.103530849581321374e-03,8.066659032684445757e-03,7.272831168187889883e-01
8.720000000000000000e+09,7.629390714045660923e-03,-4.048437156738747197e-03,-7.268497132853044551e-01,-7.732129428959217017e-03,8.636981305967328035e-03,7.268908387979831076e-01
8.826666666666666031e+09,6.634959827079607228e-03,-6.303105477807144363e-03,-7.264098177618044661e-01,-7.426492175393175493e-03,9.151602623110483350e-03,7.264477793529064975e-01
8.933333333333332062e+09,4.866579301229889340e-03,-8.265241704107046533e-03,-7.259292611588330502e-01,-7.192150407477172248e-03,9.591549120057173833e-03,7.259648884306272310e-01
9.040000000000000000e+09,2.426511663069466640e-03,-9.637843407658577138e-03,-7.254191602641580916e-01,-7.032773343597207953e-03,9.938610788312421049e-03,7.254532500301165143e-01
9.146666666666666031e+09,-4.781439460020745196e-04,-1.015959163993499989e-02,-7.248644163930525464e-01,-6.941240267444710905e-03,1.017083693327818297e-02,7.248976499957018316e-01
9.253333333333333969e+09,-3.447811142817459960e-03,-9.698315838231549163e-03,-7.243538472590146382e-01,-6.945749016639011543e-03,1.029294572873233268e-02,7.243871475035555951e-01
9.360000000000000000e+09,-6.158422214911909651e-03,-8.229325316047381850e-03,-7.238195587236576634e-01,-7.018355185333922247e-03,1.027851931624681331e-02,7.238535838831069436e-01
9.466666666666666031e+09,-8.217350275675995921e-03,-5.922165589999190197e-03,-7.232975570822053335e-01,-7.166829412118798717e-03,1.012901233233146070e-02,7.233330626515758199e-01
9.573333333333333969e+09,-9.348632673282109701e-03,-3.085733623917441375e-03,-7.227975215848005952e-01,-7.388909758295032597e-03,9.844728785382179936e-03,7.228352877361110540e-01
9.680000000000000000e+09,-9.430148163241646939e-03,-1.178897701744505643e-04,-7.223289382560136307e-01,-7.681513520043389484e-03,9.430885026263526039e-03,7.223697811315328288e-01
9.786666666666667938e+09,-8.517303104164234903e-03,2.573961379250300913e-03,-7.219011857961589174e-01,-8.040736681452255452e-03,8.897737316311256014e-03,7.219459643908821000e-01
9.893333333333333969e+09,-6.825439335896458203e-03,4.652797362181567906e-03,-7.215236432829835733e-01,-8.461803040430794509e-03,8.260456732017088660e-03,7.215732602633256887e-01
1.000000000000000000e+10,-4.677701542675329408e-03,5.911749793094491119e-03,-7.212058244272790963e-01,-8.938930523775317702e-03,7.538546102432478434e-03,7.212612187458440349e-01
1.010666666666666794e+10,-2.434208249930697870e-03,6.300867079080518969e-03,-7.209575159792515064e-01,-9.465062003300351093e-03,6.754723958258497529e-03,7.210196441468837980e-01
1.021333333333333397e+10,-4.210883340989293126e-04,5.918460787614742910e-03,-7.207888551142846989e-01,-1.003140507583734006e-02,5.933421734517742123e-03,7.208586565650417777e-01
1.031999999999999809e+10,1.125041847698288536e-03,4.973567555789129048e-03,-7.207102281408369615e-01,-1.062674538046805978e-02,5.099224783344094743e-03,7.207885686275820047e-01
1.042666666666666603e+10,2.087677309539954888e-03,3.731300052486848963e-03,-7.207318166650185098e-01,-1.123655166833816173e-02,4.275628214713756391e-03,7.208194029343639730e-01
1.053333333333333206e+10,2.470597696618031646e-03,2.458409925268705779e-03,-7.208625713624042808e-01,-1.184199440788356872e-02,3.485345368710826564e-03,7.209598321839947310e-01
1.064000000000000000e+10,2.388653962154023251e-03,1.352793389987112837e-03,-7.211083949595201714e-01,-1.241917070093714361e-02,2.745126173221722633e-03,7.212153305927393454e-01
1.074666666666666603e+10,2.001247318236382827e-03,5.515361348006416094e-04,-7.214694387135288656e-01,-1.293906174255281434e-02,2.075857157113452853e-03,7.215854560039246524e-01
1.085333333333333206e+10,1.490251887131351614e-03,8.127664934324109556e-05,-7.219367612453496674e-01,-1.336896148347871578e-02,1.492466609618794265e-03,7.220605351136230032e-01
1.096000000000000000e+10,1.160226548942271075e-03,-1.221172643244046322e-04,-7.224892129787349182e-01,-1.367609388543707810e-02,1.166635449108490265e-03,7.226186396811218327e-01
1.106666666666666603e+10,6.417888476698864475e-04,-1.163353107419806123e-04,-7.232042602200327019e-01,-1.372798567715626666e-02,6.522475216655667599e-04,7.233345419590834213e-01
1.117333333333333397e+10,3.842763891620970974e-04,-1.604781213107977014e-05,-7.236995774061975029e-01,-1.382749448679316921e-02,3.846113304904756787e-04,7.238316640916526712e-01
1.128000000000000000e+10,2.518371419902727107e-04,8.924222283049018135e-05,-7.242612565949608783e-01,-1.366271800296073140e-02,2.671818115470355891e-04,7.243901142807929183e-01
1.138666666666666603e+10,1.873210211593334044e-04,1.753971152591991996e-04,-7.247322775287163843e-01,-1.336381833332218189e-02,2.566190036014952725e-04,7.248554792042386508e-01
1.149333333333333397e+10,1.555347556389329142e-04,2.391504986039307522e-04,-7.250824915702431817e-01,-1.297002542488863951e-02,2.852788481366455250e-04,7.251984839623109025e-01
1.160000000000000000e+10,1.395071269120760947e-04,2.917742741795782539e-04,-7.253010876684189423e-01,-1.252557392084358359e-02,3.234106762806104461e-04,7.254092346910384626e-01
1.170666666666666794e+10,1.389237685836772771e-04,3.437052584166143637e-04,-7.253947700895208017e-01,-1.206962495527281326e-02,3.707197299048471065e-04,7.254951745668538621e-01
1.181333333333333397e+10,1.622474379643004802e-04,3.960970424091129365e-04,-7.253810058067725608e-01,-1.162973765693794785e-02,4.280386642947412281e-04,7.254742272356848876e-01
1.192000000000000000e+10,2.177693694621848398e-04,4.384885525051566502e-04,-7.252797839015312498e-01,-1.122065737195549959e-02,4.895872843058989054e-04,7.253665749730343615e-01
1.202666666666666794e+10,3.049709155147458306e-04,4.511188532136808861e-04,-7.251072157791882411e-01,-1.084767880146392943e-02,5.445323489332188228e-04,7.251883524370934531e-01
1.213333333333333397e+10,4.100275095821766767e-04,4.114453808259635665e-04,-7.249525289207967571e-01,-1.054228522160060959e-02,5.808699166054171348e-04,7.250291780103420569e-01
1.224000000000000191e+10,4.934763014597914454e-04,3.142345729943893905e-04,-7.245814043451723752e-01,-1.021723080298006688e-02,5.850318170556207146e-04,7.246534367048178549e-01
1.234666666666666603e+10,5.257009049891589545e-04,1.698135013643903475e-04,-7.242358473427604748e-01,-9.969054229274876625e-03,5.524473429676845983e-04,7.243044557494537905e-01
1.245333333333333206e+10,4.822683618861828021e-04,1.781361315436624272e-05,-7.238419103024444912e-01,-9.777116378232164964e-03,4.825972416933146957e-04,7.239079382870211576e-01
1.256000000000000000e+10,3.708465405723726516e-04,-9.574201149497140319e-05,-7.234093699691616086e-01,-9.650790322188363898e-03,3.830061219087753095e-04,7.234737412740163132e-01
1.266666666666666603e+10,2.269363272823389629e-04,-1.401281654350978556e-04,-7.229513399080043090e-01,-9.596812684884787475e-03,2.667133281045456681e-04,7.230150335148554097e-01
1.277333333333333206e+10,9.568131476313178579e-05,-1.144778837222079149e-04,-7.224823505117586864e-01,-9.618264770104670638e-03,1.491981898560329576e-04,7.225463707044577077e-01
1.288000000000000000e+10,9.514936131187274790e-06,-4.490942713583666920e-05,-7.220168976828306162e-01,-9.715041623261986073e-03,4.590632478482236533e-05,7.220822547142955461e-01
1.298666666666666603e+10,-2.463771042666770415e-05,3.232302425099884162e-05,-7.215692110972808937e-01,-9.884647131083836372e-03,4.064227690224785701e-05,7.216369119248671193e-01
1.309333333333333397e+10,-2.258132793220735219e-05,9.006976651001571857e-05,-7.211538109504993521e-01,-1.012208964597264421e-02,9.285730563800910541e-05,7.212248441001112287e-01
1.320000000000000000e+10,-8.634231357644428162e-06,1.204807742560267628e-04,-7.207855100950207872e-01,-1.041843197900299035e-02,1.207897632933727198e-04,7.208608016030837451e-01
1.330666666666666603e+10,-6.966927206624156516e-07,1.318620140982328950e-04,-7.204774112616730841e-01,-1.075900664020218098e-02,1.318638545727736236e-04,7.205577397837080733e-01
1.341333333333333397e+10,-4.169310861382086772e-06,1.376412231770354517e-04,-7.202369116967225482e-01,-1.112364686188667753e-02,1.377043553077727546e-04,7.203228057544343033e-01
1.352000000000000000e+10,-1.542645071818127075e-05,1.475329378712744537e-04,-7.200623305470962299e-01,-1.149054446578116548e-02,1.483372614641709111e-04,7.201540060883059313e-01
1.362666666666666794e+10,-2.762333529336859347e-05,1.654159103298154904e-04,-7.199434325212855645e-01,-1.184194161183839411e-02,1.677065056668089590e-04,7.200408166289388179e-01
1.373333333333333397e+10,-3.386441760476364217e-05,1.901989293026445319e-04,-7.198658174444440006e-01,-1.216756122614848397e-02,1.931901433499706321e-04,7.199686414498548404e-01
1.384000000000000000e+10,-2.950950534961208966e-05,2.163969785160206724e-04,-7.198156152202107583e-01,-1.246391243917886749e-02,2.183997784267234510e-04,7.199235160960795188e-01
