# Frequency, Real(S21), Imag(S21), Real(S11), Imag(S11), Amp(S21), Amp(S11)
2.000000000000000000e+09,3.796761780324413435e-05,5.395053582871354937e-05,-7.197403596261234826e-01,-3.178374643585132973e-03,6.597120824919402147e-05,7.197473774458067464e-01
2.106666666666666746e+09,4.276185352946624077e-05,5.699598064999497051e-05,-7.197798541013147311e-01,-3.356139101938593154e-03,7.125389763044633539e-05,7.197876784439849462e-01
2.213333333333333492e+09,3.373303728572701351e-05,6.424372902890087482e-05,-7.198606395561626403e-01,-3.536669348083238112e-03,7.256152233835153910e-05,7.198693273173161211e-01
2.320000000000000000e+09,3.437928342185905188e-05,6.809923168523115337e-05,-7.199192966305104635e-01,-3.710483887300704796e-03,7.628525732223299884e-05,7.199288585350963610e-01
2.426666666666666508e+09,1.875362908627430924e-05,7.022104192294350081e-05,-7.199972107414034372e-01,-3.872128159295623855e-03,7.268213902087184721e-05,7.200076227734557577e-01
2.533333333333333492e+09,3.891932713074735766e-06,7.157245277858266465e-05,-7.200437013800323749e-01,-4.037976486122145554e-03,7.167819150191741934e-05,7.200550236969114337e-01
2.640000000000000477e+09,9.525667357656930146e-06,8.610397092410965105e-05,-7.189165603802865068e-01,-4.193982707015460679e-03,8.662927996646774720e-05,7.189287936089143738e-01
2.746666666666666985e+09,1.073798997627761293e-05,8.078111348617828414e-05,-7.187764714666480259e-01,-4.335463136673043880e-03,8.149167273284708632e-05,7.187895465118107063e-01
2.853333333333333015e+09,1.207697335129595686e-05,8.415665102164953813e-05,-7.188007631875844572e-01,-4.514948356261614358e-03,8.501879319602001983e-05,7.188149427479325615e-01
2.960000000000000000e+09,1.615433878769674712e-05,8.733351556929720098e-05,-7.187979436265797828e-01,-4.699164638699105355e-03,8.881500775972695242e-05,7.188133039323224560e-01
3.066666666666666985e+09,-9.415583268040342041e-07,9.084036590941541554e-05,-7.188111271123035495e-01,-4.880273369663550714e-03,9.084524539368725156e-05,7.188276939076727601e-01
3.173333333333333015e+09,2.066858927849359157e-06,9.425124891347821075e-05,-7.188601452895174715e-01,-5.062774310954974363e-03,9.427390851968564067e-05,7.188779730728922512e-01
3.280000000000000000e+09,-1.312971134687919364e-06,9.760319051548178859e-05,-7.188153668195069734e-01,-5.253309892918784328e-03,9.761202124739533608e-05,7.188345629146482008e-01
3.386666666666666508e+09,-6.246720777884707419e-07,1.013416722746901446e-04,-7.188350131172154267e-01,-5.443179142949938591e-03,1.013435975019412298e-04,7.188556213054256849e-01
3.493333333333333492e+09,-1.122167173868040276e-06,1.063108954479314108e-04,-7.188735805803759815e-01,-5.634686717987493106e-03,1.063168178140556962e-04,7.188956631882406079e-01
3.600000000000000000e+09,-8.627384372615457775e-07,1.131426142180548848e-04,-7.188764896620191136e-01,-5.831441828723328384e-03,1.131459034596777859e-04,7.189001412592633811e-01
3.706666666666666985e+09,1.090254473888000253e-05,1.212925369056312046e-04,-7.188807910288074199e-01,-6.031879428662424540e-03,1.217815461832669812e-04,7.189060962877180661e-01
3.813333333333333969e+09,-1.328926072715729097e-06,1.306153026444427053e-04,-7.188746592070306418e-01,-6.237224830345220079e-03,1.306220629503534775e-04,7.189017169430107490e-01
3.920000000000000000e+09,-8.372883967983038368e-07,1.387059568419929617e-04,-7.188862821673538406e-01,-6.446054015600388709e-03,1.387084839341567728e-04,7.189151815762221398e-01
4.026666666666666985e+09,-2.628504994171910018e-07,1.444498821517794661e-04,-7.189024318025669658e-01,-6.658801723731662923e-03,1.444501213016037046e-04,7.189332695682126850e-01
4.133333333333333015e+09,4.843650904432664948e-07,1.471588873740181137e-04,-7.189106542898339169e-01,-6.877602222305237607e-03,1.471596845019035413e-04,7.189435515141402444e-01
4.240000000000000000e+09,1.235087813562488307e-06,1.471123535857170447e-04,-7.189200694027692018e-01,-7.102095628351946972e-03,1.471175381096225562e-04,7.189551487766094873e-01
4.346666666666666985e+09,1.813415738952877754e-06,1.453996673501896169e-04,-7.189309252752541513e-01,-7.332888323456811762e-03,1.454109753154419940e-04,7.189683209768684691e-01
4.453333333333333015e+09,2.096498572301554391e-06,1.434843298035507451e-04,-7.189435425519202782e-01,-7.570722191185525959e-03,1.434996453146758846e-04,7.189834025981411969e-01
4.560000000000000000e+09,2.079420159545969395e-06,1.427317024591481950e-04,-7.189510151132519900e-01,-7.817743264692842559e-03,1.427468489147369461e-04,7.189935182198293750e-01
4.666666666666666985e+09,2.313347961716111473e-06,1.438640418517194949e-04,-7.189899689624457135e-01,-8.072330791158814634e-03,1.438826400810927183e-04,7.190352828568432608e-01
4.773333333333333015e+09,1.340231297140942707e-06,1.471644940823554622e-04,-7.189970074404166134e-01,-8.336737179064634962e-03,1.471705967183848708e-04,7.190453378578205434e-01
4.880000000000000000e+09,9.239955042296845889e-07,1.521804902076176859e-04,-7.190228083626382105e-01,-8.614301077154494155e-03,1.521832952972258974e-04,7.190744086175944183e-01
4.986666666666666985e+09,5.988130063564429507e-07,1.581574875415826776e-04,-7.190550209105429635e-01,-8.906197088373550910e-03,1.581586211449836324e-04,7.191101747599170091e-01
5.093333333333333969e+09,3.741455734902740852e-07,1.642401126290400594e-04,-7.190963335205345919e-01,-9.214936612573009639e-03,1.642405387878094112e-04,7.191553739905235387e-01
5.200000000000000000e+09,1.800322539921415214e-07,1.696830460002856202e-04,-7.191510592033439897e-01,-9.543129229987627055e-03,1.696831415065961355e-04,7.192143750432076210e-01
5.306666666666666985e+09,-1.159452159108622095e-07,1.739550445037367932e-04,-7.192257889668949300e-01,-9.892397946088269181e-03,1.739550831438683065e-04,7.192938169150185912e-01
5.413333333333333015e+09,-6.880233947943152769e-07,1.767297190870344191e-04,-7.193288378352499235e-01,-1.026148907889622500e-02,1.767310583479142949e-04,7.194020260602047578e-01
5.520000000000000000e+09,-1.757750854005688833e-06,1.777819245175751915e-04,-7.194679659017166884e-01,-1.064554007186712184e-02,1.777906138502186658e-04,7.195467194575870806e-01
5.626666666666666985e+09,-3.664402736182860638e-06,1.768405619304175291e-04,-7.196487081364849603e-01,-1.103743293671650624e-02,1.768785238271700859e-04,7.197333450996585835e-01
5.733333333333333969e+09,-7.022190126520025128e-06,1.734758074525938299e-04,-7.198743435737643415e-01,-1.142925126619063515e-02,1.736178761691963739e-04,7.199650674305412279e-01
5.840000000000000954e+09,-1.295074215722689882e-05,1.671007170726665134e-04,-7.201463719310601252e-01,-1.181294660651779384e-02,1.676018238821472891e-04,7.202432524591931839e-01
5.946666666666666985e+09,-2.333122182871549583e-05,1.571482905300018512e-04,-7.204648796653236875e-01,-1.218056481701531614e-02,1.588708001129301496e-04,7.205678378823403563e-01
6.053333333333333969e+09,-4.101132084890869787e-05,1.434557036641440303e-04,-7.208287505760534453e-01,-1.252432656414497261e-02,1.492027726000654387e-04,7.209375468186683955e-01
6.160000000000000000e+09,-6.985973408298799640e-05,1.268482832935518276e-04,-7.212357750033852044e-01,-1.283667094679574738e-02,1.448132225339487987e-04,7.213500005307617036e-01
6.266666666666666985e+09,-1.145603360566916848e-04,1.098670733509441171e-04,-7.216826969614694720e-01,-1.311029842838309575e-02,1.587288392325851615e-04,7.218017698914719338e-01
6.373333333333333015e+09,-1.800463885861205873e-04,9.752815841774386705e-05,-7.221652215630469662e-01,-1.333822814755437035e-02,2.047643614676657425e-04,7.222883880870029083e-01
6.480000000000000000e+09,-2.705115377112148273e-04,9.794905130103580054e-05,-7.226779968780491226e-01,-1.351387953999114155e-02,2.876986421338462814e-04,7.228043387472787851e-01
6.586666666666666985e+09,-3.879997339780006478e-04,1.226351955183162257e-04,-7.232145824087142794e-01,-1.363118734890392605e-02,4.069191378478221851e-04,7.233430316780219416e-01
6.693333333333333015e+09,-5.306659137645003063e-04,1.862061519742802323e-04,-7.237674179842450428e-01,-1.368475829147071561e-02,5.623869158013732180e-04,7.238967798968833911e-01
6.799999999999999046e+09,-6.909038002800287504e-04,3.053593080718469514e-04,-7.243278105567583225e-01,-1.367007524985560871e-02,7.553756471236698329e-04,7.244567951943606809e-01
6.906666666666666031e+09,-8.536409451602891378e-04,4.969338909474715817e-04,-7.248859605091831915e-01,-1.358374990854954376e-02,9.877480221323377274e-04,7.250132233310638830e-01
7.013333333333333015e+09,-9.951865531909694952e-04,7.750453028291998982e-04,-7.254310520605254942e-01,-1.342381677888382537e-02,1.261384753788362834e-03,7.255552426594089610e-01
7.120000000000000000e+09,-1.083066213648904274e-03,1.147407955299536986e-03,-7.259514324862768042e-01,-1.319005110359118549e-02,1.577839484558691717e-03,7.260712497937049648e-01
7.226666666666666985e+09,-1.077273102713963322e-03,1.611143435317982393e-03,-7.264349003806216398e-01,-1.288428110752050382e-02,1.938117774284937216e-03,7.265491512558950316e-01
7.333333333333333015e+09,-9.332944917380051183e-04,2.148564188724332111e-03,-7.268691128839278592e-01,-1.251065389999172356e-02,2.342512898871028544e-03,7.269767697290426822e-01
7.440000000000000000e+09,-6.071266655785180141e-04,2.723612682482138767e-03,-7.272421055222104691e-01,-1.207580684692898150e-02,2.790460326224696811e-03,7.273423575974262700e-01
7.546666666666666985e+09,-6.226396343052146079e-05,3.279799575902678753e-03,-7.275428975328955827e-01,-1.158889595311853038e-02,3.280390534560400067e-03,7.276351903666929966e-01
7.653333333333333969e+09,7.216668126658826524e-04,3.740594837668479149e-03,-7.277621336812185593e-01,-1.106144213254502996e-02,3.809573824996099339e-03,7.278461916657196218e-01
7.760000000000000954e+09,1.739362195259268763e-03,4.013245976561842163e-03,-7.278926956093875189e-01,-1.050697636853874066e-02,4.373959775156483452e-03,7.279685246450628977e-01
7.866666666666666985e+09,2.950621853763608915e-03,3.996871768491403257e-03,-7.279302073311386678e-01,-9.940493353282751909e-03,4.968013009007826025e-03,7.279980770257989953e-01
7.973333333333333969e+09,4.273250909715470627e-03,3.595326439795983736e-03,-7.278733647762696268e-01,-9.377755513961756606e-03,5.584536287470980367e-03,7.279337727082101361e-01
8.080000000000000954e+09,5.580435934657815462e-03,2.734642000920814008e-03,-7.277240397260303917e-01,-8.834517770446874765e-03,6.214461528887313402e-03,7.277776629571763856e-01
8.186666666666667938e+09,6.705310515971958651e-03,1.383733872226812316e-03,-7.274871410660656013e-01,-8.325760729991367459e-03,6.846598319220425014e-03,7.275347817858680566e-01
8.293333333333334923e+09,7.424974367848830373e-03,-4.431930159744547609e-04,-7.271744961281660924e-01,-7.788651713389764530e-03,7.438189592408940044e-03,7.272162064439741114e-01
8.399999999999999046e+09,7.637752670179933506e-03,-2.576649740089599280e-03,-7.267831183931856565e-01,-7.463890367828024050e-03,8.060669310543914709e-03,7.268214435752058389e-01
8.506666666666666031e+09,7.096091042415583749e-03,-4.872612297576657883e-03,-7.263370131030905119e-01,-7.131724525312852121e-03,8.607953222732216136e-03,7.263720245839757617e-01
8.613333333333332062e+09,5.751663852113886137e-03,-7.037501074624112271e-03,-7.258441571335175757e-01,-6.875563184626969429e-03,9.088897537273103039e-03,7.258767208100644908e-01
8.720000000000000000e+09,3.869834827501035524e-03,-8.750515468269173813e-03,-7.253171805087857971e-01,-6.700226433583260539e-03,9.568027098234935593e-03,7.253481270227942757e-01
8.826666666666666031e+09,7.508374269791334406e-04,-9.704909708480544475e-03,-7.247687271077921656e-01,-6.608525892289199635e-03,9.733911304892426883e-03,7.247988551370085908e-01
8.933333333333332062e+09,-2.036592689531474716e-03,-9.722191734860172532e-03,-7.242111972777516282e-01,-6.601521130859782163e-03,9.933213070927074742e-03,7.242412846170229734e-01
9.040000000000000000e+09,-4.902928925105696015e-03,-8.672470005130543391e-03,-7.236566107811139847e-01,-6.678764089293044541e-03,9.962451908768597472e-03,7.236874299149937961e-01
9.146666666666666031e+09,-7.245584446918119058e-03,-6.675705367205750709e-03,-7.231165531816392544e-01,-6.838501012996892059e-03,9.852082831927542333e-03,7.231488882528959161e-01
9.253333333333333969e+09,-8.727957480118822900e-03,-4.005573910226357080e-03,-7.226021738332798483e-01,-7.077828609920044575e-03,9.603221549305637761e-03,7.226368363752383450e-01
9.360000000000000000e+09,-9.161801381298240177e-03,-1.057182067682307285e-03,-7.221242249117619805e-01,-7.392813135264056715e-03,9.222593912484023521e-03,7.221620662223029452e-01
9.466666666666666031e+09,-8.547015213217075760e-03,1.735957877202446960e-03,-7.216931524250002061e-01,-7.778569889398435043e-03,8.721526174150104338e-03,7.217350707889002015e-01
9.573333333333333969e+09,-7.064855804564575646e-03,3.992663696841604846e-03,-7.213192546272237937e-01,-8.229272347814524727e-03,8.115020082252824909e-03,7.213661955063794817e-01
9.680000000000000000e+09,-5.029027879893366651e-03,5.457290213066608685e-03,-7.210129025884719489e-01,-8.738030626144980412e-03,7.421127804207211694e-03,7.210658491970596273e-01
9.786666666666667938e+09,-2.810506449114289103e-03,6.026348867307667473e-03,-7.207799318515845099e-01,-9.166979962616422783e-03,6.649498264607143702e-03,7.208382229610259539e-01
9.893333333333333969e+09,-7.626368958746814267e-04,5.806264427247539647e-03,-7.206460049910645704e-01,-9.894586530301015259e-03,5.856135383857648084e-03,7.207139289289384854e-01
1.000000000000000000e+10,8.510046653982113966e-04,4.959780049069371401e-03,-7.206080599770808837e-01,-1.051890014165881085e-02,5.032258645546361549e-03,7.206848294255417953e-01
1.010666666666666794e+10,1.906017487126725109e-03,3.731731855450298556e-03,-7.205950756764970544e-01,-1.117896917217223347e-02,4.190313270176276514e-03,7.206817830644596246e-01
1.021333333333333397e+10,2.335498164324691962e-03,2.504821978579022460e-03,-7.208776519529727089e-01,-1.177174761871863269e-02,3.424716750322066156e-03,7.209737603597166089e-01
1.031999999999999809e+10,2.295472684611560808e-03,1.398065552161833385e-03,-7.211998652821283162e-01,-1.234860337235542740e-02,2.687709458617016690e-03,7.213055758055719746e-01
1.042666666666666603e+10,1.936111345639640732e-03,5.855319813602510122e-04,-7.216460434059578377e-01,-1.284776291067001551e-02,2.022714721336205286e-03,7.217604013627253456e-01
1.053333333333333206e+10,1.442787703055643063e-03,1.054303304048617804e-04,-7.222011983181579886e-01,-1.323070288826458211e-02,1.446634684589670787e-03,7.223223811783080484e-01
1.064000000000000000e+10,9.687075781407906332e-04,-8.921905730713882571e-05,-7.228345487463807562e-01,-1.346092738142141802e-02,9.728074897605232729e-04,7.229598753923704990e-01
1.074666666666666603e+10,6.039445613809605196e-04,-9.421324211910850864e-05,-7.234991947238983423e-01,-1.351234735159178267e-02,6.112488594772464258e-04,7.236253646031759468e-01
1.085333333333333206e+10,3.710461333628668496e-04,-1.058060345345805816e-05,-7.241372553392635414e-01,-1.337814424990820504e-02,3.711969588412244786e-04,7.242608227108885410e-01
1.096000000000000000e+10,2.450092825971016694e-04,8.864627906537216094e-05,-7.246905994435154375e-01,-1.307592858784881185e-02,2.605527035954190098e-04,7.248085573654854397e-01
1.106666666666666603e+10,1.839397336598521781e-04,1.698307576542564641e-04,-7.251137235052498298e-01,-1.264546231857196362e-02,2.503523753917189214e-04,7.252239790112420259e-01
1.117333333333333397e+10,1.536807524244547789e-04,2.300809506191773082e-04,-7.253830312556137638e-01,-1.213881646928346644e-02,2.766857739450492002e-04,7.254845917721876036e-01
1.128000000000000000e+10,1.379731181764547079e-04,2.803551979720387546e-04,-7.254982675881430643e-01,-1.160727121999440524e-02,3.124669876471352584e-04,7.255911142086646226e-01
1.138666666666666603e+10,1.369306939107253806e-04,3.311647042793831874e-04,-7.254762985427375410e-01,-1.109088511057320682e-02,3.583574699867774264e-04,7.255610708133445330e-01
1.149333333333333397e+10,1.603798494351624986e-04,3.839083393938112570e-04,-7.253412341650272710e-01,-1.061444495084387131e-02,4.160616650942011350e-04,7.254188944476559486e-01
1.160000000000000000e+10,2.187389463268791688e-04,4.266082094973729869e-04,-7.251156822733871854e-01,-1.018976988245855891e-02,4.794176582592132993e-04,7.251872751841811349e-01
1.170666666666666794e+10,3.114777354798783883e-04,4.354812352280016687e-04,-7.248162475652993875e-01,-9.821656108275674674e-03,5.354085224717469857e-04,7.248827889137322567e-01
1.181333333333333397e+10,4.174998137940141591e-04,3.861260168509663511e-04,-7.244538911757139044e-01,-9.513883256180561895e-03,5.686821567512289005e-04,7.245163589693784933e-01
1.192000000000000000e+10,4.971444596155356627e-04,2.719755186149988568e-04,-7.240374749294563594e-01,-9.272419440698828619e-03,5.666774183363235042e-04,7.240968463296242330e-01
1.202666666666666794e+10,5.105402427020837731e-04,1.169939624296750683e-04,-7.235775176371249673e-01,-9.104966827693981857e-03,5.237737361335510896e-04,7.236348004697101821e-01
1.213333333333333397e+10,4.420179308596151988e-04,-3.089215255545847477e-05,-7.230877481450319610e-01,-9.018347081708098095e-03,4.430961253395534344e-04,7.231439843499628539e-01
1.224000000000000191e+10,3.117106127533485855e-04,-1.241102226909786700e-04,-7.225841778159892703e-01,-9.016224312638218899e-03,3.355098411067436101e-04,7.226404267205545073e-01
1.234666666666666603e+10,1.648962864536796663e-04,-1.404592306460330392e-04,-7.220832940961339208e-01,-9.098584099160473074e-03,2.166092813336711344e-04,7.221406150088315323e-01
1.245333333333333206e+10,4.721368393148221861e-05,-9.187612684562293953e-05,-7.216011241710068580e-01,-9.262491775295788807e-03,1.032974086535325326e-04,7.216605685214817489e-01
1.256000000000000000e+10,-1.729671888232116230e-05,-1.327480368866478468e-05,-7.211536587465208203e-01,-9.502567351455142725e-03,2.180359825961379275e-05,7.212162632038758847e-01
1.266666666666666603e+10,-3.283701886442526459e-05,5.902504573303194292e-05,-7.207575696085720685e-01,-9.809840708059644129e-03,6.754425091515288827e-05,7.208243247302168477e-01
1.277333333333333206e+10,-2.197804339103186862e-05,1.049871472479861731e-04,-7.204291077948752342e-01,-1.016909097002454548e-02,1.072629268599752892e-04,7.205008742321390436e-01
1.288000000000000000e+10,-8.509649713109412980e-06,1.249611067573083278e-04,-7.201796066305705679e-01,-1.055713786381488710e-02,1.252505183232837163e-04,7.202569811993765336e-01
1.298666666666666603e+10,-5.531987907649808106e-06,1.313353430805665623e-04,-7.200093136996285059e-01,-1.094583847738712055e-02,1.314517981326254325e-04,7.200925101639255033e-01
1.309333333333333397e+10,-1.412348829487681765e-05,1.376154077770793587e-04,-7.199050478103505846e-01,-1.131025934143466312e-02,1.383382571065117832e-04,7.199938887443375624e-01
1.320000000000000000e+10,-2.773222605943431951e-05,1.523478351804183372e-04,-7.198451948573364456e-01,-1.163636469262793391e-02,1.548513456395244736e-04,7.199392401740972725e-01
1.330666666666666603e+10,-3.685609852460983784e-05,1.768978626103557552e-04,-7.198082111236082659e-01,-1.192223492533020165e-02,1.806965018880223180e-04,7.199069387681881205e-01
1.341333333333333397e+10,-3.418674604825454034e-05,2.052059175838501269e-04,-7.197780266973904384e-01,-1.217364068666123428e-02,2.080341371429163884e-04,7.198809660242151409e-01
1.352000000000000000e+10,-1.966526157447785294e-05,2.275445902624997549e-04,-7.197444952870087898e-01,-1.239919323892045219e-02,2.283927824396417554e-04,7.198512891486178455e-01
1.362666666666666794e+10,-7.135502201361847770e-07,2.377925069378213812e-04,-7.197017276716384249e-01,-1.260820974640526962e-02,2.377935775198533152e-04,7.198121586681837103e-01
1.373333333333333397e+10,1.607863822398054561e-05,2.366761026198458708e-04,-7.196846438447754846e-01,-1.269663670324789641e-02,2.372216266668312448e-04,7.197966318131501229e-01
1.384000000000000000e+10,2.158595769929914118e-05,2.337492448493197483e-04,-7.195834906152119848e-01,-1.301616544285508908e-02,2.347438242796243862e-04,7.197012022560532740e-01
