# Frequency, Real(S21), Imag(S21), Real(S11), Imag(S11), Amp(S21), Amp(S11)
2.000000000000000000e+09,3.769480894406416842e-05,5.363376419832135630e-05,-7.197525002296517593e-01,-3.181663371293299864e-03,6.555516214159368138e-05,7.197595324611152368e-01
2.106666666666666746e+09,3.734060265957787975e-05,6.035367852210086060e-05,-7.198007336069389694e-01,-3.354374172866338676e-03,7.097103013293222322e-05,7.198085494957524588e-01
2.213333333333333492e+09,4.380168196709481831e-05,6.727060682327359420e-05,-7.198024637266318138e-01,-3.547744686586000538e-03,8.027404241420749251e-05,7.198112066919286622e-01
2.320000000000000000e+09,4.414249393442274636e-05,7.069918755941276604e-05,-7.198723563351854260e-01,-3.711034469211949016e-03,8.334827468107287906e-05,7.198819217013328053e-01
2.426666666666666508e+09,1.864625857097488405e-05,6.987381495857051682e-05,-7.199845257539411181e-01,-3.863806728606645948e-03,7.231896691435937830e-05,7.199948932649200550e-01
2.533333333333333492e+09,1.502728016786200748e-05,7.405969396232651763e-05,-7.200748111851150712e-01,-4.027298801107048222e-03,7.556889187381856461e-05,7.200860732154958921e-01
2.640000000000000477e+09,1.001176943715366490e-05,8.625740165195111672e-05,-7.189378874603186143e-01,-4.162367050210213741e-03,8.683648350208996163e-05,7.189499365918091689e-01
2.746666666666666985e+09,8.566143003095004336e-06,8.083825660670161369e-05,-7.187276595783812505e-01,-4.327954141495344263e-03,8.129085149732663042e-05,7.187406902562761823e-01
2.853333333333333015e+09,1.378764061336836422e-05,8.372662130412116552e-05,-7.187809891034233623e-01,-4.501656988805566653e-03,8.485426417503790831e-05,7.187950856900320318e-01
2.960000000000000000e+09,1.634135775629600796e-05,8.713369530893643822e-05,-7.187954448457395396e-01,-4.679112592342778154e-03,8.865281062385912546e-05,7.188106743960027689e-01
3.066666666666666985e+09,2.564760612208515207e-06,9.025992528397451216e-05,-7.188141965541540168e-01,-4.858065614328299989e-03,9.029635712068675936e-05,7.188306128493047176e-01
3.173333333333333015e+09,2.728291370817101795e-06,9.373230029259869240e-05,-7.188563318353013987e-01,-5.038511027175082355e-03,9.377199844274393577e-05,7.188739892450386471e-01
3.280000000000000000e+09,-1.053297717129917509e-06,9.700796326529763326e-05,-7.188494868066321875e-01,-5.224157795797982305e-03,9.701368137001217102e-05,7.188684695456004636e-01
3.386666666666666508e+09,-4.848256698765434099e-07,1.006757083783291066e-04,-7.188496077942433393e-01,-5.411995024446582953e-03,1.006768757630496677e-04,7.188699801188543903e-01
3.493333333333333492e+09,-4.093488199755693501e-07,1.056072295321337719e-04,-7.188686942926523216e-01,-5.601100874474121069e-03,1.056080228766224130e-04,7.188905145882986680e-01
3.600000000000000000e+09,1.185325443618358843e-05,1.127443057517949659e-04,-7.188472745965012178e-01,-5.795264889160354344e-03,1.133656831681577966e-04,7.188706345998235880e-01
3.706666666666666985e+09,-4.424019117629944026e-07,1.207528917011445487e-04,-7.188770841905856024e-01,-5.990096817856178056e-03,1.207537021115289648e-04,7.189020402212290550e-01
3.813333333333333969e+09,3.227550553625383475e-05,1.287129418677294902e-04,-7.188171938301022301e-01,-6.194055969470507739e-03,1.326978886865433881e-04,7.188438804602399479e-01
3.920000000000000000e+09,-2.870593527882205157e-06,1.376558084729206726e-04,-7.189025334105059173e-01,-6.393446093572804564e-03,1.376857360569196185e-04,7.189309623997250931e-01
4.026666666666666985e+09,-2.659172563811814364e-07,1.434172849454099180e-04,-7.188972351461699883e-01,-6.600535192515045828e-03,1.434175314705288945e-04,7.189275358237681157e-01
4.133333333333333015e+09,2.489567701317008493e-05,1.468005022685066427e-04,-7.189043693868729656e-01,-6.812339839302202979e-03,1.488965486511689088e-04,7.189366455381334120e-01
4.240000000000000000e+09,1.033529554661408841e-06,1.459627038374976119e-04,-7.189124380889455601e-01,-7.028868017478632872e-03,1.459663628884867346e-04,7.189467981878764347e-01
4.346666666666666985e+09,1.533138338157356840e-06,1.442049062155684506e-04,-7.189216132057723030e-01,-7.250550086443331363e-03,1.442130558923318019e-04,7.189581743126272073e-01
4.453333333333333015e+09,1.772042320275255562e-06,1.422658875673247115e-04,-7.189321099701112550e-01,-7.477909211209900729e-03,1.422769232845000874e-04,7.189709993262921595e-01
4.560000000000000000e+09,1.726535430690122946e-06,1.414883507403920501e-04,-7.189442018042153659e-01,-7.711584471853191562e-03,1.414988845179693591e-04,7.189855588556469668e-01
4.666666666666666985e+09,1.458966671535873106e-06,1.427067256703060301e-04,-7.189582422378196780e-01,-7.952356458355689175e-03,1.427141833711304030e-04,7.190022211752451486e-01
4.773333333333333015e+09,1.573013832518984080e-06,1.460945057431054493e-04,-7.189890795312200433e-01,-8.202038988822796250e-03,1.461029738945774010e-04,7.190358613648732966e-01
4.880000000000000000e+09,7.286300547675838684e-07,1.512821484583540418e-04,-7.189942006550756881e-01,-8.459207571470983220e-03,1.512839031223486830e-04,7.190439616382078292e-01
4.986666666666666985e+09,4.709539173486292714e-07,1.575087615599207811e-04,-7.190176298840759150e-01,-8.727861079680543366e-03,1.575094656385204301e-04,7.190705999018038863e-01
5.093333333333333969e+09,3.318740764648297997e-07,1.639574949202998136e-04,-7.190462532775250271e-01,-9.008854327391173367e-03,1.639578308009189485e-04,7.191026865536930268e-01
5.200000000000000000e+09,2.647312344738427163e-07,1.699285574324550839e-04,-7.190819668922227015e-01,-9.304236806309472765e-03,1.699287636443627138e-04,7.191421583610124735e-01
5.306666666666666985e+09,1.727383032454529778e-07,1.749572377983474997e-04,-7.191277028084129830e-01,-9.616314935968242952e-03,1.749573230720821335e-04,7.191919955474009862e-01
5.413333333333333015e+09,-6.862633452587922985e-08,1.788210818828576325e-04,-7.191880095610897472e-01,-9.947217695576611451e-03,1.788210950512535580e-04,7.192567971429435492e-01
5.520000000000000000e+09,-5.942439226759026910e-07,1.814666978096946578e-04,-7.192693815659972900e-01,-1.029772937243253993e-02,1.814676707840674405e-04,7.193430937241005463e-01
5.626666666666666985e+09,-1.549934230631007413e-06,1.828889744410624823e-04,-7.193793243627524259e-01,-1.066582266070542108e-02,1.828955419583071468e-04,7.194583880209054483e-01
5.733333333333333969e+09,-3.130570039103729762e-06,1.829961236335129809e-04,-7.195244123258353053e-01,-1.104655200833311486e-02,1.830228994788949824e-04,7.196092038350478948e-01
5.840000000000000954e+09,-5.677629598668234109e-06,1.815012114851342916e-04,-7.197092370341824363e-01,-1.143331316239297978e-02,1.815899921483315755e-04,7.198000462088025575e-01
5.946666666666666985e+09,-9.842784214768201850e-06,1.778879584010951661e-04,-7.199365076623105431e-01,-1.181892267423933357e-02,1.781600576594211170e-04,7.200335144965016587e-01
6.053333333333333969e+09,-1.679943684847287508e-05,1.714942624589698762e-04,-7.202074316622416594e-01,-1.219610492225783362e-02,1.723151274112980167e-04,7.203106896310766949e-01
6.160000000000000000e+09,-2.846005938606738857e-05,1.617444845192185174e-04,-7.205220009988997365e-01,-1.255766927516807456e-02,1.642292703894351555e-04,7.206314238090668622e-01
6.266666666666666985e+09,-4.763479103810728935e-05,1.485439134223220231e-04,-7.208791623838582963e-01,-1.289657822562988165e-02,1.559947676432207832e-04,7.209945134945084932e-01
6.373333333333333015e+09,-7.804827031670350554e-05,1.328228589333600620e-04,-7.212769089255059995e-01,-1.320598465348336338e-02,1.540566271039986565e-04,7.213977941328908461e-01
6.480000000000000000e+09,-1.241232086984416568e-04,1.171822841290310030e-04,-7.217123211970892793e-01,-1.347926678911585269e-02,1.706993223515953270e-04,7.218381849146405793e-01
6.586666666666666985e+09,-2.744899904414553529e-04,1.209194644336486425e-04,-7.222185702156090903e-01,-1.370969007652253664e-02,2.999437809514820825e-04,7.223486822624326509e-01
6.693333333333333015e+09,-2.808738646710648434e-04,1.087141482760416080e-04,-7.226799231975381543e-01,-1.389239286016995083e-02,3.011791724051396412e-04,7.228134406416228952e-01
6.799999999999999046e+09,-3.972489582987760552e-04,1.345582842127233513e-04,-7.232016729501975494e-01,-1.402064033920270153e-02,4.194194400832354551e-04,7.233375685760319307e-01
6.906666666666666031e+09,-5.378574296025693223e-04,1.978178681957650431e-04,-7.237401509930742050e-01,-1.408979319604223603e-02,5.730816028771119723e-04,7.238772882414429288e-01
7.013333333333333015e+09,-6.957385312609830124e-04,3.141735275649546692e-04,-7.242876900197618983e-01,-1.409555644234837535e-02,7.633852954464063773e-04,7.244248357321704246e-01
7.120000000000000000e+09,-8.571358302994905917e-04,4.995583487229242250e-04,-7.248356421691695139e-01,-1.403457295687683334e-02,9.920888948889467103e-04,7.249715010928873271e-01
7.226666666666666985e+09,-1.000409270199061756e-03,7.676396060872082809e-04,-7.253744428016837276e-01,-1.390466872941685701e-02,1.260987419736590192e-03,7.255076995334562850e-01
7.333333333333333015e+09,-1.095785360700790361e-03,1.126564337656721197e-03,-7.258937435553182160e-01,-1.370512086469703045e-02,1.571589247738125993e-03,7.260231107001140494e-01
7.440000000000000000e+09,-1.106320382618581396e-03,1.575213194131407785e-03,-7.263826312710779387e-01,-1.343692670344525872e-02,1.924900360009056859e-03,7.265069015580846168e-01
7.546666666666666985e+09,-9.903941300766490145e-04,2.099374911218116792e-03,-7.268299424452169255e-01,-1.310304396278706013e-02,2.321261629102234093e-03,7.269480414692703896e-01
7.653333333333333969e+09,-7.059312658113278379e-04,2.668415582423459657e-03,-7.272246717914402359e-01,-1.270856557222348540e-02,2.760213881671185789e-03,7.273357071539053864e-01
7.760000000000000954e+09,-2.163601880601406704e-04,3.233152472699425163e-03,-7.275564589603595866e-01,-1.226079106373720480e-02,3.240383718435183632e-03,7.276597611332139559e-01
7.866666666666666985e+09,5.019353246728118674e-04,3.725729567931065998e-03,-7.278161213074856306e-01,-1.176916078420495865e-02,3.759388232613148154e-03,7.279112717774310903e-01
7.973333333333333969e+09,1.451239150380728270e-03,4.062305796641806771e-03,-7.279961857840749895e-01,-1.124503109346937195e-02,4.313748191193756201e-03,7.280830290842209562e-01
8.080000000000000954e+09,2.604153966897251610e-03,4.149271138739292139e-03,-7.280913632391546875e-01,-1.070128732668677168e-02,4.898782386071211421e-03,7.281700012867181604e-01
8.186666666666667938e+09,3.896665872937544409e-03,3.893450260654382315e-03,-7.280989071525681977e-01,-1.015181463678357411e-02,5.508444413580461038e-03,7.281696766119719610e-01
8.293333333333334923e+09,5.224435528012668674e-03,3.216271085152215721e-03,-7.280188077222491394e-01,-9.610870110541481007e-03,6.135073453476105193e-03,7.280822434461692305e-01
8.399999999999999046e+09,6.444447182819864131e-03,2.071098962710080007e-03,-7.278537916665642760e-01,-9.092418286550260631e-03,6.769073083184555181e-03,7.279105811249703128e-01
8.506666666666666031e+09,7.371584776793099064e-03,4.744415802390936771e-04,-7.276342539637491447e-01,-8.526252155611035999e-03,7.386836733982112858e-03,7.276842065877222598e-01
8.613333333333332062e+09,7.822592169147544669e-03,-1.554331089424842039e-03,-7.272945085929216624e-01,-8.102194211995985065e-03,7.975518376905736673e-03,7.273396371575443498e-01
8.720000000000000000e+09,7.706536594945821717e-03,-3.793140343333795822e-03,-7.268037756123466586e-01,-7.781644559835429638e-03,8.589448175142892772e-03,7.268454321493793557e-01
8.826666666666666031e+09,6.783454711106633173e-03,-6.060163391460962092e-03,-7.264236276127113978e-01,-7.467417109317916329e-03,9.096199104507244129e-03,7.264620080033750149e-01
8.933333333333332062e+09,5.120698630025575029e-03,-8.069220450863653915e-03,-7.260046240062093537e-01,-7.236772787616629725e-03,9.556875699944100341e-03,7.260406909800420916e-01
9.040000000000000000e+09,2.751102808216606983e-03,-9.526866811071156571e-03,-7.254988963455022422e-01,-7.067230481987206957e-03,9.916136238337310699e-03,7.255333171848328266e-01
9.146666666666666031e+09,-9.458364997750635939e-05,-1.016808993783774491e-02,-7.249731667117583767e-01,-6.974194277461190708e-03,1.016852983723803838e-02,7.250067115812754981e-01
9.253333333333333969e+09,-3.093457042825735123e-03,-9.825328163920319519e-03,-7.244380505619036903e-01,-6.958514510756715413e-03,1.030080336694832663e-02,7.244714694355656182e-01
9.360000000000000000e+09,-5.860498252615928619e-03,-8.474531156832465842e-03,-7.239038022242958448e-01,-7.019900857754089035e-03,1.030354881082428710e-02,7.239378384107610920e-01
9.466666666666666031e+09,-8.026706791334946994e-03,-6.280320208366400349e-03,-7.232876362765914280e-01,-7.141519125275388839e-03,1.019168503406958463e-02,7.233228919963721193e-01
9.573333333333333969e+09,-9.278354263777105135e-03,-3.466476732517884910e-03,-7.228773082483481716e-01,-7.367987795591492313e-03,9.904762429318467176e-03,7.229148566909753271e-01
9.680000000000000000e+09,-9.494550834626309943e-03,-4.911846988333261462e-04,-7.224041573480897149e-01,-7.649641654526790832e-03,9.507247654272563131e-03,7.224446577913398171e-01
9.786666666666667938e+09,-8.700353789925938108e-03,2.258408551537755514e-03,-7.219702241631610340e-01,-7.998317072848301623e-03,8.988690964514104570e-03,7.220145273152076548e-01
9.893333333333333969e+09,-7.092277053742660625e-03,4.432889393992923976e-03,-7.215848361758226970e-01,-8.409415491557676453e-03,8.363665595085664067e-03,7.216338365596492999e-01
1.000000000000000000e+10,-4.982575431463157241e-03,5.806477373566250842e-03,-7.212574389102044403e-01,-8.877361709026695274e-03,7.651224569959837012e-03,7.213120688954401949e-01
1.010666666666666794e+10,-2.730098723228899758e-03,6.308387981706463886e-03,-7.209977326320944346e-01,-9.395359319830232439e-03,6.873805202819950264e-03,7.210589457439452454e-01
1.021333333333333397e+10,-6.686145320203264403e-04,6.018696073074037735e-03,-7.208157611332185466e-01,-9.954965995551071783e-03,6.055720255466363888e-03,7.208845003508077554e-01
1.031999999999999809e+10,9.512672007112349566e-04,5.134185699525574062e-03,-7.207218449803728388e-01,-1.054544871353517432e-02,5.221567971822439237e-03,7.207989902327016640e-01
1.042666666666666603e+10,1.996235147181027632e-03,3.915426668749682863e-03,-7.207261960349425900e-01,-1.115292620796567991e-02,4.394942634574096167e-03,7.208124842245718922e-01
1.053333333333333206e+10,2.460143050880197330e-03,2.587868715009779361e-03,-7.209629396814211111e-01,-1.175699612867468595e-02,3.570625759852254482e-03,7.210587960437389032e-01
1.064000000000000000e+10,2.193525838049666978e-03,1.485268298333712210e-03,-7.210637572920837179e-01,-1.234192745088695878e-02,2.649071067417145455e-03,7.211693734854385252e-01
1.074666666666666603e+10,2.071312099293421208e-03,6.443315816676154894e-04,-7.214047244010456383e-01,-1.287243367926027386e-02,2.169215756860900721e-03,7.215195603287380965e-01
1.085333333333333206e+10,1.692071964245477154e-03,1.072304745720151914e-04,-7.218536869207694551e-01,-1.331884010878160024e-02,1.695466280072383761e-03,7.219765486655030928e-01
1.096000000000000000e+10,1.165466231512344436e-03,-1.523860647444033210e-04,-7.223928711506950595e-01,-1.372362822039788210e-02,1.175386340538238069e-03,7.225232164165220627e-01
1.106666666666666603e+10,6.750652039796167011e-04,-1.253404843335311153e-04,-7.232323606102072366e-01,-1.362791009923035659e-02,6.866026992642875566e-04,7.233607449727179617e-01
1.117333333333333397e+10,3.976260777734685371e-04,-2.533138653152398369e-05,-7.236370208099138779e-01,-1.387811295769093671e-02,3.984321483880560706e-04,7.237700877391343157e-01
1.128000000000000000e+10,2.659585653624608440e-04,7.484509015926615362e-05,-7.241648252819818943e-01,-1.371848204306568529e-02,2.762892433856356847e-04,7.242947541748795404e-01
1.138666666666666603e+10,1.940298654360185526e-04,1.647199412597842463e-04,-7.246521804768228936e-01,-1.344280539759599644e-02,2.545196411472918675e-04,7.247768564784415890e-01
1.149333333333333397e+10,1.589640744579680484e-04,2.313168015666987776e-04,-7.250235055391646144e-01,-1.306553371873416490e-02,2.806724775522636151e-04,7.251412219393229552e-01
1.160000000000000000e+10,1.410005805564962266e-04,2.848954136354475784e-04,-7.252647992791614318e-01,-1.263042116323998508e-02,3.178782163467351314e-04,7.253747697653972759e-01
1.170666666666666794e+10,1.378310740201802191e-04,3.366921047570716505e-04,-7.253801383212102882e-01,-1.217771700052789133e-02,3.638117347905414720e-04,7.254823511721310014e-01
1.181333333333333397e+10,1.571670127240808981e-04,3.894233176335560828e-04,-7.253856075933167169e-01,-1.173690303914197604e-02,4.199428415931588492e-04,7.254805542510945893e-01
1.192000000000000000e+10,2.077697943654612770e-04,4.342796693703228762e-04,-7.253011260743861266e-01,-1.132457758894205892e-02,4.814219756918695263e-04,7.253895295235108787e-01
1.202666666666666794e+10,2.908266921844798150e-04,4.526305796456318756e-04,-7.251435928354201810e-01,-1.094714039148811206e-02,5.380098572677891912e-04,7.252262199569267098e-01
1.213333333333333397e+10,3.927076926833491079e-04,4.229624071050223076e-04,-7.249235670810003640e-01,-1.060619418918869357e-02,5.771624812102345162e-04,7.250011513539964536e-01
1.224000000000000191e+10,4.833822855694289719e-04,3.333655373678065742e-04,-7.246459879639467472e-01,-1.030393136830353579e-02,5.871890798600153073e-04,7.247192414127605620e-01
1.234666666666666603e+10,5.257786450347469356e-04,1.941990207850770441e-04,-7.243137225919024091e-01,-1.004614403079797692e-02,5.604966041364186887e-04,7.243833886450095072e-01
1.245333333333333206e+10,4.944785363584381505e-04,4.051274291394518648e-05,-7.239315404836744738e-01,-9.841907451098138443e-03,4.961353698917208557e-04,7.239984381539382730e-01
1.256000000000000000e+10,3.921071493293861419e-04,-8.160561939409452883e-05,-7.235082565903144802e-01,-9.700927355496716947e-03,4.005090431836855875e-04,7.235732895470319281e-01
1.266666666666666603e+10,2.505000399428441342e-04,-1.378100161028042133e-04,-7.230563521236536006e-01,-9.630696832567479590e-03,2.859053524326217498e-04,7.231204869645484479e-01
1.277333333333333206e+10,1.146491464796735847e-04,-1.222042067310180711e-04,-7.225901354487770378e-01,-9.635115534941590676e-03,1.675657928435128196e-04,7.226543705667692885e-01
1.288000000000000000e+10,2.013749619176271352e-05,-5.737009300068193166e-05,-7.221240924771799019e-01,-9.714731668902605935e-03,6.080169671793832274e-05,7.221894356381776126e-01
1.298666666666666603e+10,-2.180522325824438290e-05,2.079712310460199676e-05,-7.216723947607783796e-01,-9.867583923299540205e-03,3.013284073514895138e-05,7.217398524206904975e-01
1.309333333333333397e+10,-2.403245345586087613e-05,8.272404899254336922e-05,-7.212493712370841026e-01,-1.008936942081247769e-02,8.614422267818565824e-05,7.213199365643505612e-01
1.320000000000000000e+10,-1.055689623504376671e-05,1.173260112612413235e-04,-7.208697627463946933e-01,-1.037227487389708394e-02,1.178000041451205028e-04,7.209443799129743313e-01
1.330666666666666603e+10,-9.919889305075432675e-07,1.309282585031824463e-04,-7.205472495554898771e-01,-1.070312840208724296e-02,1.309320163929144503e-04,7.206267381936177774e-01
1.341333333333333397e+10,-2.692157636442609749e-06,1.368585908633986644e-04,-7.202908161169077061e-01,-1.106299812981623339e-02,1.368850671397527162e-04,7.203757697965564866e-01
1.352000000000000000e+10,-1.305744263408504548e-05,1.456825333323219420e-04,-7.201010025179718221e-01,-1.143022329193369054e-02,1.462665283865913018e-04,7.201917132485569084e-01
1.362666666666666794e+10,-2.553445283985089349e-05,1.621167936764074098e-04,-7.199694350133535314e-01,-1.178592078707866100e-02,1.641153956024522960e-04,7.200658964860415789e-01
1.373333333333333397e+10,-3.321239936465687033e-05,1.858613085679476434e-04,-7.198825120511722631e-01,-1.211811404367592500e-02,1.888054276077552542e-04,7.199844997255716583e-01
1.384000000000000000e+10,-6.396525451644675183e-05,2.199362001760449053e-04,-7.198262487258971776e-01,-1.242188559531885381e-02,2.290490906623100114e-04,7.199334216415711474e-01
