# Frequency, Real(S21), Imag(S21), Real(S11), Imag(S11), Amp(S21), Amp(S11)
2.000000000000000000e+09,3.794885432630627596e-05,5.390221332728938638e-05,-7.197381608058781577e-01,-3.178359338763617811e-03,6.592089309361507255e-05,7.197451785794153345e-01
2.106666666666666746e+09,4.286426897053952062e-05,5.675422947812884718e-05,-7.198097442850824867e-01,-3.355105634172558804e-03,7.112234612296522397e-05,7.198175634850626503e-01
2.213333333333333492e+09,3.361904767209097011e-05,6.435417873647578894e-05,-7.198500835478223170e-01,-3.540771866027789695e-03,7.260647827311691386e-05,7.198587916037519907e-01
2.320000000000000000e+09,3.440891294883649006e-05,6.806579313513587588e-05,-7.199192834223550053e-01,-3.708752267558916051e-03,7.626877136440390567e-05,7.199288364045013378e-01
2.426666666666666508e+09,2.945466711568627336e-05,7.306628314010175896e-05,-7.199971947166342590e-01,-3.870172267049426691e-03,7.877981433594146527e-05,7.200075962329838264e-01
2.533333333333333492e+09,3.169683840663004185e-06,7.164589160015162866e-05,-7.200329698602830897e-01,-4.042309774612879054e-03,7.171597227138761400e-05,7.200443166598381461e-01
2.640000000000000477e+09,9.865799369155227457e-06,8.621293145690824781e-05,-7.189551543320292781e-01,-4.173622344843822864e-03,8.677559304081985665e-05,7.189672684233054945e-01
2.746666666666666985e+09,1.144052256225699433e-05,8.063985937361946494e-05,-7.187942177144803768e-01,-4.333538866110536215e-03,8.144736015546872948e-05,7.188072808332396368e-01
2.853333333333333015e+09,1.332953791141338343e-05,8.384978043307855745e-05,-7.187961521582726387e-01,-4.512703191794602622e-03,8.490266344236374434e-05,7.188103177108936537e-01
2.960000000000000000e+09,1.614055265922309111e-05,8.748853397058832656e-05,-7.187783609712913302e-01,-4.698202142231299935e-03,8.896494262611503252e-05,7.187937154037625787e-01
3.066666666666666985e+09,-9.658193140915658515e-07,9.075525642996816900e-05,-7.188172993927774979e-01,-4.876233449984368994e-03,9.076039541901936456e-05,7.188338386296131421e-01
3.173333333333333015e+09,2.597529879993213659e-06,9.417869351788268049e-05,-7.188573001068748747e-01,-5.058581952263623352e-03,9.421450776930661187e-05,7.188750984477855210e-01
3.280000000000000000e+09,-1.325044133287103428e-06,9.750982957471758614e-05,-7.188372370446222126e-01,-5.247306532232594127e-03,9.751883205640655961e-05,7.188563887090311244e-01
3.386666666666666508e+09,-5.988154067763584994e-07,1.012251416655367579e-04,-7.188347272320267933e-01,-5.437894153568649525e-03,1.012269128497919818e-04,7.188552954298714770e-01
3.493333333333333492e+09,-1.096097346419073874e-06,1.061840688918843560e-04,-7.188732107376737401e-01,-5.628803093099286892e-03,1.061897260370760638e-04,7.188952472652414549e-01
3.600000000000000000e+09,5.481189170184153038e-06,1.127834807926844543e-04,-7.188760490861594299e-01,-5.824874544945612791e-03,1.129165929986960197e-04,7.188996474565769734e-01
3.706666666666666985e+09,1.039155448955066050e-05,1.211388451067315210e-04,-7.188826215765943273e-01,-6.024543427744645518e-03,1.215837332808217014e-04,7.189078652569811378e-01
3.813333333333333969e+09,9.206667383192866262e-06,1.301943958144181684e-04,-7.188710020913391396e-01,-6.229124348233063858e-03,1.305195135823993750e-04,7.188979897300811217e-01
3.920000000000000000e+09,-8.264969515519210569e-07,1.385385422348971813e-04,-7.188855028720697593e-01,-6.436853911972851595e-03,1.385410075818034039e-04,7.189143198795755474e-01
4.026666666666666985e+09,-2.665462931807073994e-07,1.442727970097861618e-04,-7.189014911448047274e-01,-6.648511697776165151e-03,1.442730432338396778e-04,7.189322337174897104e-01
4.133333333333333015e+09,4.627731203509083289e-07,1.469722103298958221e-04,-7.189095114068611014e-01,-6.866049606841503200e-03,1.469729388976625671e-04,7.189422982607542867e-01
4.240000000000000000e+09,1.195610518242164043e-06,1.469170426532353168e-04,-7.189186744430280385e-01,-7.089099338680061174e-03,1.469219075103638114e-04,7.189536256201468634e-01
4.346666666666666985e+09,1.759586142682899962e-06,1.451982082835591025e-04,-7.189292129343829441e-01,-7.318232929431998414e-03,1.452088696745117364e-04,7.189664594010354293e-01
4.453333333333333015e+09,2.034401579391470957e-06,1.432811066844938527e-04,-7.189414257916744155e-01,-7.554149185820036028e-03,1.432955488580142298e-04,7.189811116359645649e-01
4.560000000000000000e+09,1.993079088253791377e-06,1.425004554229607851e-04,-7.189557044129104568e-01,-7.797707191768605411e-03,1.425143928170178437e-04,7.189979896670871673e-01
4.666666666666666985e+09,1.702991342411311340e-06,1.436831502651036909e-04,-7.189725732021322591e-01,-8.049965911988194237e-03,1.436932421849291153e-04,7.190176374527120773e-01
4.773333333333333015e+09,1.290183157912742951e-06,1.470020151941880027e-04,-7.189927543871070803e-01,-8.312232589767367882e-03,1.470076768190465785e-04,7.190408013957102495e-01
4.880000000000000000e+09,8.853566202412102104e-07,1.520546600409622255e-04,-7.190172759627811994e-01,-8.586121212165625724e-03,1.520572375670346051e-04,7.190685395777013378e-01
4.986666666666666985e+09,5.741257855596117749e-07,1.580859418743935845e-04,-7.190476588975179828e-01,-8.873613816966184620e-03,1.580869844064709611e-04,7.191024105008785305e-01
5.093333333333333969e+09,3.681476901306530414e-07,1.642469192823925038e-04,-7.190862499600042534e-01,-9.177083103656604943e-03,1.642473318701966219e-04,7.191448072091135568e-01
5.200000000000000000e+09,2.021121502364157547e-07,1.698018089894601614e-04,-7.191367871611400453e-01,-9.499118476932345151e-03,1.698019292747122706e-04,7.191995216212853093e-01
5.306666666666666985e+09,-4.944075955508530566e-08,1.742340473063769680e-04,-7.192051004517220347e-01,-9.841736673184097242e-03,1.742340543210468731e-04,7.192724353793323866e-01
5.413333333333333015e+09,-5.498894406382785435e-07,1.772418088725070799e-04,-7.192990461655971446e-01,-1.020466595288065451e-02,1.772426618813745323e-04,7.193714291115179682e-01
5.520000000000000000e+09,-1.497340513246256136e-06,1.786409628708962257e-04,-7.194266412978033154e-01,-1.058408352516012479e-02,1.786472379972708566e-04,7.195044927122454803e-01
5.626666666666666985e+09,-3.175821762905392781e-06,1.782186101914096142e-04,-7.195940269688504420e-01,-1.097347465352109183e-02,1.782469042155497259e-04,7.196776923006701354e-01
5.733333333333333969e+09,-6.087703435798513243e-06,1.756062881108143661e-04,-7.198050507500242112e-01,-1.136519805303540763e-02,1.757117769450317198e-04,7.198947692628622219e-01
5.840000000000000954e+09,-1.116357677419828191e-05,1.702491761304650330e-04,-7.200616815656672998e-01,-1.175134638356622671e-02,1.706147924990548004e-04,7.201575656764309663e-01
5.946666666666666985e+09,1.213731693955871619e-04,1.531889788364468308e-04,-7.203644136498175143e-01,-1.212405782035201433e-02,1.954438780982490937e-04,7.204664331050244508e-01
6.053333333333333969e+09,-3.514580941739464410e-05,1.491084240392129593e-04,-7.207125131278138142e-01,-1.247562276493429344e-02,1.531944843623998223e-04,7.208204823271756601e-01
6.160000000000000000e+09,-6.008646746235630663e-05,1.334084486847440429e-04,-7.211041509605927713e-01,-1.279853238907971251e-02,1.463154050418984022e-04,7.212177195299015464e-01
6.266666666666666985e+09,-9.925569245545245891e-05,1.163324915268802294e-04,-7.215364658471763448e-01,-1.308551825519844308e-02,1.529213558325423137e-04,7.216551131497931371e-01
6.373333333333333015e+09,-1.575381063725547347e-04,1.019932286688259916e-04,-7.220055826604092619e-01,-1.332960169843893511e-02,1.876722506225728538e-04,7.221286171273342269e-01
6.480000000000000000e+09,-2.394474487349406442e-04,9.739057253952971682e-05,-7.225066017375039173e-01,-1.352416365121681188e-02,2.584956562986105884e-04,7.226331659678657537e-01
6.586666666666666985e+09,-3.468660033253600974e-04,1.125625823976871215e-04,-7.229758093454596857e-01,-1.366125953477807971e-02,3.646729482960654463e-04,7.231048685431450407e-01
6.693333333333333015e+09,-4.824568723278902915e-04,1.618155690381580056e-04,-7.235794530385372125e-01,-1.374067872069008149e-02,5.088702310408352520e-04,7.237099081201348039e-01
6.799999999999999046e+09,-6.377825001338784713e-04,2.603818454440161865e-04,-7.241361040023632789e-01,-1.375228221203501043e-02,6.888869449436912104e-04,7.242666790525165155e-01
6.906666666666666031e+09,-8.023253202568488181e-04,4.263949121952165765e-04,-7.246279697573411172e-01,-1.369365493760935082e-02,9.085915147475357627e-04,7.247573461098524294e-01
7.013333333333333015e+09,-9.534378657771803208e-04,6.722082146695756120e-04,-7.252437089990031449e-01,-1.356356453269780271e-02,1.166579464831694456e-03,7.253705313324104731e-01
7.120000000000000000e+09,-1.064114779260736353e-03,1.011047790184372306e-03,-7.257732119918104408e-01,-1.335983388794989221e-02,1.467841237149926977e-03,7.258961636531929829e-01
7.226666666666666985e+09,-1.096379610969781468e-03,1.443270073981451577e-03,-7.262709606417395714e-01,-1.308386665367940356e-02,1.812478070984770324e-03,7.263888048683614374e-01
7.333333333333333015e+09,-1.007268454390723364e-03,1.957037361929906630e-03,-7.267248198006311943e-01,-1.273882023353596453e-02,2.201041793151653232e-03,7.268364611487251326e-01
7.440000000000000000e+09,-7.523193006366300567e-04,2.523528755783279419e-03,-7.271228143853459835e-01,-1.233023483246039644e-02,2.633283446835052617e-03,7.272273522707255466e-01
7.546666666666666985e+09,-2.917574130934792558e-04,3.094286379154110363e-03,-7.274536893501634127e-01,-1.186612030641889977e-02,3.108010711743711737e-03,7.275504621401119865e-01
7.653333333333333969e+09,4.015588658072930407e-04,3.600619936927015353e-03,-7.277075256661242886e-01,-1.135688032641213839e-02,3.622942651064841885e-03,7.277961401669161834e-01
7.760000000000000954e+09,1.332997872706684524e-03,3.956019875758888873e-03,-7.278763541679189597e-01,-1.081504685673094490e-02,4.174563041330184993e-03,7.279566966484304347e-01
7.866666666666666985e+09,2.476834854617822063e-03,4.062461782844001279e-03,-7.279546969085973762e-01,-1.025482240956853038e-02,4.757972954328108794e-03,7.280269240446672896e-01
7.973333333333333969e+09,3.768289924185564202e-03,3.821230401315278864e-03,-7.279399650626549034e-01,-9.691457505265618083e-03,5.366731848402207447e-03,7.280044760054676933e-01
8.080000000000000954e+09,5.099004810729369785e-03,3.148360101611408744e-03,-7.278326558830124915e-01,-9.140520166336528821e-03,5.992663964320029714e-03,7.278900494433420132e-01
8.186666666666667938e+09,6.318478295976917222e-03,1.993878296474010849e-03,-7.276363177771297819e-01,-8.617136258640035670e-03,6.625610812436953309e-03,7.276873408171672386e-01
8.293333333333334923e+09,7.244074211680398556e-03,3.626888600934663996e-04,-7.273572877403987613e-01,-8.135287464043823927e-03,7.253147895470550728e-03,7.274027817730641665e-01
8.399999999999999046e+09,7.681603541566247098e-03,-1.666779224220751084e-03,-7.270042412485167027e-01,-7.707245237952502909e-03,7.860355332432310271e-03,7.270450938026399301e-01
8.506666666666666031e+09,7.448273164440933139e-03,-3.946241607122589687e-03,-7.265911377162647122e-01,-7.373836617598866078e-03,8.429092237834180310e-03,7.266285535776026983e-01
8.613333333333332062e+09,6.454448955402898071e-03,-6.188677054628411237e-03,-7.261190460031057281e-01,-7.051069867631342726e-03,8.942015153441965070e-03,7.261532803442662942e-01
8.720000000000000000e+09,4.659230279789509585e-03,-8.136848588393344808e-03,-7.256107295839513416e-01,-6.836577291439834003e-03,9.376392256648940701e-03,7.256429353865548881e-01
8.826666666666666031e+09,2.185154920776301475e-03,-9.463876437400134747e-03,-7.250750559044777388e-01,-6.703367261426386621e-03,9.712870803741309803e-03,7.251060417811473480e-01
8.933333333333332062e+09,-7.174404843059449186e-04,-9.907851385284834056e-03,-7.245242571085210859e-01,-6.653277287112215922e-03,9.933792826579974922e-03,7.245548048542039821e-01
9.040000000000000000e+09,-3.688317105697633790e-03,-9.322645108392523319e-03,-7.239702386376610788e-01,-6.686587800429825632e-03,1.002573662576555086e-02,7.240011166355234673e-01
9.146666666666666031e+09,-6.317626188536644427e-03,-7.726831816257091409e-03,-7.234245040849096586e-01,-6.802243025693160625e-03,9.980798093078875263e-03,7.234564835708351405e-01
9.253333333333333969e+09,-8.228395566393879174e-03,-5.317505033091893089e-03,-7.228981438091920397e-01,-6.998020547955862737e-03,9.797058404133767232e-03,7.229320152091515128e-01
9.360000000000000000e+09,-9.158926825902045932e-03,-2.439655450148448240e-03,-7.224018622988508387e-01,-7.270655002168628124e-03,9.478283563898431963e-03,7.224384493346186487e-01
9.466666666666666031e+09,-9.020246367996771070e-03,4.832313218281324304e-04,-7.219460425340084031e-01,-7.615924003981784131e-03,9.033180893226631578e-03,7.219862122152684858e-01
9.573333333333333969e+09,-7.911366839075499591e-03,3.037978901145519956e-03,-7.215408617767682387e-01,-8.028685576839302701e-03,8.474611558427254041e-03,7.215855285450597512e-01
9.680000000000000000e+09,-6.089441806913643666e-03,4.904626833338549680e-03,-7.211964681124514165e-01,-8.502826541954016173e-03,7.818993918279526847e-03,7.212465900627028637e-01
9.786666666666667938e+09,-3.906064883223940055e-03,5.912031879347296251e-03,-7.209231982785568871e-01,-9.031056603245428416e-03,7.085863660442104188e-03,7.209797624063760679e-01
9.893333333333333969e+09,-1.729209815861409896e-03,6.055309419794686898e-03,-7.207317698450922405e-01,-9.604474733888949609e-03,6.297375545155753894e-03,7.207957616405308299e-01
1.000000000000000000e+10,1.290732801962431089e-04,5.476025276085230015e-03,-7.206333213215910805e-01,-1.021185099322886695e-02,5.477546233121627708e-03,7.207056720324154231e-01
1.010666666666666794e+10,1.464088944544958198e-03,4.414768135269536362e-03,-7.206391058818378825e-01,-1.083861605312008182e-02,4.651207813646906011e-03,7.207206091989611929e-01
1.021333333333333397e+10,2.194219334717791535e-03,3.123425608908199889e-03,-7.208688905759220722e-01,-1.144428470811854892e-02,3.817117501889736881e-03,7.209597277606017984e-01
1.031999999999999809e+10,2.388824141106449337e-03,1.937048463530447124e-03,-7.210025742957071326e-01,-1.206817629409807566e-02,3.075489802811680676e-03,7.211035660847213702e-01
1.042666666666666603e+10,2.166520661675680730e-03,9.609011877675852336e-04,-7.213703937812206979e-01,-1.261524810497556028e-02,2.370051237868241786e-03,7.214806924019682155e-01
1.053333333333333206e+10,1.716937334427584127e-03,3.099701743692062639e-04,-7.218558820210148053e-01,-1.307083389939471887e-02,1.744693474324293453e-03,7.219742108324664898e-01
1.064000000000000000e+10,1.239475528771410420e-03,-2.124807662572374828e-05,-7.225627294688843349e-01,-1.330691958702063388e-02,1.239657641118490456e-03,7.226852510785173322e-01
1.074666666666666603e+10,7.831641394752793467e-04,-1.119207544305909690e-04,-7.230813317385390571e-01,-1.356237763612451290e-02,7.911209292089089020e-04,7.232085110090478164e-01
1.085333333333333206e+10,4.801957975215245073e-04,-6.176048294222083283e-05,-7.237339325096113773e-01,-1.354704056120491391e-02,4.841511759880268249e-04,7.238607099254619204e-01
1.096000000000000000e+10,3.018238483212763441e-04,3.743114136298711326e-05,-7.243384062866230488e-01,-1.335382860345233139e-02,3.041360316687267127e-04,7.244614907365438672e-01
1.106666666666666603e+10,2.112212590124772538e-04,1.311823645963361190e-04,-7.248416914770650088e-01,-1.300886889817477396e-02,2.486427819983963580e-04,7.249584183753869926e-01
1.117333333333333397e+10,1.677454510630909724e-04,2.022823428331461753e-04,-7.252071051528663492e-01,-1.255667428603730526e-02,2.627863820186014188e-04,7.253158039318640116e-01
1.128000000000000000e+10,1.451893937624664757e-04,2.566343276704216082e-04,-7.254206229372155423e-01,-1.204882685110497328e-02,2.948578270963175276e-04,7.255206781416404516e-01
1.138666666666666603e+10,1.356732555401300722e-04,3.064847440220307682e-04,-7.254891947657409190e-01,-1.153173894968654092e-02,3.351717926483479388e-04,7.255808381738363400e-01
1.149333333333333397e+10,1.447880226045948420e-04,3.587543485130221805e-04,-7.254328790741103594e-01,-1.103867563823784231e-02,3.868698153988646654e-04,7.255168601773490655e-01
1.160000000000000000e+10,1.835780683233043673e-04,4.088625749148804760e-04,-7.252752112210730795e-01,-1.058827450781421251e-02,4.481846855207594245e-04,7.253524960795439958e-01
1.170666666666666794e+10,2.585320559027949909e-04,4.391203503757449482e-04,-7.250359705667659416e-01,-1.018844902341457803e-02,5.095738474877247815e-04,7.251075527873054316e-01
1.181333333333333397e+10,3.606375533063853247e-04,4.242224739539147754e-04,-7.247285233895741641e-01,-9.842628388420154514e-03,5.567981252324722373e-04,7.247953572892317231e-01
1.192000000000000000e+10,4.600456814235708534e-04,3.458724342213903417e-04,-7.243615601947825944e-01,-9.554982044033431474e-03,5.755603962667233450e-04,7.244245768675172670e-01
1.202666666666666794e+10,5.149386796783393758e-04,2.099634481299357427e-04,-7.239430704101375014e-01,-9.332370009775931355e-03,5.560993556726024842e-04,7.240032198304484634e-01
1.213333333333333397e+10,4.936736499367493048e-04,5.199456626365439935e-05,-7.234836238464810165e-01,-9.182928116031222748e-03,4.964041776242596876e-04,7.235418993692214196e-01
1.224000000000000191e+10,3.953629016081979452e-04,-7.763112919572788973e-05,-7.229971295868761194e-01,-9.113249609477505273e-03,4.029124175155903592e-04,7.230545627470356118e-01
1.234666666666666603e+10,2.524629703176762066e-04,-1.399412280196339164e-04,-7.224994493271132967e-01,-9.126484373919888787e-03,2.886539427779690717e-04,7.225570890905502752e-01
1.245333333333333206e+10,1.130508752344896030e-04,-1.268630291254072267e-04,-7.220066548658218286e-01,-9.222231002099574859e-03,1.699256559503539265e-04,7.220655504974531347e-01
1.256000000000000000e+10,1.563117518368178341e-05,-6.159231380551163481e-05,-7.215343984066626692e-01,-9.397369581699267782e-03,6.354484052650984354e-05,7.215955921699631626e-01
1.266666666666666603e+10,-2.738893875828902948e-05,1.803930610299742929e-05,-7.210984927488341967e-01,-9.646271328144427962e-03,3.279589198334064440e-05,7.211630098633572405e-01
1.277333333333333206e+10,-2.931119532752095357e-05,8.092994514060538442e-05,-7.207153836611003284e-01,-9.959333911870484404e-03,8.607439916717097238e-05,7.207841927912508329e-01
1.288000000000000000e+10,-1.508557858446974527e-05,1.155588119060107458e-04,-7.204004582848003713e-01,-1.032040548236907648e-02,1.165393225068559548e-04,7.204743791879562043e-01
1.298666666666666603e+10,-5.003137090006589153e-06,1.284537221786295042e-04,-7.201631940801531684e-01,-1.070587951462504371e-02,1.285511187126970581e-04,7.202427659920715985e-01
1.309333333333333397e+10,-6.953391432077532779e-06,1.334758201341724397e-04,-7.200016794418842014e-01,-1.108868677562364728e-02,1.336568150634214413e-04,7.200870623567275919e-01
1.320000000000000000e+10,-1.840871058516565021e-05,1.423522050453771026e-04,-7.199017695834453168e-01,-1.144635695033735349e-02,1.435375592194930645e-04,7.199927617252902534e-01
1.330666666666666603e+10,-3.144855058317823934e-05,1.608110761320379457e-04,-7.198428025936967067e-01,-1.176722323235450222e-02,1.638572962688168526e-04,7.199389751836942075e-01
1.341333333333333397e+10,-3.711711434907487707e-05,1.875043602770331001e-04,-7.198052359747431073e-01,-1.205030572857571612e-02,1.911427877281843247e-04,7.199060963798040724e-01
1.352000000000000000e+10,-3.028190268695748723e-05,2.147979637060598015e-04,-7.197746851068725915e-01,-1.230087045968894337e-02,2.169220109684864080e-04,7.198797876970597365e-01
1.362666666666666794e+10,-1.345658861817251186e-05,2.335743154633000240e-04,-7.197417185229708636e-01,-1.252641942667970416e-02,2.339616221122343184e-04,7.198507154723488011e-01
1.373333333333333397e+10,4.947488725872368690e-06,2.400297793247373136e-04,-7.197003382207095568e-01,-1.273532073914857357e-02,2.400807626765933127e-04,7.198130071270820718e-01
1.384000000000000000e+10,6.543247316858271799e-05,-2.226256979663520361e-04,-7.196477255508686444e-01,-1.293696645646264139e-02,2.320422589528956783e-04,7.197639988160243751e-01
