# Frequency, Real(S21), Imag(S21), Real(S11), Imag(S11), Amp(S21), Amp(S11)
2.000000000000000000e+09,3.776956416948260546e-05,5.357850817659212304e-05,-7.197644584915396937e-01,-3.178768412558242561e-03,6.555300539244415521e-05,7.197714778151743653e-01
2.106666666666666746e+09,4.288722083726104629e-05,5.671109053430418100e-05,-7.198097234269609235e-01,-3.353292490340436128e-03,7.110176861888911214e-05,7.198175341782970804e-01
2.213333333333333492e+09,3.354316603177971527e-05,6.436866555555019757e-05,-7.198490211286414642e-01,-3.540134862857708363e-03,7.258422068767987666e-05,7.198577260644706266e-01
2.320000000000000000e+09,3.416107808402125067e-05,6.815205047353887591e-05,-7.199084671724464979e-01,-3.712268511508802233e-03,7.623438357860833157e-05,7.199180384210990269e-01
2.426666666666666508e+09,2.998734626817377107e-05,7.278655871588597930e-05,-7.199539283449259974e-01,-3.871401390480103122e-03,7.872181442210585275e-05,7.199643370945654208e-01
2.533333333333333492e+09,3.475996421198855263e-06,7.156660093799954258e-05,-7.200421787003890017e-01,-4.034529531939214271e-03,7.165096594561069570e-05,7.200534817193421366e-01
2.640000000000000477e+09,1.015217074242413982e-05,8.627585563589043767e-05,-7.189499656210294187e-01,-4.167126702499568229e-03,8.687111048264746060e-05,7.189620421214418799e-01
2.746666666666666985e+09,1.125931198581196291e-05,8.065207154624313209e-05,-7.187994617952511156e-01,-4.327052114586183058e-03,8.143419890374172334e-05,7.188124857409927682e-01
2.853333333333333015e+09,1.342315740950971950e-05,8.376282051152924646e-05,-7.187901227671651405e-01,-4.508963578662998975e-03,8.483154634266158332e-05,7.188042649707846454e-01
2.960000000000000000e+09,1.624774947938128247e-05,8.737288890676494374e-05,-7.187958536834222478e-01,-4.690857647666460926e-03,8.887075491441840649e-05,7.188111597756051685e-01
3.066666666666666985e+09,-9.301143490301561284e-07,9.064261527735521893e-05,-7.188170912536754331e-01,-4.871248867099737395e-03,9.064738725976000046e-05,7.188335966994864323e-01
3.173333333333333015e+09,2.690252804089884383e-06,9.405409186794832523e-05,-7.188505118706760566e-01,-5.053473314188239827e-03,9.409255898982860696e-05,7.188682744489911514e-01
3.280000000000000000e+09,-1.150181543140108652e-06,9.737167090195873037e-05,-7.188503183021658360e-01,-5.240373193497856186e-03,9.737846379883766188e-05,7.188694190423823294e-01
3.386666666666666508e+09,-3.211500858958422882e-06,2.229305957655810014e-04,-7.188477352658164676e-01,-5.430273275618878633e-03,2.229537267375541598e-04,7.188682454835804148e-01
3.493333333333333492e+09,-5.047180480068144286e-07,1.060490691518585428e-04,-7.188699096656878673e-01,-5.621168813664618492e-03,1.060502701942982260e-04,7.188918865598540320e-01
3.600000000000000000e+09,5.487133171065951357e-06,1.128048317951643351e-04,-7.188585025330017642e-01,-5.817088815445450520e-03,1.129382074710429042e-04,7.188820384362627491e-01
3.706666666666666985e+09,6.349493910741610463e-06,1.209888911854099878e-04,-7.188819331181173222e-01,-6.015001727997770428e-03,1.211553872644445127e-04,7.189070969252070453e-01
3.813333333333333969e+09,2.191536406762555718e-05,1.293955363102674129e-04,-7.188329566362389178e-01,-6.219737861330412731e-03,1.312382870935090606e-04,7.188598644280125294e-01
3.920000000000000000e+09,-8.174842768910474643e-07,1.383190377563984596e-04,-7.188934321449064191e-01,-6.424092515142556387e-03,1.383214534567900810e-04,7.189221346889566044e-01
4.026666666666666985e+09,-2.693506345056464658e-07,1.440397823732503539e-04,-7.189002860916415827e-01,-6.635167747694038602e-03,1.440400342123592740e-04,7.189309054378481001e-01
4.133333333333333015e+09,3.794012830327660051e-07,1.467504611034783056e-04,-7.189128460126472664e-01,-6.851276353864936379e-03,1.467509515451844327e-04,7.189454917792317268e-01
4.240000000000000000e+09,1.146860931240083260e-06,1.466588012233307689e-04,-7.189168962387521011e-01,-7.072287311989633798e-03,1.466632853384242498e-04,7.189516819268064740e-01
4.346666666666666985e+09,1.692504110876150739e-06,1.449308042631160763e-04,-7.189270367730677957e-01,-7.299301953338437933e-03,1.449406864704283037e-04,7.189640909060132090e-01
4.453333333333333015e+09,1.956882633437317876e-06,1.430098205538056337e-04,-7.189387451623895364e-01,-7.532775651968681534e-03,1.430232084819549148e-04,7.189782069052539359e-01
4.560000000000000000e+09,1.914011830316676547e-06,1.422329830723035508e-04,-7.189523756029052581e-01,-7.773500781682135714e-03,1.422458608007023289e-04,7.189943989346953002e-01
4.666666666666666985e+09,1.636891234011289803e-06,1.434251258726953809e-04,-7.189581461689151798e-01,-8.023668129994379269e-03,1.434344663757999947e-04,7.190029173744036939e-01
4.773333333333333015e+09,1.228362585780635811e-06,1.467748455310520625e-04,-7.189874504841239355e-01,-8.280825310210205084e-03,1.467799855406258730e-04,7.190351354568694786e-01
4.880000000000000000e+09,8.376223631182235130e-07,1.518699695350237495e-04,-7.190104296159164354e-01,-8.550097255815587022e-03,1.518722794251545899e-04,7.190612644688549882e-01
4.986666666666666985e+09,5.430424267401717834e-07,1.579648802945173686e-04,-7.190386373004029608e-01,-8.832076367314967841e-03,1.579658137115067136e-04,7.190928782179522027e-01
5.093333333333333969e+09,3.588161401520639671e-07,1.642183495727693508e-04,-7.190740442470962002e-01,-9.128948015202996424e-03,1.642187415778927268e-04,7.191319898333957683e-01
5.200000000000000000e+09,2.253338651853237261e-07,1.699058944653538696e-04,-7.191197452599189521e-01,-9.443200658830868885e-03,1.699060438872695468e-04,7.191817448054237394e-01
5.306666666666666985e+09,2.570393794433904619e-08,1.745277631603103688e-04,-7.191806241255620513e-01,-9.777142114460188674e-03,1.745277650531107112e-04,7.192470803733299611e-01
5.413333333333333015e+09,-3.912078615747637258e-07,1.778092726110795077e-04,-7.192637188186712383e-01,-1.013155259455742266e-02,1.778097029694165551e-04,7.193350718315080217e-01
5.520000000000000000e+09,-1.200067402973074703e-06,1.796120698626555649e-04,-7.193770750079655496e-01,-1.050404273629798428e-02,1.796160789075386345e-04,7.194537587370171128e-01
5.626666666666666985e+09,-2.629599655961167574e-06,1.797925591619024788e-04,-7.195275426440844724e-01,-1.088909227717013706e-02,1.798117880572262090e-04,7.196099338906151166e-01
5.733333333333333969e+09,-5.063970606390679147e-06,1.780642597119757697e-04,-7.197197513039440553e-01,-1.127953619351890376e-02,1.781362523044546895e-04,7.198081330144526779e-01
5.840000000000000954e+09,-9.222530770357299486e-06,1.739332535627245312e-04,-7.199563251903624561e-01,-1.166769582919862172e-02,1.741775868724940385e-04,7.200508630003671362e-01
5.946666666666666985e+09,-1.639404244220188573e-05,1.667682055910285220e-04,-7.202383144711226315e-01,-1.204584633621308930e-02,1.675720711325376865e-04,7.203390396515793048e-01
6.053333333333333969e+09,-2.867302504643989911e-05,1.560467873227750261e-04,-7.205654925958397961e-01,-1.240637739478092985e-02,1.586592014321046252e-04,7.206722884362537496e-01
6.160000000000000000e+09,-4.912105671202730600e-05,1.417934595015052346e-04,-7.209365250197724562e-01,-1.274185567163960663e-02,1.500608655509863901e-04,7.210491162143823907e-01
6.266666666666666985e+09,-8.175719889557300888e-05,1.251879812489878720e-04,-7.213490557027050221e-01,-1.304506358039910809e-02,1.495201331608798023e-04,7.214670012183516112e-01
6.373333333333333015e+09,-1.312760113447023803e-04,1.092793009953081272e-04,-7.217997419054744679e-01,-1.330904072814023849e-02,1.708079529196389009e-04,7.219224321074341200e-01
6.480000000000000000e+09,-2.024060895092220556e-04,9.968954260604855327e-05,-7.222842549658369249e-01,-1.352714055744602510e-02,2.256240899713910755e-04,7.224109138871138702e-01
6.586666666666666985e+09,-2.988621333512807548e-04,1.051454916501974525e-04,-7.227972592286554532e-01,-1.369311149706385795e-02,3.168187954740697677e-04,7.229269529149726647e-01
6.693333333333333015e+09,-4.219098007570751653e-04,1.376407898586924118e-04,-7.233323804666622614e-01,-1.380121111065315057e-02,4.437937212352148324e-04,7.234640323192916833e-01
6.799999999999999046e+09,-2.069222743050252631e-04,2.419613432113696533e-04,-7.238821773154369144e-01,-1.384636076044162487e-02,3.183741811331665286e-04,7.240145912488545887e-01
6.906666666666666031e+09,-7.302328578672901555e-04,3.448233512703101095e-04,-7.244381327214511890e-01,-1.382434541735172266e-02,8.075538188197227711e-04,7.245700246816461076e-01
7.013333333333333015e+09,-8.902921473827986668e-04,5.522183470730115430e-04,-7.249906859539657633e-01,-1.373205816158297801e-02,1.047647464816063101e-03,7.251207238393858612e-01
7.120000000000000000e+09,-1.023996907997787526e-03,8.471117990818605777e-04,-7.255293279396427542e-01,-1.356778118654648584e-02,1.328972560940494237e-03,7.256561791832794039e-01
7.226666666666666985e+09,-1.098115984307777415e-03,1.235484853715723566e-03,-7.260427820134038868e-01,-1.333148539099908089e-02,1.652961445029254650e-03,7.261651670360494970e-01
7.333333333333333015e+09,-1.072505699139930484e-03,1.712325852018815528e-03,-7.265192872506375243e-01,-1.302511995538320304e-02,2.020477245152637897e-03,7.266360357820319527e-01
7.440000000000000000e+09,-9.033346415921591696e-04,2.257641333731924375e-03,-7.269469915561307394e-01,-1.265285374307863892e-02,2.431657431974186719e-03,7.270570976480134062e-01
7.546666666666666985e+09,-5.482110910004010622e-04,2.833222492481792584e-03,-7.273144465128512648e-01,-1.222122449013064542e-02,2.885772876059477989e-03,7.274171172266524765e-01
7.653333333333333969e+09,2.685096730214195197e-05,3.380984996042141633e-03,-7.276111773381848113e-01,-1.173915242318890155e-02,3.381091616313752334e-03,7.277058699001089925e-01
7.760000000000000954e+09,8.389994054773725930e-04,3.823783835539137314e-03,-7.278282819991107599e-01,-1.121778416115062037e-02,3.914746840259505402e-03,7.279147249226816108e-01
7.866666666666666985e+09,1.879406123621997753e-03,4.069596396446811121e-03,-7.279589981544947186e-01,-1.067015128007858457e-02,4.482608861754584263e-03,7.280371935021145990e-01
7.973333333333333969e+09,3.104649548088145739e-03,4.019814724474849062e-03,-7.279991696265231127e-01,-1.011065360599526682e-02,5.079149459855334184e-03,7.280693760166317974e-01
8.080000000000000954e+09,4.430354574494387021e-03,3.582020072628632271e-03,-7.279475492918560109e-01,-9.554405973920149578e-03,5.697272106583797097e-03,7.280102480003516341e-01
8.186666666666667938e+09,5.729306948534860014e-03,2.686939041539841179e-03,-7.278058934785102130e-01,-9.016512374606438715e-03,6.328080239968584750e-03,7.278617424191589080e-01
8.293333333333334923e+09,6.836541536204590076e-03,1.308219693670821093e-03,-7.275788319293345907e-01,-8.511347263982865785e-03,6.960584669635072781e-03,7.276286138573049289e-01
8.399999999999999046e+09,7.548740828899174089e-03,-5.225367907391604422e-04,-7.272736054463194710e-01,-8.025754695684653509e-03,7.566804662442752454e-03,7.273178878023859317e-01
8.506666666666666031e+09,7.724019485699599834e-03,-2.676737759715888936e-03,-7.268992042059313485e-01,-7.649424678276730075e-03,8.174680547260299718e-03,7.269394519305750757e-01
8.613333333333332062e+09,7.137209546106661889e-03,-4.982554879647401944e-03,-7.263178029426589077e-01,-7.274231010117308827e-03,8.704344503392210872e-03,7.263542285333235426e-01
8.720000000000000000e+09,5.816808095024536551e-03,-7.133000491879081320e-03,-7.259870873088632992e-01,-7.049248551999842682e-03,9.204072600294403370e-03,7.260213101861094920e-01
8.826666666666666031e+09,3.711204806396019469e-03,-8.853910082598290612e-03,-7.254728343311116490e-01,-6.863206818630201121e-03,9.600248166883634110e-03,7.255052976789707619e-01
8.933333333333332062e+09,1.019746809256388874e-03,-9.839219788474976025e-03,-7.249357393816191486e-01,-6.757655135902730474e-03,9.891922442119435721e-03,7.249672352152961574e-01
9.040000000000000000e+09,-1.960882629486487838e-03,-9.870564415838136568e-03,-7.243875305570078860e-01,-6.733826163863494869e-03,1.006345380939525566e-02,7.244188283315702304e-01
9.146666666666666031e+09,-4.846725127681578496e-03,-8.865413303167573450e-03,-7.238395777620307836e-01,-6.791560534897597007e-03,1.010377639792570809e-02,7.238714386057887307e-01
9.253333333333333969e+09,-7.416197215604008845e-03,-6.948110108870834620e-03,-7.233028615871301970e-01,-6.929504795524064550e-03,1.016249060150737488e-02,7.233360544151261617e-01
9.360000000000000000e+09,-8.791249368054195740e-03,-4.270477704621101003e-03,-7.227879924880881157e-01,-7.145252488114442468e-03,9.773589170666997089e-03,7.228233094734006769e-01
9.466666666666666031e+09,-9.315027580746823924e-03,-1.318613917937385121e-03,-7.223052589808848234e-01,-7.435437774394712020e-03,9.407894636668303126e-03,7.223435283065391399e-01
9.573333333333333969e+09,-8.789755860956264405e-03,1.517221663205368899e-03,-7.218647065075733948e-01,-7.795789077777116362e-03,8.919740448606935240e-03,7.219068006526951908e-01
9.680000000000000000e+09,-7.376927329426942459e-03,3.853795795115623219e-03,-7.214762608759336393e-01,-8.221129023604060310e-03,8.322908076754001114e-03,7.215230987085173853e-01
9.786666666666667938e+09,-5.373838071034977952e-03,5.423499924974642915e-03,-7.211499011799573644e-01,-8.705278103706937456e-03,7.634951673056280044e-03,7.212024416477839095e-01
9.893333333333333969e+09,-3.143797629785216423e-03,6.116001380957731756e-03,-7.208958554287359100e-01,-9.240798466212771234e-03,6.876695167660118804e-03,7.209550795511617816e-01
1.000000000000000000e+10,-1.039506492104667282e-03,5.981789398408727393e-03,-7.207247442003079652e-01,-9.818510700878411643e-03,6.071439545449068380e-03,7.207916204111856073e-01
1.010666666666666794e+10,6.620820336668066823e-04,5.201882924440904589e-03,-7.206475384798094463e-01,-1.042673839510004433e-02,5.243847688376754301e-03,7.207229645228242498e-01
1.021333333333333397e+10,1.801023182965444782e-03,4.034969021566345293e-03,-7.206751328311680194e-01,-1.105029249745980574e-02,4.418671690743616702e-03,7.207598463049263993e-01
1.031999999999999809e+10,2.346525659546685842e-03,2.755958092064005917e-03,-7.208172766504284956e-01,-1.166932143743348513e-02,3.619597722969237000e-03,7.209117278700287734e-01
1.042666666666666603e+10,2.381103568427178890e-03,1.599451425875761303e-03,-7.210805957226370522e-01,-1.225834902475084198e-02,2.868431464635794962e-03,7.211847839829440554e-01
1.053333333333333206e+10,2.062850918012019020e-03,7.192665444709185271e-04,-7.214655623621060165e-01,-1.278610160573274632e-02,2.184650606375803088e-03,7.215788536734859537e-01
1.064000000000000000e+10,1.575817879416296918e-03,1.716238728406813303e-04,-7.219626641394265576e-01,-1.321699924161006713e-02,1.585136190621143229e-03,7.220836360701239354e-01
1.074666666666666603e+10,1.105035029704531675e-03,-7.712363375360874185e-05,-7.226720027071014130e-01,-1.342011017835053298e-02,1.107723102475278391e-03,7.227965985350871536e-01
1.085333333333333206e+10,6.643743438665500540e-04,-1.172457445028847771e-04,-7.232696204730120204e-01,-1.353845571232815438e-02,6.746405216055026107e-04,7.233963185434727494e-01
1.096000000000000000e+10,3.876806448389927512e-04,-5.910411366961352544e-05,-7.238218005332807126e-01,-1.361103277270618410e-02,3.921601441190165384e-04,7.239497628567745924e-01
1.106666666666666603e+10,2.691182782225839086e-04,6.774963923482206236e-05,-7.244021644297315987e-01,-1.340087618690464534e-02,2.775151550635327488e-04,7.245261067160082558e-01
1.117333333333333397e+10,1.957132664762204583e-04,1.563811100584351632e-04,-7.248777282919788290e-01,-1.304980339386809830e-02,2.505169340741270176e-04,7.249951850477067694e-01
1.128000000000000000e+10,1.600408018055586535e-04,2.220963911525797503e-04,-7.252169030981385767e-01,-1.260255764957402165e-02,2.737514661249612494e-04,7.253263961821365680e-01
1.138666666666666603e+10,1.413639909063056665e-04,2.744209099753528195e-04,-7.254099854046635043e-01,-1.210844566703538766e-02,3.086917779220217108e-04,7.255110346378377262e-01
1.149333333333333397e+10,1.365143833880798157e-04,3.249730331325919328e-04,-7.254663297498857855e-01,-1.161011568412409142e-02,3.524821259797783577e-04,7.255592259677832168e-01
1.160000000000000000e+10,1.533926509352529627e-04,3.775898867316550148e-04,-7.254062716788958198e-01,-1.113691705028070460e-02,4.075578829110883847e-04,7.254917573015290388e-01
1.170666666666666794e+10,2.023101173633056577e-04,4.239404414039286365e-04,-7.252520411705964953e-01,-1.070441976344403169e-02,4.697391632015712314e-04,7.253310332700433349e-01
1.181333333333333397e+10,2.860287049282020941e-04,4.439558272007737539e-04,-7.250213624831256531e-01,-1.031871890857446149e-02,5.281185440300574952e-04,7.250947882979176251e-01
1.192000000000000000e+10,3.903121029710849730e-04,4.134635715193282096e-04,-7.247255223935880064e-01,-9.982563310895618131e-03,5.685909449676713892e-04,7.247942703822340960e-01
1.202666666666666794e+10,4.818346690216549649e-04,3.194674862860676025e-04,-7.243715222970357193e-01,-9.700190650437444384e-03,5.781212010168340545e-04,7.244364678932030399e-01
1.213333333333333397e+10,5.201910831461382294e-04,1.749263437147184153e-04,-7.239661330888562674e-01,-9.478865347650668183e-03,5.488150769705150544e-04,7.240281836696071949e-01
1.224000000000000191e+10,4.801641140654015934e-04,1.972796642457527684e-05,-7.235190514200908751e-01,-9.327211355548380850e-03,4.805692136367675912e-04,7.235791695726868644e-01
1.234666666666666603e+10,3.687197466497856100e-04,-9.704648169059582269e-05,-7.230435150512974918e-01,-9.252323781479323758e-03,3.812771579546895455e-04,7.231027106525691472e-01
1.245333333333333206e+10,2.229857474462681620e-04,-1.426159350968841640e-04,-7.225548495870440791e-01,-9.257872636918363859e-03,2.646921768918181618e-04,7.226141562877919089e-01
1.256000000000000000e+10,9.027120270302610720e-05,-1.161248799176211894e-04,-7.220686976198533724e-01,-9.343983642434159839e-03,1.470845939360501794e-04,7.221291533463672918e-01
1.266666666666666603e+10,4.099792172514599717e-06,-4.509047969948151604e-05,-7.216003295148774033e-01,-9.508058614964967625e-03,4.527648015677860000e-05,7.216629675510620734e-01
1.277333333333333206e+10,-2.896115161625483880e-05,3.286964363042015335e-05,-7.211651374308019058e-01,-9.745049796250328245e-03,4.380823866957584062e-05,7.212309764847311122e-01
1.288000000000000000e+10,-2.574023554996845401e-05,9.024126151484164774e-05,-7.207791007129481509e-01,-1.004618317379160457e-02,9.384052965514367390e-05,7.208491089131813245e-01
1.298666666666666603e+10,-1.121464594285248970e-05,1.196753630823869322e-04,-7.204573271375089849e-01,-1.039660168274861816e-02,1.201996706007328407e-04,7.205323376175931660e-01
1.309333333333333397e+10,-3.342259160438073836e-06,1.300583510436802430e-04,-7.202097056662081220e-01,-1.077441151351244547e-02,1.301012888963698597e-04,7.202902943114454226e-01
1.320000000000000000e+10,-7.463557914799814679e-06,1.352440258634840108e-04,-7.200358332172680509e-01,-1.115407673326463192e-02,1.354498107363399028e-04,7.201222219489251675e-01
1.330666666666666603e+10,-1.968243163303447560e-05,1.455968747715437827e-04,-7.199238953018000098e-01,-1.151361605082804052e-02,1.469212307947005962e-04,7.200159570322611780e-01
1.341333333333333397e+10,-3.203421747999173015e-05,1.653659006968521169e-04,-7.198554535729710935e-01,-1.184047121914235876e-02,1.684401145892407722e-04,7.199528253972194980e-01
1.352000000000000000e+10,-3.634415382868668950e-05,1.923381280200426875e-04,-7.198122984775695565e-01,-1.213187182477480294e-02,1.957418018916183555e-04,7.199145278111385160e-01
1.362666666666666794e+10,-2.842239701883660932e-05,2.188639881780678241e-04,-7.197803648143918931e-01,-1.239110627354687681e-02,2.207017851615744966e-04,7.198870141119516619e-01
1.373333333333333397e+10,-1.128115788994553579e-05,2.364176113336068617e-04,-7.197497756361038723e-01,-1.262389047840218985e-02,2.366866102508257059e-04,7.198604740774650068e-01
1.384000000000000000e+10,6.794162021228803376e-06,2.417993045293232606e-04,-7.197134694974268720e-01,-1.283709869870561758e-02,2.418947380751286958e-04,7.198279442193279420e-01
